

THIS CASE J: 0 M: 2 
adc calibration begin
calibration begin
RX0 cali pre ,absolute value dc_i_tmp : 7 , value dc_q_tmp : 1 ,

reg0x1180=0x21231f25.
reg0x11bc=0x27292729.
RX1 cali pre ,absolute value dc_i_tmp : 0 , value dc_q_tmp : 2 ,reg0x11f8=0x27272125.
reg0x1234=0x17152121.
rx0 tia cali begin:
####:reg0x1270=0x601f6815.
tia_cnt_i : 62 ,
tia_cnt_q : 1 ,
I:reg0x1150=0x21231f25.
Q:reg0x1154=0x27292729.
RX0 tia case :0,absolute value dc_i : -1 , value dc_q : 1 
####:reg0x1270=0x2a202a53.
####:reg0x1274=0x5e216a15.
tia_cnt_i : 90 ,
tia_cnt_q : 0 ,
I:reg0x1150=0x21231f25.
Q:reg0x1154=0x27292729.
RX0 tia case :1,absolute value dc_i : -1 , value dc_q : 0 
####:reg0x1274=0x5e21106f.
####:reg0x1278=0x5c236619.
tia_cnt_i : 102 ,
tia_cnt_q : 0 ,
I:reg0x1150=0x21231f25.
Q:reg0x1154=0x27292729.
RX0 tia case :2,absolute value dc_i : -2 , value dc_q : 0 
####:reg0x1278=0x5c23007f.
####:reg0x127c=0x5825621d.
tia_cnt_i : 98 ,
tia_cnt_q : 0 ,
I:reg0x1150=0x21231f25.
Q:reg0x1154=0x27292729.
RX0 tia case :3,absolute value dc_i : -3 , value dc_q : 0 
####:reg0x127c=0x5825007f.
####:reg0x1280=0x4c315429.
tia_cnt_i : 84 ,
tia_cnt_q : 0 ,
I:reg0x1150=0x21231f25.
Q:reg0x1154=0x27292729.
RX0 tia case :4,absolute value dc_i : -4 , value dc_q : 0 
####:reg0x1280=0x4c31007d.
####:reg0x1284=0x4c315429.
tia_cnt_i : 84 ,
tia_cnt_q : 0 ,
I:reg0x1150=0x21231f25.
Q:reg0x1154=0x27292729.
RX0 tia case :5,absolute value dc_i : -4 , value dc_q : 0 
####:reg0x1284=0x4c31007d.
####:reg0x1288=0x4c334e31.
tia_cnt_i : 78 ,
tia_cnt_q : 0 ,
I:reg0x1150=0x21231f25.
Q:reg0x1154=0x27292729.
RX0 tia case :6,absolute value dc_i : -3 , value dc_q : 0 
####:reg0x1288=0x4c33007f.
####:reg0x128c=0x4a35522f.
tia_cnt_i : 80 ,
tia_cnt_q : 0 ,
I:reg0x1150=0x21231f25.
Q:reg0x1154=0x27292729.
RX0 tia case :7,absolute value dc_i : -3 , value dc_q : 0 
####:reg0x128c=0x4a35027f.
####:reg0x1290=0x48374a35.
tia_cnt_i : 74 ,
tia_cnt_q : 0 ,
I:reg0x1150=0x21231f25.
Q:reg0x1154=0x27292729.
RX0 tia case :8,absolute value dc_i : -4 , value dc_q : 1 
####:reg0x1290=0x4837007f.
####:reg0x1294=0x48374a35.
tia_cnt_i : 74 ,
tia_cnt_q : 0 ,
I:reg0x1150=0x21231f25.
Q:reg0x1154=0x27292729.
RX0 tia case :9,absolute value dc_i : -4 , value dc_q : 0 
####:reg0x1294=0x4837007f.
####:reg0x1298=0x48374c33.
tia_cnt_i : 76 ,
tia_cnt_q : 0 ,
I:reg0x1150=0x21231f25.
Q:reg0x1154=0x27292729.
RX0 tia case :10,absolute value dc_i : -5 , value dc_q : 0 
####:reg0x1298=0x4837007f.
####:reg0x129c=0x48374a35.
tia_cnt_i : 74 ,
tia_cnt_q : 0 ,
I:reg0x1150=0x21231f25.
Q:reg0x1154=0x27292729.
RX0 tia case :11,absolute value dc_i : -4 , value dc_q : 0 
####:reg0x129c=0x4837007f.
####:reg0x12a0=0x4a374c33.
tia_cnt_i : 76 ,
tia_cnt_q : 0 ,
I:reg0x1150=0x21231f25.
Q:reg0x1154=0x27292729.
RX0 tia case :12,absolute value dc_i : -3 , value dc_q : 0 
####:reg0x12a0=0x4a37007f.
rx1 tia cali begin:
Q:reg0x12b0=0x4c334e33.
 RX1 :reg0x1130=0x4e334c33.
tia_cnt_i : 49 ,
tia_cnt_q : 64 ,
RX1 tia case :0,absolute value dc_i : 2 , value dc_q : -1 
RX1:reg0x12b0=0x7f737f02.
Q:reg0x12b4=0x4c334c33.
 RX1 :reg0x1130=0x4c334c33.
tia_cnt_i : 7 ,
tia_cnt_q : 10 ,
RX1 tia case :1,absolute value dc_i : 1 , value dc_q : -1 
RX1:reg0x12b4=0x533d532c.
Q:reg0x12b8=0x4a374a37.
 RX1 :reg0x1130=0x4a374a37.
tia_cnt_i : 0 ,
tia_cnt_q : 0 ,
RX1 tia case :2,absolute value dc_i : 1 , value dc_q : -1 
RX1:reg0x12b8=0x4a374a37.
Q:reg0x12bc=0x48374837.
 RX1 :reg0x1130=0x48374837.
tia_cnt_i : 0 ,
tia_cnt_q : 0 ,
RX1 tia case :3,absolute value dc_i : 1 , value dc_q : -1 
RX1:reg0x12bc=0x48374837.
Q:reg0x12c0=0x46394639.
 RX1 :reg0x1130=0x46394639.
tia_cnt_i : 0 ,
tia_cnt_q : 0 ,
RX1 tia case :4,absolute value dc_i : 1 , value dc_q : -1 
RX1:reg0x12c0=0x46394639.
Q:reg0x12c4=0x3e413e41.
 RX1 :reg0x1130=0x3e413e41.
tia_cnt_i : 0 ,
tia_cnt_q : 0 ,
RX1 tia case :5,absolute value dc_i : 1 , value dc_q : -1 
RX1:reg0x12c4=0x3e413e41.
Q:reg0x12c8=0x3c413e43.
 RX1 :reg0x1130=0x3e433c41.
tia_cnt_i : 0 ,
tia_cnt_q : 0 ,
RX1 tia case :6,absolute value dc_i : 1 , value dc_q : -1 
RX1:reg0x12c8=0x3c413e43.
Q:reg0x12cc=0x3c433e43.
 RX1 :reg0x1130=0x3e433c43.
tia_cnt_i : 0 ,
tia_cnt_q : 0 ,
RX1 tia case :7,absolute value dc_i : 1 , value dc_q : -1 
RX1:reg0x12cc=0x3c433e43.
Q:reg0x12d0=0x3a453a45.
 RX1 :reg0x1130=0x3a453a45.
tia_cnt_i : 0 ,
tia_cnt_q : 0 ,
RX1 tia case :8,absolute value dc_i : 1 , value dc_q : -1 
RX1:reg0x12d0=0x3a453a45.
Q:reg0x12d4=0x3a453a45.
 RX1 :reg0x1130=0x3a453a45.
tia_cnt_i : 0 ,
tia_cnt_q : 0 ,
RX1 tia case :9,absolute value dc_i : 1 , value dc_q : -1 
RX1:reg0x12d4=0x3a453a45.
Q:reg0x12d8=0x3a453a45.
 RX1 :reg0x1130=0x3a453a45.
tia_cnt_i : 0 ,
tia_cnt_q : 0 ,
RX1 tia case :10,absolute value dc_i : 1 , value dc_q : -1 
RX1:reg0x12d8=0x3a453a45.
Q:reg0x12dc=0x3c433a45.
 RX1 :reg0x1130=0x3a453c43.
tia_cnt_i : 0 ,
tia_cnt_q : 0 ,
RX1 tia case :11,absolute value dc_i : 1 , value dc_q : -1 
RX1:reg0x12dc=0x3c433a45.
Q:reg0x12e0=0x38453845.
 RX1 :reg0x1130=0x38453845.
tia_cnt_i : 0 ,
tia_cnt_q : 0 ,
RX1 tia case :12,absolute value dc_i : 1 , value dc_q : -1 
RX1:reg0x12e0=0x38453845.
tia calibration end!
rx0 vga calibration begin
reg0x1120=0x3fc100.
vga case:1 pass.
RX0 vga case:1 ,absolute value dc_i_tmp : 7 , value dc_q_tmp : 2 ,I:reg0x1184=0x2123271b.   Q:reg0x11c0=0x27272d27.
vga case:2 pass.
RX0 vga case:2 ,absolute value dc_i_tmp : 7 , value dc_q_tmp : 2 ,I:reg0x1188=0x2123271b.   Q:reg0x11c4=0x27272d27.
vga case:3 pass.
RX0 vga case:3 ,absolute value dc_i_tmp : 7 , value dc_q_tmp : 2 ,I:reg0x118c=0x2123291d.   Q:reg0x11c8=0x27272d27.
vga case:4 pass.
RX0 vga case:4 ,absolute value dc_i_tmp : 7 , value dc_q_tmp : 3 ,I:reg0x1190=0x2123271b.   Q:reg0x11cc=0x27272d27.
vga case:5 pass.
RX0 vga case:5 ,absolute value dc_i_tmp : 7 , value dc_q_tmp : 3 ,I:reg0x1194=0x2123271b.   Q:reg0x11d0=0x27272d27.
vga case:6 pass.
RX0 vga case:6 ,absolute value dc_i_tmp : 7 , value dc_q_tmp : 3 ,I:reg0x1198=0x2123291d.   Q:reg0x11d4=0x27272d27.
vga case:7 pass.
RX0 vga case:7 ,absolute value dc_i_tmp : 7 , value dc_q_tmp : 2 ,I:reg0x119c=0x2123291d.   Q:reg0x11d8=0x27252d27.
vga case:8 pass.
RX0 vga case:8 ,absolute value dc_i_tmp : 7 , value dc_q_tmp : 3 ,I:reg0x11a0=0x1d272719.   Q:reg0x11dc=0x25272d27.
vga case:9 pass.
RX0 vga case:9 ,absolute value dc_i_tmp : 6 , value dc_q_tmp : 2 ,I:reg0x11a4=0x27212d19.   Q:reg0x11e0=0x23292d27.
vga case:10 pass.
RX0 vga case:10 ,absolute value dc_i_tmp : 6 , value dc_q_tmp : 2 ,I:reg0x11a8=0x21232d15.   Q:reg0x11e4=0x27252d25.
vga case:11 pass.
RX0 vga case:11 ,absolute value dc_i_tmp : 5 , value dc_q_tmp : 3 ,I:reg0x11ac=0x291d3111.   Q:reg0x11e8=0x23292d25.
vga case:12 pass.
RX0 vga case:12 ,absolute value dc_i_tmp : 6 , value dc_q_tmp : 3 ,I:reg0x11b0=0x1d29330f.   Q:reg0x11ec=0x27252f25.
vga case:13 pass.
RX0 vga case:13 ,absolute value dc_i_tmp : 6 , value dc_q_tmp : 1 ,I:reg0x11b4=0x2127390b.   Q:reg0x11f0=0x272d2d23.
vga case:14 pass.
RX0 vga case:14 ,absolute value dc_i_tmp : 5 , value dc_q_tmp : 0 ,I:reg0x11b8=0x11353f01.   Q:reg0x11f4=0x1b1f3123.
rx1 vga calibration begin
rx1 vga case:1 pass.
RX1 vga case:1 ,absolute value dc_i_tmp : 0 , value dc_q_tmp : 4 ,I:reg0x11fc=0x25271b2b. Q:reg0x1238=0x15152121.
rx1 vga case:2 pass.
RX1 vga case:2 ,absolute value dc_i_tmp : 0 , value dc_q_tmp : 3 ,I:reg0x1200=0x27251d2b. Q:reg0x123c=0x15152121.
rx1 vga case:3 pass.
RX1 vga case:3 ,absolute value dc_i_tmp : 0 , value dc_q_tmp : 3 ,I:reg0x1204=0x25271b2b. Q:reg0x1240=0x15152121.
rx1 vga case:4 pass.
RX1 vga case:4 ,absolute value dc_i_tmp : 0 , value dc_q_tmp : 3 ,I:reg0x1208=0x25271b2b. Q:reg0x1244=0x15152121.
rx1 vga case:5 pass.
RX1 vga case:5 ,absolute value dc_i_tmp : 0 , value dc_q_tmp : 3 ,I:reg0x120c=0x25271b2b. Q:reg0x1248=0x15152121.
rx1 vga case:6 pass.
RX1 vga case:6 ,absolute value dc_i_tmp : 0 , value dc_q_tmp : 3 ,I:reg0x1210=0x25271b2b. Q:reg0x124c=0x15152121.
rx1 vga case:7 pass.
RX1 vga case:7 ,absolute value dc_i_tmp : 0 , value dc_q_tmp : 3 ,I:reg0x1214=0x23271b2b. Q:reg0x1250=0x15152121.
rx1 vga case:8 pass.
RX1 vga case:8 ,absolute value dc_i_tmp : 0 , value dc_q_tmp : 4 ,I:reg0x1218=0x29231b2d. Q:reg0x1254=0x15172121.
rx1 vga case:9 pass.
RX1 vga case:9 ,absolute value dc_i_tmp : 0 , value dc_q_tmp : 3 ,I:reg0x121c=0x232b172f. Q:reg0x1258=0x15172121.
rx1 vga case:10 pass.
RX1 vga case:10 ,absolute value dc_i_tmp : 0 , value dc_q_tmp : 4 ,I:reg0x1220=0x25271531. Q:reg0x125c=0x13172121.
rx1 vga case:11 pass.
RX1 vga case:11 ,absolute value dc_i_tmp : 0 , value dc_q_tmp : 4 ,I:reg0x1224=0x23291135. Q:reg0x1260=0x1b112321.
rx1 vga case:12 pass.
RX1 vga case:12 ,absolute value dc_i_tmp : 0 , value dc_q_tmp : 4 ,I:reg0x1228=0x27250f39. Q:reg0x1264=0x19132321.
rx1 vga case:13 pass.
RX1 vga case:13 ,absolute value dc_i_tmp : 0 , value dc_q_tmp : 4 ,I:reg0x122c=0x2921093d. Q:reg0x1268=0x17152321.
rx1 vga case:14 pass.
RX1 vga case:14 ,absolute value dc_i_tmp : 15 , value dc_q_tmp : 2 ,I:reg0x1230=0x27251d29. Q:reg0x126c=0x1519211f.
reg0x1120=0x3c0100.
vga calibration end!
RX0: 0x103c : e000c000 ,0x1040 : 30001102 
RX1: 0x1054 : e000c000 ,0x1058 : 30001100 
THIS CASE J: 0 M: 3 
adc calibration begin
calibration begin
RX0 cali pre ,absolute value dc_i_tmp : 15 , value dc_q_tmp : 15 ,

reg0x1180=0x21231f25.
reg0x11bc=0x27292729.
RX1 cali pre ,absolute value dc_i_tmp : 15 , value dc_q_tmp : 15 ,reg0x11f8=0x27272125.
reg0x1234=0x17152121.
rx0 tia cali begin:
####:reg0x1270=0x5e216c13.
tia_cnt_i : 108 ,
tia_cnt_q : 1 ,
I:reg0x1150=0x21231f25.
Q:reg0x1154=0x27292729.
RX0 tia case :0,absolute value dc_i : -16 , value dc_q : -16 
####:reg0x1270=0x22007f.
####:reg0x1274=0x601f6a17.
tia_cnt_i : 104 ,
tia_cnt_q : 96 ,
I:reg0x1150=0x21231f25.
Q:reg0x1154=0x27292729.
RX0 tia case :1,absolute value dc_i : -16 , value dc_q : -16 
####:reg0x1274=0x27f027f.
####:reg0x1278=0x5c236817.
tia_cnt_i : 104 ,
tia_cnt_q : 1 ,
I:reg0x1150=0x21231f25.
Q:reg0x1154=0x27292729.
RX0 tia case :2,absolute value dc_i : -16 , value dc_q : -16 
####:reg0x1278=0x24007f.
####:reg0x127c=0x5a25661b.
tia_cnt_i : 100 ,
tia_cnt_q : 90 ,
I:reg0x1150=0x21231f25.
Q:reg0x1154=0x27292729.
RX0 tia case :3,absolute value dc_i : -16 , value dc_q : -16 
####:reg0x127c=0x27f027f.
####:reg0x1280=0x4c315429.
tia_cnt_i : 84 ,
tia_cnt_q : 1 ,
I:reg0x1150=0x21231f25.
Q:reg0x1154=0x27292729.
RX0 tia case :4,absolute value dc_i : -16 , value dc_q : -16 
####:reg0x1280=0x32007d.
####:reg0x1284=0x4e315429.
tia_cnt_i : 84 ,
tia_cnt_q : 1 ,
I:reg0x1150=0x21231f25.
Q:reg0x1154=0x27292729.
RX0 tia case :5,absolute value dc_i : -16 , value dc_q : -16 
####:reg0x1284=0x32007d.
####:reg0x1288=0x4c33542b.
tia_cnt_i : 84 ,
tia_cnt_q : 1 ,
I:reg0x1150=0x21231f25.
Q:reg0x1154=0x27292729.
RX0 tia case :6,absolute value dc_i : -16 , value dc_q : -16 
####:reg0x1288=0x34007f.
####:reg0x128c=0x4c334e31.
tia_cnt_i : 78 ,
tia_cnt_q : 1 ,
I:reg0x1150=0x21231f25.
Q:reg0x1154=0x27292729.
RX0 tia case :7,absolute value dc_i : -16 , value dc_q : -16 
####:reg0x128c=0x34007f.
####:reg0x1290=0x48354c33.
tia_cnt_i : 76 ,
tia_cnt_q : 1 ,
I:reg0x1150=0x21231f25.
Q:reg0x1154=0x27292729.
RX0 tia case :8,absolute value dc_i : -16 , value dc_q : -16 
####:reg0x1290=0x36007f.
####:reg0x1294=0x46394835.
tia_cnt_i : 72 ,
tia_cnt_q : 1 ,
I:reg0x1150=0x21231f25.
Q:reg0x1154=0x27292729.
RX0 tia case :9,absolute value dc_i : -16 , value dc_q : -16 
####:reg0x1294=0x3a007d.
####:reg0x1298=0x4a374a35.
tia_cnt_i : 74 ,
tia_cnt_q : 1 ,
I:reg0x1150=0x21231f25.
Q:reg0x1154=0x27292729.
RX0 tia case :10,absolute value dc_i : -16 , value dc_q : -16 
####:reg0x1298=0x38007f.
####:reg0x129c=0x4a374c33.
tia_cnt_i : 76 ,
tia_cnt_q : 1 ,
I:reg0x1150=0x21231f25.
Q:reg0x1154=0x27292729.
RX0 tia case :11,absolute value dc_i : -16 , value dc_q : -16 
####:reg0x129c=0x38007f.
####:reg0x12a0=0x48374a35.
tia_cnt_i : 74 ,
tia_cnt_q : 1 ,
I:reg0x1150=0x21231f25.
Q:reg0x1154=0x27292729.
RX0 tia case :12,absolute value dc_i : -16 , value dc_q : -16 
####:reg0x12a0=0x38007f.
rx1 tia cali begin:
Q:reg0x12b0=0x48354835.
 RX1 :reg0x1130=0x48354835.
tia_cnt_i : 72 ,
tia_cnt_q : 1 ,
RX1 tia case :0,absolute value dc_i : -14 , value dc_q : -16 
RX1:reg0x12b0=0x36007d.
Q:reg0x12b4=0x4a374a37.
 RX1 :reg0x1130=0x4a374a37.
tia_cnt_i : 72 ,
tia_cnt_q : 72 ,
RX1 tia case :1,absolute value dc_i : -15 , value dc_q : -16 
RX1:reg0x12b4=0x27f027f.
Q:reg0x12b8=0x46394837.
 RX1 :reg0x1130=0x48374639.
tia_cnt_i : 72 ,
tia_cnt_q : 1 ,
RX1 tia case :2,absolute value dc_i : -15 , value dc_q : -16 
RX1:reg0x12b8=0x3a007f.
Q:reg0x12bc=0x46394639.
 RX1 :reg0x1130=0x46394639.
tia_cnt_i : 70 ,
tia_cnt_q : 1 ,
RX1 tia case :3,absolute value dc_i : -15 , value dc_q : -16 
RX1:reg0x12bc=0x3a007f.
Q:reg0x12c0=0x443b443b.
 RX1 :reg0x1130=0x443b443b.
tia_cnt_i : 68 ,
tia_cnt_q : 1 ,
RX1 tia case :4,absolute value dc_i : -15 , value dc_q : -16 
RX1:reg0x12c0=0x3c007f.
Q:reg0x12c4=0x3c413c43.
 RX1 :reg0x1130=0x3c433c41.
tia_cnt_i : 60 ,
tia_cnt_q : 1 ,
RX1 tia case :5,absolute value dc_i : -15 , value dc_q : -16 
RX1:reg0x12c4=0x42007f.
Q:reg0x12c8=0x3e433c43.
 RX1 :reg0x1130=0x3c433e43.
tia_cnt_i : 60 ,
tia_cnt_q : 1 ,
RX1 tia case :6,absolute value dc_i : -15 , value dc_q : -16 
RX1:reg0x12c8=0x44007f.
Q:reg0x12cc=0x3c433c43.
 RX1 :reg0x1130=0x3c433c43.
tia_cnt_i : 60 ,
tia_cnt_q : 1 ,
RX1 tia case :7,absolute value dc_i : -15 , value dc_q : -16 
RX1:reg0x12cc=0x44007f.
Q:reg0x12d0=0x3a453a45.
 RX1 :reg0x1130=0x3a453a45.
tia_cnt_i : 58 ,
tia_cnt_q : 1 ,
RX1 tia case :8,absolute value dc_i : -15 , value dc_q : -16 
RX1:reg0x12d0=0x46007f.
Q:reg0x12d4=0x3a453a47.
 RX1 :reg0x1130=0x3a473a45.
tia_cnt_i : 56 ,
tia_cnt_q : 58 ,
RX1 tia case :9,absolute value dc_i : -15 , value dc_q : -16 
RX1:reg0x12d4=0x27f027f.
Q:reg0x12d8=0x3a453a45.
 RX1 :reg0x1130=0x3a453a45.
tia_cnt_i : 58 ,
tia_cnt_q : 1 ,
RX1 tia case :10,absolute value dc_i : -15 , value dc_q : -16 
RX1:reg0x12d8=0x46007f.
Q:reg0x12dc=0x38453a45.
 RX1 :reg0x1130=0x3a453845.
tia_cnt_i : 58 ,
tia_cnt_q : 1 ,
RX1 tia case :11,absolute value dc_i : -15 , value dc_q : -16 
RX1:reg0x12dc=0x46007f.
Q:reg0x12e0=0x3a473a47.
 RX1 :reg0x1130=0x3a473a47.
tia_cnt_i : 56 ,
tia_cnt_q : 56 ,
RX1 tia case :12,absolute value dc_i : -15 , value dc_q : -16 
RX1:reg0x12e0=0x27f027f.
tia calibration end!
rx0 vga calibration begin
reg0x1120=0x3fc100.
vga case:1 pass.
RX0 vga case:1 ,absolute value dc_i_tmp : 15 , value dc_q_tmp : 15 ,I:reg0x1184=0x2123271b.   Q:reg0x11c0=0x27272d27.
vga case:2 pass.
RX0 vga case:2 ,absolute value dc_i_tmp : 15 , value dc_q_tmp : 15 ,I:reg0x1188=0x2123271b.   Q:reg0x11c4=0x27272d27.
vga case:3 pass.
RX0 vga case:3 ,absolute value dc_i_tmp : 15 , value dc_q_tmp : 15 ,I:reg0x118c=0x2123291d.   Q:reg0x11c8=0x27272d27.
vga case:4 pass.
RX0 vga case:4 ,absolute value dc_i_tmp : 15 , value dc_q_tmp : 15 ,I:reg0x1190=0x2123271b.   Q:reg0x11cc=0x27272d27.
vga case:5 pass.
RX0 vga case:5 ,absolute value dc_i_tmp : 15 , value dc_q_tmp : 15 ,I:reg0x1194=0x2123271b.   Q:reg0x11d0=0x27272d27.
vga case:6 pass.
RX0 vga case:6 ,absolute value dc_i_tmp : 15 , value dc_q_tmp : 15 ,I:reg0x1198=0x2123291d.   Q:reg0x11d4=0x27272d27.
vga case:7 pass.
RX0 vga case:7 ,absolute value dc_i_tmp : 15 , value dc_q_tmp : 15 ,I:reg0x119c=0x2123291d.   Q:reg0x11d8=0x27252d27.
vga case:8 pass.
RX0 vga case:8 ,absolute value dc_i_tmp : 15 , value dc_q_tmp : 15 ,I:reg0x11a0=0x1d272719.   Q:reg0x11dc=0x25272d27.
vga case:9 pass.
RX0 vga case:9 ,absolute value dc_i_tmp : 15 , value dc_q_tmp : 15 ,I:reg0x11a4=0x27212d19.   Q:reg0x11e0=0x23292d27.
vga case:10 pass.
RX0 vga case:10 ,absolute value dc_i_tmp : 15 , value dc_q_tmp : 15 ,I:reg0x11a8=0x21232d15.   Q:reg0x11e4=0x27252d25.
vga case:11 pass.
RX0 vga case:11 ,absolute value dc_i_tmp : 15 , value dc_q_tmp : 15 ,I:reg0x11ac=0x291d3111.   Q:reg0x11e8=0x23292d25.
vga case:12 pass.
RX0 vga case:12 ,absolute value dc_i_tmp : 15 , value dc_q_tmp : 15 ,I:reg0x11b0=0x1d29330f.   Q:reg0x11ec=0x27252f25.
vga case:13 pass.
RX0 vga case:13 ,absolute value dc_i_tmp : 15 , value dc_q_tmp : 15 ,I:reg0x11b4=0x2127390b.   Q:reg0x11f0=0x272d2d23.
vga case:14 pass.
RX0 vga case:14 ,absolute value dc_i_tmp : 15 , value dc_q_tmp : 15 ,I:reg0x11b8=0x11353f01.   Q:reg0x11f4=0x1b1f3123.
rx1 vga calibration begin
rx1 vga case:1 pass.
RX1 vga case:1 ,absolute value dc_i_tmp : 15 , value dc_q_tmp : 15 ,I:reg0x11fc=0x25271b2b. Q:reg0x1238=0x15152121.
rx1 vga case:2 pass.
RX1 vga case:2 ,absolute value dc_i_tmp : 15 , value dc_q_tmp : 15 ,I:reg0x1200=0x27251d2b. Q:reg0x123c=0x15152121.
rx1 vga case:3 pass.
RX1 vga case:3 ,absolute value dc_i_tmp : 15 , value dc_q_tmp : 15 ,I:reg0x1204=0x25271b2b. Q:reg0x1240=0x15152121.
rx1 vga case:4 pass.
RX1 vga case:4 ,absolute value dc_i_tmp : 15 , value dc_q_tmp : 15 ,I:reg0x1208=0x25271b2b. Q:reg0x1244=0x15152121.
rx1 vga case:5 pass.
RX1 vga case:5 ,absolute value dc_i_tmp : 15 , value dc_q_tmp : 15 ,I:reg0x120c=0x25271b2b. Q:reg0x1248=0x15152121.
rx1 vga case:6 pass.
RX1 vga case:6 ,absolute value dc_i_tmp : 15 , value dc_q_tmp : 15 ,I:reg0x1210=0x25271b2b. Q:reg0x124c=0x15152121.
rx1 vga case:7 pass.
RX1 vga case:7 ,absolute value dc_i_tmp : 15 , value dc_q_tmp : 15 ,I:reg0x1214=0x23271b2b. Q:reg0x1250=0x15152121.
rx1 vga case:8 pass.
RX1 vga case:8 ,absolute value dc_i_tmp : 15 , value dc_q_tmp : 15 ,I:reg0x1218=0x29231b2d. Q:reg0x1254=0x15172121.
rx1 vga case:9 pass.
RX1 vga case:9 ,absolute value dc_i_tmp : 15 , value dc_q_tmp : 15 ,I:reg0x121c=0x232b172f. Q:reg0x1258=0x15172121.
rx1 vga case:10 pass.
RX1 vga case:10 ,absolute value dc_i_tmp : 15 , value dc_q_tmp : 15 ,I:reg0x1220=0x25271531. Q:reg0x125c=0x13172121.
rx1 vga case:11 pass.
RX1 vga case:11 ,absolute value dc_i_tmp : 15 , value dc_q_tmp : 15 ,I:reg0x1224=0x23291135. Q:reg0x1260=0x1b112321.
rx1 vga case:12 pass.
RX1 vga case:12 ,absolute value dc_i_tmp : 15 , value dc_q_tmp : 15 ,I:reg0x1228=0x27250f39. Q:reg0x1264=0x19132321.
rx1 vga case:13 pass.
RX1 vga case:13 ,absolute value dc_i_tmp : 15 , value dc_q_tmp : 15 ,I:reg0x122c=0x2921093d. Q:reg0x1268=0x17152321.
rx1 vga case:14 pass.
RX1 vga case:14 ,absolute value dc_i_tmp : 15 , value dc_q_tmp : 15 ,I:reg0x1230=0x27251d29. Q:reg0x126c=0x1519211f.
reg0x1120=0x3c0100.
vga calibration end!
RX0: 0x103c : e0010000 ,0x1040 : 40001102 
RX1: 0x1054 : e0010000 ,0x1058 : 40001100 
THIS CASE J: 0 M: 4 
adc calibration begin
calibration begin
RX0 cali pre ,absolute value dc_i_tmp : 8 , value dc_q_tmp : 8 ,

reg0x1180=0x21211f25.
reg0x11bc=0x25272729.
RX1 cali pre ,absolute value dc_i_tmp : 4 , value dc_q_tmp : 5 ,reg0x11f8=0x27272125.
reg0x1234=0x17152121.
rx0 tia cali begin:
####:reg0x1270=0x621f6c13.
tia_cnt_i : 90 ,
tia_cnt_q : 96 ,
I:reg0x1150=0x21211f25.
Q:reg0x1154=0x25272729.
RX0 tia case :0,absolute value dc_i : -1 , value dc_q : -2 
####:reg0x1270=0x127f126d.
####:reg0x1274=0x5e216a15.
tia_cnt_i : 106 ,
tia_cnt_q : 1 ,
I:reg0x1150=0x21211f25.
Q:reg0x1154=0x25272729.
RX0 tia case :1,absolute value dc_i : -3 , value dc_q : -6 
####:reg0x1274=0x22007f.
####:reg0x1278=0x5c236817.
tia_cnt_i : 104 ,
tia_cnt_q : 1 ,
I:reg0x1150=0x21211f25.
Q:reg0x1154=0x25272729.
RX0 tia case :2,absolute value dc_i : -5 , value dc_q : -6 
####:reg0x1278=0x24007f.
####:reg0x127c=0x5c23641b.
tia_cnt_i : 100 ,
tia_cnt_q : 1 ,
I:reg0x1150=0x21211f25.
Q:reg0x1154=0x25272729.
RX0 tia case :3,absolute value dc_i : -5 , value dc_q : -7 
####:reg0x127c=0x24007f.
####:reg0x1280=0x4e315429.
tia_cnt_i : 84 ,
tia_cnt_q : 1 ,
I:reg0x1150=0x21211f25.
Q:reg0x1154=0x25272729.
RX0 tia case :4,absolute value dc_i : -6 , value dc_q : -7 
####:reg0x1280=0x32007d.
####:reg0x1284=0x4e315429.
tia_cnt_i : 84 ,
tia_cnt_q : 1 ,
I:reg0x1150=0x21211f25.
Q:reg0x1154=0x25272729.
RX0 tia case :5,absolute value dc_i : -6 , value dc_q : -7 
####:reg0x1284=0x32007d.
####:reg0x1288=0x4c33522d.
tia_cnt_i : 82 ,
tia_cnt_q : 1 ,
I:reg0x1150=0x21211f25.
Q:reg0x1154=0x25272729.
RX0 tia case :6,absolute value dc_i : -6 , value dc_q : -7 
####:reg0x1288=0x34007f.
####:reg0x128c=0x4c33502f.
tia_cnt_i : 80 ,
tia_cnt_q : 1 ,
I:reg0x1150=0x21211f25.
Q:reg0x1154=0x25272729.
RX0 tia case :7,absolute value dc_i : -6 , value dc_q : -7 
####:reg0x128c=0x34007f.
####:reg0x1290=0x48354c33.
tia_cnt_i : 76 ,
tia_cnt_q : 1 ,
I:reg0x1150=0x21211f25.
Q:reg0x1154=0x25272729.
RX0 tia case :8,absolute value dc_i : -6 , value dc_q : -7 
####:reg0x1290=0x36007f.
####:reg0x1294=0x44394a35.
tia_cnt_i : 74 ,
tia_cnt_q : 1 ,
I:reg0x1150=0x21211f25.
Q:reg0x1154=0x25272729.
RX0 tia case :9,absolute value dc_i : -6 , value dc_q : -7 
####:reg0x1294=0x3a007f.
####:reg0x1298=0x46394a35.
tia_cnt_i : 74 ,
tia_cnt_q : 1 ,
I:reg0x1150=0x21211f25.
Q:reg0x1154=0x25272729.
RX0 tia case :10,absolute value dc_i : -6 , value dc_q : -7 
####:reg0x1298=0x3a007f.
####:reg0x129c=0x48354a35.
tia_cnt_i : 74 ,
tia_cnt_q : 1 ,
I:reg0x1150=0x21211f25.
Q:reg0x1154=0x25272729.
RX0 tia case :11,absolute value dc_i : -6 , value dc_q : -7 
####:reg0x129c=0x36007f.
####:reg0x12a0=0x48374a35.
tia_cnt_i : 74 ,
tia_cnt_q : 1 ,
I:reg0x1150=0x21211f25.
Q:reg0x1154=0x25272729.
RX0 tia case :12,absolute value dc_i : -6 , value dc_q : -7 
####:reg0x12a0=0x38007f.
rx1 tia cali begin:
Q:reg0x12b0=0x4c334c33.
 RX1 :reg0x1130=0x4c334c33.
tia_cnt_i : 76 ,
tia_cnt_q : 1 ,
RX1 tia case :0,absolute value dc_i : -3 , value dc_q : -1 
RX1:reg0x12b0=0x34007f.
Q:reg0x12b4=0x48374a37.
 RX1 :reg0x1130=0x4a374837.
tia_cnt_i : 72 ,
tia_cnt_q : 26 ,
RX1 tia case :1,absolute value dc_i : -3 , value dc_q : -1 
RX1:reg0x12b4=0x251027f.
Q:reg0x12b8=0x4a374835.
 RX1 :reg0x1130=0x48354a37.
tia_cnt_i : 72 ,
tia_cnt_q : 1 ,
RX1 tia case :2,absolute value dc_i : -3 , value dc_q : -3 
RX1:reg0x12b8=0x38007d.
Q:reg0x12bc=0x46394639.
 RX1 :reg0x1130=0x46394639.
tia_cnt_i : 70 ,
tia_cnt_q : 1 ,
RX1 tia case :3,absolute value dc_i : -3 , value dc_q : -4 
RX1:reg0x12bc=0x3a007f.
Q:reg0x12c0=0x46394837.
 RX1 :reg0x1130=0x48374639.
tia_cnt_i : 72 ,
tia_cnt_q : 1 ,
RX1 tia case :4,absolute value dc_i : -3 , value dc_q : -4 
RX1:reg0x12c0=0x3a007f.
Q:reg0x12c4=0x3c413c41.
 RX1 :reg0x1130=0x3c413c41.
tia_cnt_i : 60 ,
tia_cnt_q : 1 ,
RX1 tia case :5,absolute value dc_i : -3 , value dc_q : -4 
RX1:reg0x12c4=0x42007d.
Q:reg0x12c8=0x3e433c43.
 RX1 :reg0x1130=0x3c433e43.
tia_cnt_i : 60 ,
tia_cnt_q : 1 ,
RX1 tia case :6,absolute value dc_i : -3 , value dc_q : -4 
RX1:reg0x12c8=0x44007f.
Q:reg0x12cc=0x3c433c43.
 RX1 :reg0x1130=0x3c433c43.
tia_cnt_i : 60 ,
tia_cnt_q : 1 ,
RX1 tia case :7,absolute value dc_i : -3 , value dc_q : -4 
RX1:reg0x12cc=0x44007f.
Q:reg0x12d0=0x3a453a45.
 RX1 :reg0x1130=0x3a453a45.
tia_cnt_i : 58 ,
tia_cnt_q : 1 ,
RX1 tia case :8,absolute value dc_i : -3 , value dc_q : -4 
RX1:reg0x12d0=0x46007f.
Q:reg0x12d4=0x38453a45.
 RX1 :reg0x1130=0x3a453845.
tia_cnt_i : 58 ,
tia_cnt_q : 1 ,
RX1 tia case :9,absolute value dc_i : -3 , value dc_q : -4 
RX1:reg0x12d4=0x46007f.
Q:reg0x12d8=0x3a453c43.
 RX1 :reg0x1130=0x3c433a45.
tia_cnt_i : 60 ,
tia_cnt_q : 1 ,
RX1 tia case :10,absolute value dc_i : -3 , value dc_q : -4 
RX1:reg0x12d8=0x46007f.
Q:reg0x12dc=0x3a453a45.
 RX1 :reg0x1130=0x3a453a45.
tia_cnt_i : 58 ,
tia_cnt_q : 1 ,
RX1 tia case :11,absolute value dc_i : -3 , value dc_q : -4 
RX1:reg0x12dc=0x46007f.
Q:reg0x12e0=0x3a453a45.
 RX1 :reg0x1130=0x3a453a45.
tia_cnt_i : 58 ,
tia_cnt_q : 1 ,
RX1 tia case :12,absolute value dc_i : -3 , value dc_q : -4 
RX1:reg0x12e0=0x46007f.
tia calibration end!
rx0 vga calibration begin
reg0x1120=0x3fc100.
vga case:1 pass.
RX0 vga case:1 ,absolute value dc_i_tmp : 8 , value dc_q_tmp : 8 ,I:reg0x1184=0x1f212d17.   Q:reg0x11c0=0x25273521.
vga case:2 pass.
RX0 vga case:2 ,absolute value dc_i_tmp : 9 , value dc_q_tmp : 8 ,I:reg0x1188=0x21232d17.   Q:reg0x11c4=0x27293521.
vga case:3 pass.
RX0 vga case:3 ,absolute value dc_i_tmp : 9 , value dc_q_tmp : 9 ,I:reg0x118c=0x21232d17.   Q:reg0x11c8=0x25293521.
vga case:4 pass.
RX0 vga case:4 ,absolute value dc_i_tmp : 9 , value dc_q_tmp : 9 ,I:reg0x1190=0x1f232d17.   Q:reg0x11cc=0x23273521.
vga case:5 pass.
RX0 vga case:5 ,absolute value dc_i_tmp : 9 , value dc_q_tmp : 8 ,I:reg0x1194=0x1f232d17.   Q:reg0x11d0=0x25293521.
vga case:6 pass.
RX0 vga case:6 ,absolute value dc_i_tmp : 8 , value dc_q_tmp : 8 ,I:reg0x1198=0x21232d17.   Q:reg0x11d4=0x23273521.
vga case:7 pass.
RX0 vga case:7 ,absolute value dc_i_tmp : 8 , value dc_q_tmp : 8 ,I:reg0x119c=0x21232d17.   Q:reg0x11d8=0x23293521.
vga case:8 pass.
RX0 vga case:8 ,absolute value dc_i_tmp : 9 , value dc_q_tmp : 8 ,I:reg0x11a0=0x1f1f2f13.   Q:reg0x11dc=0x2729371d.
vga case:9 pass.
RX0 vga case:9 ,absolute value dc_i_tmp : 8 , value dc_q_tmp : 8 ,I:reg0x11a4=0x1f25310f.   Q:reg0x11e0=0x25253919.
vga case:10 pass.
RX0 vga case:10 ,absolute value dc_i_tmp : 8 , value dc_q_tmp : 8 ,I:reg0x11a8=0x2321390d.   Q:reg0x11e4=0x29253d15.
vga case:11 pass.
RX0 vga case:11 ,absolute value dc_i_tmp : 8 , value dc_q_tmp : 7 ,I:reg0x11ac=0x23233f07.   Q:reg0x11e8=0x212b3f11.
vga case:12 pass.
RX0 vga case:12 ,absolute value dc_i_tmp : 8 , value dc_q_tmp : 8 ,I:reg0x11b0=0x53b3f01.   Q:reg0x11ec=0xd3f3f0d.
vga case:13 pass.
RX0 vga case:13 ,absolute value dc_i_tmp : 1 , value dc_q_tmp : 1 ,I:reg0x11b4=0x13f3f01.   Q:reg0x11f0=0x13f3f05.
vga case:14 pass.
RX0 vga case:14 ,absolute value dc_i_tmp : 1 , value dc_q_tmp : 1 ,I:reg0x11b8=0x13f3f01.   Q:reg0x11f4=0x13f3f01.
rx1 vga calibration begin
rx1 vga case:1 pass.
RX1 vga case:1 ,absolute value dc_i_tmp : 5 , value dc_q_tmp : 5 ,I:reg0x11fc=0x2527291d. Q:reg0x1238=0x1717231d.
rx1 vga case:2 pass.
RX1 vga case:2 ,absolute value dc_i_tmp : 4 , value dc_q_tmp : 5 ,I:reg0x1200=0x27252b1d. Q:reg0x123c=0x1515251f.
rx1 vga case:3 pass.
RX1 vga case:3 ,absolute value dc_i_tmp : 4 , value dc_q_tmp : 5 ,I:reg0x1204=0x2527291d. Q:reg0x1240=0x1717231d.
rx1 vga case:4 pass.
RX1 vga case:4 ,absolute value dc_i_tmp : 5 , value dc_q_tmp : 6 ,I:reg0x1208=0x27252b1d. Q:reg0x1244=0x1517231d.
rx1 vga case:5 pass.
RX1 vga case:5 ,absolute value dc_i_tmp : 5 , value dc_q_tmp : 6 ,I:reg0x120c=0x27252b1d. Q:reg0x1248=0x1517231d.
rx1 vga case:6 pass.
RX1 vga case:6 ,absolute value dc_i_tmp : 5 , value dc_q_tmp : 5 ,I:reg0x1210=0x29252b1d. Q:reg0x124c=0x1517231d.
rx1 vga case:7 pass.
RX1 vga case:7 ,absolute value dc_i_tmp : 4 , value dc_q_tmp : 6 ,I:reg0x1214=0x29232b1d. Q:reg0x1250=0x1317231d.
rx1 vga case:8 pass.
RX1 vga case:8 ,absolute value dc_i_tmp : 4 , value dc_q_tmp : 5 ,I:reg0x1218=0x2b252d1b. Q:reg0x1254=0x1717251d.
rx1 vga case:9 pass.
RX1 vga case:9 ,absolute value dc_i_tmp : 5 , value dc_q_tmp : 5 ,I:reg0x121c=0x25272f19. Q:reg0x1258=0x1b11271b.
rx1 vga case:10 pass.
RX1 vga case:10 ,absolute value dc_i_tmp : 4 , value dc_q_tmp : 5 ,I:reg0x1220=0x27253115. Q:reg0x125c=0x1913291b.
rx1 vga case:11 pass.
RX1 vga case:11 ,absolute value dc_i_tmp : 4 , value dc_q_tmp : 5 ,I:reg0x1224=0x27273511. Q:reg0x1260=0x19132b19.
rx1 vga case:12 pass.
RX1 vga case:12 ,absolute value dc_i_tmp : 4 , value dc_q_tmp : 5 ,I:reg0x1228=0x2923390d. Q:reg0x1264=0x19112d17.
rx1 vga case:13 pass.
RX1 vga case:13 ,absolute value dc_i_tmp : 3 , value dc_q_tmp : 4 ,I:reg0x122c=0x252b3f09. Q:reg0x1268=0x17192d13.
rx1 vga case:14 pass.
RX1 vga case:14 ,absolute value dc_i_tmp : 3 , value dc_q_tmp : 5 ,I:reg0x1230=0x13f3f01. Q:reg0x126c=0x1919330d.
reg0x1120=0x3c0100.
vga calibration end!
RX0: 0x103c : e0014000 ,0x1040 : 50001102 
RX1: 0x1054 : e0014000 ,0x1058 : 50001100 
THIS CASE J: 0 M: 5 
adc calibration begin
calibration begin
RX0 cali pre ,absolute value dc_i_tmp : 0 , value dc_q_tmp : 1 ,

reg0x1180=0x21211f25.
reg0x11bc=0x27272929.
RX1 cali pre ,absolute value dc_i_tmp : 1 , value dc_q_tmp : 1 ,reg0x11f8=0x25272125.
reg0x1234=0x15152121.
rx0 tia cali begin:
####:reg0x1270=0x601f6815.
tia_cnt_i : 0 ,
tia_cnt_q : 0 ,
I:reg0x1150=0x21211f25.
Q:reg0x1154=0x27272929.
RX0 tia case :0,absolute value dc_i : 0 , value dc_q : 0 
####:reg0x1270=0x601f6815.
####:reg0x1274=0x5e216a15.
tia_cnt_i : 0 ,
tia_cnt_q : 0 ,
I:reg0x1150=0x21211f25.
Q:reg0x1154=0x27272929.
RX0 tia case :1,absolute value dc_i : 1 , value dc_q : 1 
####:reg0x1274=0x5e216a15.
####:reg0x1278=0x5e216a17.
tia_cnt_i : 7 ,
tia_cnt_q : 1 ,
I:reg0x1150=0x21211f25.
Q:reg0x1154=0x27272929.
RX0 tia case :2,absolute value dc_i : 1 , value dc_q : 1 
####:reg0x1278=0x71207110.
####:reg0x127c=0x5a25641b.
tia_cnt_i : 27 ,
tia_cnt_q : 1 ,
I:reg0x1150=0x21211f25.
Q:reg0x1154=0x27272929.
RX0 tia case :3,absolute value dc_i : 2 , value dc_q : 1 
####:reg0x127c=0x7f247f00.
####:reg0x1280=0x4e31562b.
tia_cnt_i : 41 ,
tia_cnt_q : 1 ,
I:reg0x1150=0x21211f25.
Q:reg0x1154=0x27272929.
RX0 tia case :4,absolute value dc_i : 2 , value dc_q : 2 
####:reg0x1280=0x7f307f02.
####:reg0x1284=0x4e31542b.
tia_cnt_i : 43 ,
tia_cnt_q : 1 ,
I:reg0x1150=0x21211f25.
Q:reg0x1154=0x27272929.
RX0 tia case :5,absolute value dc_i : 2 , value dc_q : 2 
####:reg0x1284=0x7f307f00.
####:reg0x1288=0x4c31522d.
tia_cnt_i : 45 ,
tia_cnt_q : 1 ,
I:reg0x1150=0x21211f25.
Q:reg0x1154=0x27272929.
RX0 tia case :6,absolute value dc_i : 2 , value dc_q : 2 
####:reg0x1288=0x7f307f00.
####:reg0x128c=0x4c33502d.
tia_cnt_i : 45 ,
tia_cnt_q : 34 ,
I:reg0x1150=0x21211f25.
Q:reg0x1154=0x27272929.
RX0 tia case :7,absolute value dc_i : 2 , value dc_q : 1 
####:reg0x128c=0x7d117d00.
####:reg0x1290=0x48374a35.
tia_cnt_i : 53 ,
tia_cnt_q : 1 ,
I:reg0x1150=0x21211f25.
Q:reg0x1154=0x27272929.
RX0 tia case :8,absolute value dc_i : 2 , value dc_q : 2 
####:reg0x1290=0x7f367f00.
####:reg0x1294=0x48374a35.
tia_cnt_i : 53 ,
tia_cnt_q : 1 ,
I:reg0x1150=0x21211f25.
Q:reg0x1154=0x27272929.
RX0 tia case :9,absolute value dc_i : 2 , value dc_q : 2 
####:reg0x1294=0x7f367f00.
####:reg0x1298=0x48374a35.
tia_cnt_i : 53 ,
tia_cnt_q : 1 ,
I:reg0x1150=0x21211f25.
Q:reg0x1154=0x27272929.
RX0 tia case :10,absolute value dc_i : 2 , value dc_q : 2 
####:reg0x1298=0x7f367f00.
####:reg0x129c=0x48374c33.
tia_cnt_i : 51 ,
tia_cnt_q : 1 ,
I:reg0x1150=0x21211f25.
Q:reg0x1154=0x27272929.
RX0 tia case :11,absolute value dc_i : 2 , value dc_q : 2 
####:reg0x129c=0x7f367f00.
####:reg0x12a0=0x46394a35.
tia_cnt_i : 53 ,
tia_cnt_q : 1 ,
I:reg0x1150=0x21211f25.
Q:reg0x1154=0x27272929.
RX0 tia case :12,absolute value dc_i : 2 , value dc_q : 2 
####:reg0x12a0=0x7f387f00.
rx1 tia cali begin:
Q:reg0x12b0=0x48354835.
 RX1 :reg0x1130=0x48354835.
tia_cnt_i : 0 ,
tia_cnt_q : 3 ,
RX1 tia case :0,absolute value dc_i : 1 , value dc_q : -1 
RX1:reg0x12b0=0x48384835.
Q:reg0x12b4=0x48374a37.
 RX1 :reg0x1130=0x4a374837.
tia_cnt_i : 0 ,
tia_cnt_q : 4 ,
RX1 tia case :1,absolute value dc_i : 1 , value dc_q : -1 
RX1:reg0x12b4=0x4a3b4a37.
Q:reg0x12b8=0x48374837.
 RX1 :reg0x1130=0x48374837.
tia_cnt_i : 0 ,
tia_cnt_q : 12 ,
RX1 tia case :2,absolute value dc_i : 1 , value dc_q : -1 
RX1:reg0x12b8=0x48434837.
Q:reg0x12bc=0x44394639.
 RX1 :reg0x1130=0x46394439.
tia_cnt_i : 0 ,
tia_cnt_q : 16 ,
RX1 tia case :3,absolute value dc_i : 1 , value dc_q : -1 
RX1:reg0x12bc=0x46494639.
Q:reg0x12c0=0x44394439.
 RX1 :reg0x1130=0x44394439.
tia_cnt_i : 0 ,
tia_cnt_q : 18 ,
RX1 tia case :4,absolute value dc_i : 1 , value dc_q : -1 
RX1:reg0x12c0=0x444b4439.
Q:reg0x12c4=0x3e433c41.
 RX1 :reg0x1130=0x3c413e43.
tia_cnt_i : 0 ,
tia_cnt_q : 2 ,
RX1 tia case :5,absolute value dc_i : 1 , value dc_q : -1 
RX1:reg0x12c4=0x3c453c41.
Q:reg0x12c8=0x3e433c41.
 RX1 :reg0x1130=0x3c413e43.
tia_cnt_i : 0 ,
tia_cnt_q : 1 ,
RX1 tia case :6,absolute value dc_i : 1 , value dc_q : -1 
RX1:reg0x12c8=0x3c443c41.
Q:reg0x12cc=0x3c433e43.
 RX1 :reg0x1130=0x3e433c43.
tia_cnt_i : 0 ,
tia_cnt_q : 0 ,
RX1 tia case :7,absolute value dc_i : 1 , value dc_q : -1 
RX1:reg0x12cc=0x3c433e43.
Q:reg0x12d0=0x3a453a45.
 RX1 :reg0x1130=0x3a453a45.
tia_cnt_i : 0 ,
tia_cnt_q : 0 ,
RX1 tia case :8,absolute value dc_i : 0 , value dc_q : -1 
RX1:reg0x12d0=0x3a453a45.
Q:reg0x12d4=0x3c433a45.
 RX1 :reg0x1130=0x3a453c43.
tia_cnt_i : 0 ,
tia_cnt_q : 3 ,
RX1 tia case :9,absolute value dc_i : 1 , value dc_q : -1 
RX1:reg0x12d4=0x3a463a45.
Q:reg0x12d8=0x3c433a45.
 RX1 :reg0x1130=0x3a453c43.
tia_cnt_i : 0 ,
tia_cnt_q : 1 ,
RX1 tia case :10,absolute value dc_i : 1 , value dc_q : -1 
RX1:reg0x12d8=0x3a443a45.
Q:reg0x12dc=0x3a453a47.
 RX1 :reg0x1130=0x3a473a45.
tia_cnt_i : 0 ,
tia_cnt_q : 0 ,
RX1 tia case :11,absolute value dc_i : 1 , value dc_q : -1 
RX1:reg0x12dc=0x3a453a47.
Q:reg0x12e0=0x38453a45.
 RX1 :reg0x1130=0x3a453845.
tia_cnt_i : 0 ,
tia_cnt_q : 0 ,
RX1 tia case :12,absolute value dc_i : 0 , value dc_q : -1 
RX1:reg0x12e0=0x38453a45.
tia calibration end!
rx0 vga calibration begin
reg0x1120=0x3fc100.
vga case:1 pass.
RX0 vga case:1 ,absolute value dc_i_tmp : 1 , value dc_q_tmp : 0 ,I:reg0x1184=0x21231f25.   Q:reg0x11c0=0x27272929.
vga case:2 pass.
RX0 vga case:2 ,absolute value dc_i_tmp : 1 , value dc_q_tmp : 0 ,I:reg0x1188=0x21231f25.   Q:reg0x11c4=0x27272929.
vga case:3 pass.
RX0 vga case:3 ,absolute value dc_i_tmp : 1 , value dc_q_tmp : 1 ,I:reg0x118c=0x21231f25.   Q:reg0x11c8=0x27272929.
vga case:4 pass.
RX0 vga case:4 ,absolute value dc_i_tmp : 1 , value dc_q_tmp : 1 ,I:reg0x1190=0x21231f25.   Q:reg0x11cc=0x27272929.
vga case:5 pass.
RX0 vga case:5 ,absolute value dc_i_tmp : 1 , value dc_q_tmp : 1 ,I:reg0x1194=0x21231f25.   Q:reg0x11d0=0x27272929.
vga case:6 pass.
RX0 vga case:6 ,absolute value dc_i_tmp : 1 , value dc_q_tmp : 1 ,I:reg0x1198=0x21231f25.   Q:reg0x11d4=0x27252929.
vga case:7 pass.
RX0 vga case:7 ,absolute value dc_i_tmp : 1 , value dc_q_tmp : 1 ,I:reg0x119c=0x21231f25.   Q:reg0x11d8=0x27252929.
vga case:8 pass.
RX0 vga case:8 ,absolute value dc_i_tmp : 1 , value dc_q_tmp : 1 ,I:reg0x11a0=0x1d251f27.   Q:reg0x11dc=0x2329292b.
vga case:9 pass.
RX0 vga case:9 ,absolute value dc_i_tmp : 1 , value dc_q_tmp : 1 ,I:reg0x11a4=0x1f251d27.   Q:reg0x11e0=0x2725292b.
vga case:10 pass.
RX0 vga case:10 ,absolute value dc_i_tmp : 0 , value dc_q_tmp : 0 ,I:reg0x11a8=0x21231b27.   Q:reg0x11e4=0x2925272b.
vga case:11 pass.
RX0 vga case:11 ,absolute value dc_i_tmp : 0 , value dc_q_tmp : 1 ,I:reg0x11ac=0x1f251929.   Q:reg0x11e8=0x2723272d.
vga case:12 pass.
RX0 vga case:12 ,absolute value dc_i_tmp : 0 , value dc_q_tmp : 0 ,I:reg0x11b0=0x231d192b.   Q:reg0x11ec=0x2b25252d.
vga case:13 pass.
RX0 vga case:13 ,absolute value dc_i_tmp : 0 , value dc_q_tmp : 0 ,I:reg0x11b4=0x2127152d.   Q:reg0x11f0=0x2727232f.
vga case:14 pass.
RX0 vga case:14 ,absolute value dc_i_tmp : 1 , value dc_q_tmp : 0 ,I:reg0x11b8=0x1f211333.   Q:reg0x11f4=0x25291f31.
rx1 vga calibration begin
rx1 vga case:1 pass.
RX1 vga case:1 ,absolute value dc_i_tmp : 0 , value dc_q_tmp : 0 ,I:reg0x11fc=0x27272125. Q:reg0x1238=0x17152121.
rx1 vga case:2 pass.
RX1 vga case:2 ,absolute value dc_i_tmp : 1 , value dc_q_tmp : 0 ,I:reg0x1200=0x27272125. Q:reg0x123c=0x17152121.
rx1 vga case:3 pass.
RX1 vga case:3 ,absolute value dc_i_tmp : 0 , value dc_q_tmp : 0 ,I:reg0x1204=0x27272125. Q:reg0x1240=0x17152121.
rx1 vga case:4 pass.
RX1 vga case:4 ,absolute value dc_i_tmp : 0 , value dc_q_tmp : 1 ,I:reg0x1208=0x27272125. Q:reg0x1244=0x17152121.
rx1 vga case:5 pass.
RX1 vga case:5 ,absolute value dc_i_tmp : 0 , value dc_q_tmp : 1 ,I:reg0x120c=0x25252125. Q:reg0x1248=0x17152121.
rx1 vga case:6 pass.
RX1 vga case:6 ,absolute value dc_i_tmp : 0 , value dc_q_tmp : 0 ,I:reg0x1210=0x27272125. Q:reg0x124c=0x19152121.
rx1 vga case:7 pass.
RX1 vga case:7 ,absolute value dc_i_tmp : 1 , value dc_q_tmp : 0 ,I:reg0x1214=0x25252125. Q:reg0x1250=0x19132121.
rx1 vga case:8 pass.
RX1 vga case:8 ,absolute value dc_i_tmp : 1 , value dc_q_tmp : 1 ,I:reg0x1218=0x29252125. Q:reg0x1254=0x17132121.
rx1 vga case:9 pass.
RX1 vga case:9 ,absolute value dc_i_tmp : 1 , value dc_q_tmp : 1 ,I:reg0x121c=0x25291f25. Q:reg0x1258=0x17132121.
rx1 vga case:10 pass.
RX1 vga case:10 ,absolute value dc_i_tmp : 1 , value dc_q_tmp : 1 ,I:reg0x1220=0x25272127. Q:reg0x125c=0x19152121.
rx1 vga case:11 pass.
RX1 vga case:11 ,absolute value dc_i_tmp : 0 , value dc_q_tmp : 1 ,I:reg0x1224=0x29232127. Q:reg0x1260=0x19152121.
rx1 vga case:12 pass.
RX1 vga case:12 ,absolute value dc_i_tmp : 0 , value dc_q_tmp : 0 ,I:reg0x1228=0x27271f27. Q:reg0x1264=0x19132121.
rx1 vga case:13 pass.
RX1 vga case:13 ,absolute value dc_i_tmp : 0 , value dc_q_tmp : 0 ,I:reg0x122c=0x25271d27. Q:reg0x1268=0x19132121.
rx1 vga case:14 pass.
RX1 vga case:14 ,absolute value dc_i_tmp : 0 , value dc_q_tmp : 1 ,I:reg0x1230=0x25251d29. Q:reg0x126c=0x19171f21.
reg0x1120=0x3c0100.
vga calibration end!
RX0: 0x103c : e0018000 ,0x1040 : 60001102 
RX1: 0x1054 : e0018000 ,0x1058 : 60001100 
THIS CASE J: 0 M: 6 
adc calibration begin
calibration begin
RX0 cali pre ,absolute value dc_i_tmp : 1 , value dc_q_tmp : 1 ,

reg0x1180=0x21231f25.
reg0x11bc=0x25272929.
RX1 cali pre ,absolute value dc_i_tmp : 1 , value dc_q_tmp : 1 ,reg0x11f8=0x25272125.
reg0x1234=0x15152121.
rx0 tia cali begin:
####:reg0x1270=0x601d6c13.
tia_cnt_i : 3 ,
tia_cnt_q : 12 ,
I:reg0x1150=0x21231f25.
Q:reg0x1154=0x25272929.
RX0 tia case :0,absolute value dc_i : -1 , value dc_q : -1 
####:reg0x1270=0x69296916.
####:reg0x1274=0x5e216a17.
tia_cnt_i : 0 ,
tia_cnt_q : 0 ,
I:reg0x1150=0x21231f25.
Q:reg0x1154=0x25272929.
RX0 tia case :1,absolute value dc_i : 1 , value dc_q : 0 
####:reg0x1274=0x5e216a17.
####:reg0x1278=0x5e236817.
tia_cnt_i : 0 ,
tia_cnt_q : 0 ,
I:reg0x1150=0x21231f25.
Q:reg0x1154=0x25272929.
RX0 tia case :2,absolute value dc_i : 1 , value dc_q : 1 
####:reg0x1278=0x5e236817.
####:reg0x127c=0x5a256419.
tia_cnt_i : 4 ,
tia_cnt_q : 0 ,
I:reg0x1150=0x21231f25.
Q:reg0x1154=0x25272929.
RX0 tia case :3,absolute value dc_i : 1 , value dc_q : 1 
####:reg0x127c=0x5a256815.
####:reg0x1280=0x4c315429.
tia_cnt_i : 22 ,
tia_cnt_q : 0 ,
I:reg0x1150=0x21231f25.
Q:reg0x1154=0x25272929.
RX0 tia case :4,absolute value dc_i : 1 , value dc_q : 1 
####:reg0x1280=0x4c316a13.
####:reg0x1284=0x4e315429.
tia_cnt_i : 20 ,
tia_cnt_q : 0 ,
I:reg0x1150=0x21231f25.
Q:reg0x1154=0x25272929.
RX0 tia case :5,absolute value dc_i : 1 , value dc_q : 1 
####:reg0x1284=0x4e316815.
####:reg0x1288=0x4e33522d.
tia_cnt_i : 19 ,
tia_cnt_q : 0 ,
I:reg0x1150=0x21231f25.
Q:reg0x1154=0x25272929.
RX0 tia case :6,absolute value dc_i : 1 , value dc_q : 1 
####:reg0x1288=0x4e33651a.
####:reg0x128c=0x4c334e31.
tia_cnt_i : 26 ,
tia_cnt_q : 0 ,
I:reg0x1150=0x21231f25.
Q:reg0x1154=0x25272929.
RX0 tia case :7,absolute value dc_i : 1 , value dc_q : 1 
####:reg0x128c=0x4c336817.
####:reg0x1290=0x4a374c33.
tia_cnt_i : 25 ,
tia_cnt_q : 0 ,
I:reg0x1150=0x21231f25.
Q:reg0x1154=0x25272929.
RX0 tia case :8,absolute value dc_i : 1 , value dc_q : 1 
####:reg0x1290=0x4a37651a.
####:reg0x1294=0x48374c33.
tia_cnt_i : 25 ,
tia_cnt_q : 0 ,
I:reg0x1150=0x21231f25.
Q:reg0x1154=0x25272929.
RX0 tia case :9,absolute value dc_i : 1 , value dc_q : 1 
####:reg0x1294=0x4837651a.
####:reg0x1298=0x48374a35.
tia_cnt_i : 28 ,
tia_cnt_q : 0 ,
I:reg0x1150=0x21231f25.
Q:reg0x1154=0x25272929.
RX0 tia case :10,absolute value dc_i : 1 , value dc_q : 1 
####:reg0x1298=0x48376619.
####:reg0x129c=0x46394a35.
tia_cnt_i : 28 ,
tia_cnt_q : 0 ,
I:reg0x1150=0x21231f25.
Q:reg0x1154=0x25272929.
RX0 tia case :11,absolute value dc_i : 1 , value dc_q : 1 
####:reg0x129c=0x46396619.
####:reg0x12a0=0x48374a35.
tia_cnt_i : 29 ,
tia_cnt_q : 0 ,
I:reg0x1150=0x21231f25.
Q:reg0x1154=0x25272929.
RX0 tia case :12,absolute value dc_i : 1 , value dc_q : 1 
####:reg0x12a0=0x48376718.
rx1 tia cali begin:
Q:reg0x12b0=0x48354a35.
 RX1 :reg0x1130=0x4a354835.
tia_cnt_i : 0 ,
tia_cnt_q : 6 ,
RX1 tia case :0,absolute value dc_i : 1 , value dc_q : -1 
RX1:reg0x12b0=0x4a3b4a35.
Q:reg0x12b4=0x4a374835.
 RX1 :reg0x1130=0x48354a37.
tia_cnt_i : 0 ,
tia_cnt_q : 4 ,
RX1 tia case :1,absolute value dc_i : 1 , value dc_q : -1 
RX1:reg0x12b4=0x483b4835.
Q:reg0x12b8=0x4a374a37.
 RX1 :reg0x1130=0x4a374a37.
tia_cnt_i : 0 ,
tia_cnt_q : 7 ,
RX1 tia case :2,absolute value dc_i : 1 , value dc_q : -1 
RX1:reg0x12b8=0x4a3e4a37.
Q:reg0x12bc=0x48374837.
 RX1 :reg0x1130=0x48374837.
tia_cnt_i : 0 ,
tia_cnt_q : 18 ,
RX1 tia case :3,absolute value dc_i : 1 , value dc_q : -1 
RX1:reg0x12bc=0x48494837.
Q:reg0x12c0=0x3e41463b.
 RX1 :reg0x1130=0x463b3e41.
tia_cnt_i : 0 ,
tia_cnt_q : 10 ,
RX1 tia case :4,absolute value dc_i : 1 , value dc_q : -1 
RX1:reg0x12c0=0x464b463b.
Q:reg0x12c4=0x3e413e41.
 RX1 :reg0x1130=0x3e413e41.
tia_cnt_i : 0 ,
tia_cnt_q : 6 ,
RX1 tia case :5,absolute value dc_i : 0 , value dc_q : -1 
RX1:reg0x12c4=0x3e473e41.
Q:reg0x12c8=0x3e433c41.
 RX1 :reg0x1130=0x3c413e43.
tia_cnt_i : 0 ,
tia_cnt_q : 0 ,
RX1 tia case :6,absolute value dc_i : 1 , value dc_q : -1 
RX1:reg0x12c8=0x3e433c41.
Q:reg0x12cc=0x3e433c43.
 RX1 :reg0x1130=0x3c433e43.
tia_cnt_i : 0 ,
tia_cnt_q : 6 ,
RX1 tia case :7,absolute value dc_i : 0 , value dc_q : -1 
RX1:reg0x12cc=0x3c493c43.
Q:reg0x12d0=0x38453a45.
 RX1 :reg0x1130=0x3a453845.
tia_cnt_i : 0 ,
tia_cnt_q : 1 ,
RX1 tia case :8,absolute value dc_i : 0 , value dc_q : -1 
RX1:reg0x12d0=0x3a463a45.
Q:reg0x12d4=0x3a453c43.
 RX1 :reg0x1130=0x3c433a45.
tia_cnt_i : 0 ,
tia_cnt_q : 0 ,
RX1 tia case :9,absolute value dc_i : 1 , value dc_q : -1 
RX1:reg0x12d4=0x3a453c43.
Q:reg0x12d8=0x3a453a45.
 RX1 :reg0x1130=0x3a453a45.
tia_cnt_i : 0 ,
tia_cnt_q : 2 ,
RX1 tia case :10,absolute value dc_i : 0 , value dc_q : -1 
RX1:reg0x12d8=0x3a473a45.
Q:reg0x12dc=0x3a453845.
 RX1 :reg0x1130=0x38453a45.
tia_cnt_i : 0 ,
tia_cnt_q : 1 ,
RX1 tia case :11,absolute value dc_i : 1 , value dc_q : -1 
RX1:reg0x12dc=0x38463845.
Q:reg0x12e0=0x3a453845.
 RX1 :reg0x1130=0x38453a45.
tia_cnt_i : 0 ,
tia_cnt_q : 0 ,
RX1 tia case :12,absolute value dc_i : 1 , value dc_q : -1 
RX1:reg0x12e0=0x3a453845.
tia calibration end!
rx0 vga calibration begin
reg0x1120=0x3fc100.
vga case:1 pass.
RX0 vga case:1 ,absolute value dc_i_tmp : 1 , value dc_q_tmp : 0 ,I:reg0x1184=0x21231f25.   Q:reg0x11c0=0x27272929.
vga case:2 pass.
RX0 vga case:2 ,absolute value dc_i_tmp : 1 , value dc_q_tmp : 1 ,I:reg0x1188=0x21231f25.   Q:reg0x11c4=0x25272929.
vga case:3 pass.
RX0 vga case:3 ,absolute value dc_i_tmp : 1 , value dc_q_tmp : 0 ,I:reg0x118c=0x21231f25.   Q:reg0x11c8=0x27272929.
vga case:4 pass.
RX0 vga case:4 ,absolute value dc_i_tmp : 1 , value dc_q_tmp : 1 ,I:reg0x1190=0x21231f25.   Q:reg0x11cc=0x27272929.
vga case:5 pass.
RX0 vga case:5 ,absolute value dc_i_tmp : 1 , value dc_q_tmp : 1 ,I:reg0x1194=0x21231f25.   Q:reg0x11d0=0x27272929.
vga case:6 pass.
RX0 vga case:6 ,absolute value dc_i_tmp : 1 , value dc_q_tmp : 1 ,I:reg0x1198=0x21231f25.   Q:reg0x11d4=0x27272929.
vga case:7 pass.
RX0 vga case:7 ,absolute value dc_i_tmp : 1 , value dc_q_tmp : 0 ,I:reg0x119c=0x21231f25.   Q:reg0x11d8=0x27252929.
vga case:8 pass.
RX0 vga case:8 ,absolute value dc_i_tmp : 0 , value dc_q_tmp : 1 ,I:reg0x11a0=0x1f251f27.   Q:reg0x11dc=0x23292729.
vga case:9 pass.
RX0 vga case:9 ,absolute value dc_i_tmp : 1 , value dc_q_tmp : 1 ,I:reg0x11a4=0x21251d27.   Q:reg0x11e0=0x2523292b.
vga case:10 pass.
RX0 vga case:10 ,absolute value dc_i_tmp : 1 , value dc_q_tmp : 0 ,I:reg0x11a8=0x23231b27.   Q:reg0x11e4=0x2927272b.
vga case:11 pass.
RX0 vga case:11 ,absolute value dc_i_tmp : 0 , value dc_q_tmp : 0 ,I:reg0x11ac=0x1f251929.   Q:reg0x11e8=0x2525272d.
vga case:12 pass.
RX0 vga case:12 ,absolute value dc_i_tmp : 1 , value dc_q_tmp : 1 ,I:reg0x11b0=0x1d27192d.   Q:reg0x11ec=0x2527252d.
vga case:13 pass.
RX0 vga case:13 ,absolute value dc_i_tmp : 1 , value dc_q_tmp : 1 ,I:reg0x11b4=0x1f25152d.   Q:reg0x11f0=0x252b232f.
vga case:14 pass.
RX0 vga case:14 ,absolute value dc_i_tmp : 1 , value dc_q_tmp : 0 ,I:reg0x11b8=0x211b1131.   Q:reg0x11f4=0x27232131.
rx1 vga calibration begin
rx1 vga case:1 pass.
RX1 vga case:1 ,absolute value dc_i_tmp : 0 , value dc_q_tmp : 1 ,I:reg0x11fc=0x27272125. Q:reg0x1238=0x15152121.
rx1 vga case:2 pass.
RX1 vga case:2 ,absolute value dc_i_tmp : 0 , value dc_q_tmp : 1 ,I:reg0x1200=0x27272125. Q:reg0x123c=0x15152121.
rx1 vga case:3 pass.
RX1 vga case:3 ,absolute value dc_i_tmp : 0 , value dc_q_tmp : 0 ,I:reg0x1204=0x27272125. Q:reg0x1240=0x17152121.
rx1 vga case:4 pass.
RX1 vga case:4 ,absolute value dc_i_tmp : 0 , value dc_q_tmp : 1 ,I:reg0x1208=0x25252125. Q:reg0x1244=0x17152121.
rx1 vga case:5 pass.
RX1 vga case:5 ,absolute value dc_i_tmp : 0 , value dc_q_tmp : 0 ,I:reg0x120c=0x27272125. Q:reg0x1248=0x17152121.
rx1 vga case:6 pass.
RX1 vga case:6 ,absolute value dc_i_tmp : 1 , value dc_q_tmp : 1 ,I:reg0x1210=0x27252125. Q:reg0x124c=0x17152121.
rx1 vga case:7 pass.
RX1 vga case:7 ,absolute value dc_i_tmp : 0 , value dc_q_tmp : 1 ,I:reg0x1214=0x27252125. Q:reg0x1250=0x15132121.
rx1 vga case:8 pass.
RX1 vga case:8 ,absolute value dc_i_tmp : 1 , value dc_q_tmp : 1 ,I:reg0x1218=0x29232125. Q:reg0x1254=0x17152121.
rx1 vga case:9 pass.
RX1 vga case:9 ,absolute value dc_i_tmp : 1 , value dc_q_tmp : 1 ,I:reg0x121c=0x25292127. Q:reg0x1258=0x15132121.
rx1 vga case:10 pass.
RX1 vga case:10 ,absolute value dc_i_tmp : 0 , value dc_q_tmp : 0 ,I:reg0x1220=0x27252127. Q:reg0x125c=0x19152121.
rx1 vga case:11 pass.
RX1 vga case:11 ,absolute value dc_i_tmp : 0 , value dc_q_tmp : 1 ,I:reg0x1224=0x25271f27. Q:reg0x1260=0x17132121.
rx1 vga case:12 pass.
RX1 vga case:12 ,absolute value dc_i_tmp : 1 , value dc_q_tmp : 0 ,I:reg0x1228=0x29231f27. Q:reg0x1264=0x17132121.
rx1 vga case:13 pass.
RX1 vga case:13 ,absolute value dc_i_tmp : 1 , value dc_q_tmp : 1 ,I:reg0x122c=0x27251d27. Q:reg0x1268=0x17152121.
rx1 vga case:14 pass.
RX1 vga case:14 ,absolute value dc_i_tmp : 0 , value dc_q_tmp : 1 ,I:reg0x1230=0x29271b29. Q:reg0x126c=0x19152121.
reg0x1120=0x3c0100.
vga calibration end!
RX0: 0x103c : e001c000 ,0x1040 : 70001102 
RX1: 0x1054 : e001c000 ,0x1058 : 70001100 
THIS CASE J: 0 M: 7 
adc calibration begin
calibration begin
RX0 cali pre ,absolute value dc_i_tmp : 7 , value dc_q_tmp : 2 ,

reg0x1180=0x21211f25.
reg0x11bc=0x27272929.
RX1 cali pre ,absolute value dc_i_tmp : 0 , value dc_q_tmp : 4 ,reg0x11f8=0x27272125.
reg0x1234=0x17152121.
rx0 tia cali begin:
####:reg0x1270=0x5e216a15.
tia_cnt_i : 54 ,
tia_cnt_q : 1 ,
I:reg0x1150=0x21211f25.
Q:reg0x1154=0x27272929.
RX0 tia case :0,absolute value dc_i : -1 , value dc_q : 1 
####:reg0x1270=0x3422344b.
####:reg0x1274=0x5c216a15.
tia_cnt_i : 79 ,
tia_cnt_q : 0 ,
I:reg0x1150=0x21211f25.
Q:reg0x1154=0x27272929.
RX0 tia case :1,absolute value dc_i : -1 , value dc_q : 0 
####:reg0x1274=0x5c211b64.
####:reg0x1278=0x5c236619.
tia_cnt_i : 102 ,
tia_cnt_q : 0 ,
I:reg0x1150=0x21211f25.
Q:reg0x1154=0x27272929.
RX0 tia case :2,absolute value dc_i : -3 , value dc_q : 0 
####:reg0x1278=0x5c23007f.
####:reg0x127c=0x5a25621d.
tia_cnt_i : 98 ,
tia_cnt_q : 0 ,
I:reg0x1150=0x21211f25.
Q:reg0x1154=0x27272929.
RX0 tia case :3,absolute value dc_i : -3 , value dc_q : 0 
####:reg0x127c=0x5a25007f.
####:reg0x1280=0x4c315429.
tia_cnt_i : 84 ,
tia_cnt_q : 0 ,
I:reg0x1150=0x21211f25.
Q:reg0x1154=0x27272929.
RX0 tia case :4,absolute value dc_i : -3 , value dc_q : 0 
####:reg0x1280=0x4c31007d.
####:reg0x1284=0x502f5429.
tia_cnt_i : 84 ,
tia_cnt_q : 0 ,
I:reg0x1150=0x21211f25.
Q:reg0x1154=0x27272929.
RX0 tia case :5,absolute value dc_i : -3 , value dc_q : 0 
####:reg0x1284=0x502f007d.
####:reg0x1288=0x4c33542b.
tia_cnt_i : 84 ,
tia_cnt_q : 0 ,
I:reg0x1150=0x21211f25.
Q:reg0x1154=0x27272929.
RX0 tia case :6,absolute value dc_i : -3 , value dc_q : 0 
####:reg0x1288=0x4c33007f.
####:reg0x128c=0x4a354e31.
tia_cnt_i : 78 ,
tia_cnt_q : 0 ,
I:reg0x1150=0x21211f25.
Q:reg0x1154=0x27272929.
RX0 tia case :7,absolute value dc_i : -3 , value dc_q : 0 
####:reg0x128c=0x4a35007f.
####:reg0x1290=0x48374a35.
tia_cnt_i : 74 ,
tia_cnt_q : 0 ,
I:reg0x1150=0x21211f25.
Q:reg0x1154=0x27272929.
RX0 tia case :8,absolute value dc_i : -3 , value dc_q : 0 
####:reg0x1290=0x4837007f.
####:reg0x1294=0x4a374a35.
tia_cnt_i : 74 ,
tia_cnt_q : 0 ,
I:reg0x1150=0x21211f25.
Q:reg0x1154=0x27272929.
RX0 tia case :9,absolute value dc_i : -3 , value dc_q : 0 
####:reg0x1294=0x4a37007f.
####:reg0x1298=0x48354a37.
tia_cnt_i : 72 ,
tia_cnt_q : 0 ,
I:reg0x1150=0x21211f25.
Q:reg0x1154=0x27272929.
RX0 tia case :10,absolute value dc_i : -3 , value dc_q : 0 
####:reg0x1298=0x4835027f.
####:reg0x129c=0x46394a35.
tia_cnt_i : 74 ,
tia_cnt_q : 0 ,
I:reg0x1150=0x21211f25.
Q:reg0x1154=0x27272929.
RX0 tia case :11,absolute value dc_i : -3 , value dc_q : 0 
####:reg0x129c=0x4639007f.
####:reg0x12a0=0x48374a35.
tia_cnt_i : 74 ,
tia_cnt_q : 0 ,
I:reg0x1150=0x21211f25.
Q:reg0x1154=0x27272929.
RX0 tia case :12,absolute value dc_i : -3 , value dc_q : 0 
####:reg0x12a0=0x4837007f.
rx1 tia cali begin:
Q:reg0x12b0=0x4c334e33.
 RX1 :reg0x1130=0x4e334c33.
tia_cnt_i : 49 ,
tia_cnt_q : 67 ,
RX1 tia case :0,absolute value dc_i : 2 , value dc_q : -1 
RX1:reg0x12b0=0x7f767f02.
Q:reg0x12b4=0x4a354a35.
 RX1 :reg0x1130=0x4a354a35.
tia_cnt_i : 5 ,
tia_cnt_q : 10 ,
RX1 tia case :1,absolute value dc_i : 1 , value dc_q : -1 
RX1:reg0x12b4=0x4f3f4f30.
Q:reg0x12b8=0x4a374835.
 RX1 :reg0x1130=0x48354a37.
tia_cnt_i : 0 ,
tia_cnt_q : 1 ,
RX1 tia case :2,absolute value dc_i : 1 , value dc_q : -1 
RX1:reg0x12b8=0x48384835.
Q:reg0x12bc=0x48374835.
 RX1 :reg0x1130=0x48354837.
tia_cnt_i : 0 ,
tia_cnt_q : 0 ,
RX1 tia case :3,absolute value dc_i : 1 , value dc_q : -1 
RX1:reg0x12bc=0x48374835.
Q:reg0x12c0=0x46394639.
 RX1 :reg0x1130=0x46394639.
tia_cnt_i : 0 ,
tia_cnt_q : 0 ,
RX1 tia case :4,absolute value dc_i : 1 , value dc_q : -1 
RX1:reg0x12c0=0x46394639.
Q:reg0x12c4=0x3e413e41.
 RX1 :reg0x1130=0x3e413e41.
tia_cnt_i : 0 ,
tia_cnt_q : 0 ,
RX1 tia case :5,absolute value dc_i : 1 , value dc_q : -1 
RX1:reg0x12c4=0x3e413e41.
Q:reg0x12c8=0x3c433c41.
 RX1 :reg0x1130=0x3c413c43.
tia_cnt_i : 0 ,
tia_cnt_q : 0 ,
RX1 tia case :6,absolute value dc_i : 1 , value dc_q : -1 
RX1:reg0x12c8=0x3c433c41.
Q:reg0x12cc=0x3c433c43.
 RX1 :reg0x1130=0x3c433c43.
tia_cnt_i : 0 ,
tia_cnt_q : 0 ,
RX1 tia case :7,absolute value dc_i : 1 , value dc_q : -1 
RX1:reg0x12cc=0x3c433c43.
Q:reg0x12d0=0x3a453a45.
 RX1 :reg0x1130=0x3a453a45.
tia_cnt_i : 0 ,
tia_cnt_q : 0 ,
RX1 tia case :8,absolute value dc_i : 1 , value dc_q : -1 
RX1:reg0x12d0=0x3a453a45.
Q:reg0x12d4=0x3a453a45.
 RX1 :reg0x1130=0x3a453a45.
tia_cnt_i : 0 ,
tia_cnt_q : 0 ,
RX1 tia case :9,absolute value dc_i : 1 , value dc_q : -1 
RX1:reg0x12d4=0x3a453a45.
Q:reg0x12d8=0x3a453a47.
 RX1 :reg0x1130=0x3a473a45.
tia_cnt_i : 0 ,
tia_cnt_q : 0 ,
RX1 tia case :10,absolute value dc_i : 1 , value dc_q : -1 
RX1:reg0x12d8=0x3a453a47.
Q:reg0x12dc=0x3a453a45.
 RX1 :reg0x1130=0x3a453a45.
tia_cnt_i : 0 ,
tia_cnt_q : 0 ,
RX1 tia case :11,absolute value dc_i : 1 , value dc_q : -1 
RX1:reg0x12dc=0x3a453a45.
Q:reg0x12e0=0x3a453a45.
 RX1 :reg0x1130=0x3a453a45.
tia_cnt_i : 0 ,
tia_cnt_q : 0 ,
RX1 tia case :12,absolute value dc_i : 1 , value dc_q : -1 
RX1:reg0x12e0=0x3a453a45.
tia calibration end!
rx0 vga calibration begin
reg0x1120=0x3fc100.
vga case:1 pass.
RX0 vga case:1 ,absolute value dc_i_tmp : 7 , value dc_q_tmp : 3 ,I:reg0x1184=0x2121271d.   Q:reg0x11c0=0x25272b27.
vga case:2 pass.
RX0 vga case:2 ,absolute value dc_i_tmp : 7 , value dc_q_tmp : 2 ,I:reg0x1188=0x2121271d.   Q:reg0x11c4=0x27252d27.
vga case:3 pass.
RX0 vga case:3 ,absolute value dc_i_tmp : 7 , value dc_q_tmp : 3 ,I:reg0x118c=0x2121271d.   Q:reg0x11c8=0x27252d27.
vga case:4 pass.
RX0 vga case:4 ,absolute value dc_i_tmp : 7 , value dc_q_tmp : 3 ,I:reg0x1190=0x2121271d.   Q:reg0x11cc=0x25272b27.
vga case:5 pass.
RX0 vga case:5 ,absolute value dc_i_tmp : 7 , value dc_q_tmp : 3 ,I:reg0x1194=0x2321271d.   Q:reg0x11d0=0x27292b27.
vga case:6 pass.
RX0 vga case:6 ,absolute value dc_i_tmp : 7 , value dc_q_tmp : 3 ,I:reg0x1198=0x2321271d.   Q:reg0x11d4=0x25272b27.
vga case:7 pass.
RX0 vga case:7 ,absolute value dc_i_tmp : 7 , value dc_q_tmp : 3 ,I:reg0x119c=0x2321271d.   Q:reg0x11d8=0x25272b27.
vga case:8 pass.
RX0 vga case:8 ,absolute value dc_i_tmp : 7 , value dc_q_tmp : 3 ,I:reg0x11a0=0x2121271b.   Q:reg0x11dc=0x29232d27.
vga case:9 pass.
RX0 vga case:9 ,absolute value dc_i_tmp : 7 , value dc_q_tmp : 3 ,I:reg0x11a4=0x1d25291b.   Q:reg0x11e0=0x29252d27.
vga case:10 pass.
RX0 vga case:10 ,absolute value dc_i_tmp : 6 , value dc_q_tmp : 2 ,I:reg0x11a8=0x251b2d19.   Q:reg0x11e4=0x27252d27.
vga case:11 pass.
RX0 vga case:11 ,absolute value dc_i_tmp : 6 , value dc_q_tmp : 2 ,I:reg0x11ac=0x21212f17.   Q:reg0x11e8=0x25272d27.
vga case:12 pass.
RX0 vga case:12 ,absolute value dc_i_tmp : 6 , value dc_q_tmp : 1 ,I:reg0x11b0=0x2b1f3113.   Q:reg0x11ec=0x25292d27.
vga case:13 pass.
RX0 vga case:13 ,absolute value dc_i_tmp : 5 , value dc_q_tmp : 1 ,I:reg0x11b4=0x2325330f.   Q:reg0x11f0=0x2b272d25.
vga case:14 pass.
RX0 vga case:14 ,absolute value dc_i_tmp : 5 , value dc_q_tmp : 0 ,I:reg0x11b8=0x27233b07.   Q:reg0x11f4=0x292d2d25.
rx1 vga calibration begin
rx1 vga case:1 pass.
RX1 vga case:1 ,absolute value dc_i_tmp : 0 , value dc_q_tmp : 3 ,I:reg0x11fc=0x25271b2b. Q:reg0x1238=0x15152121.
rx1 vga case:2 pass.
RX1 vga case:2 ,absolute value dc_i_tmp : 0 , value dc_q_tmp : 3 ,I:reg0x1200=0x25271b2b. Q:reg0x123c=0x15152121.
rx1 vga case:3 pass.
RX1 vga case:3 ,absolute value dc_i_tmp : 0 , value dc_q_tmp : 7 ,I:reg0x1204=0x27251d2b. Q:reg0x1240=0x13152121.
rx1 vga case:4 pass.
RX1 vga case:4 ,absolute value dc_i_tmp : 0 , value dc_q_tmp : 6 ,I:reg0x1208=0x25271b2b. Q:reg0x1244=0x13152121.
rx1 vga case:5 pass.
RX1 vga case:5 ,absolute value dc_i_tmp : 0 , value dc_q_tmp : 5 ,I:reg0x120c=0x27231d2b. Q:reg0x1248=0x13152121.
rx1 vga case:6 pass.
RX1 vga case:6 ,absolute value dc_i_tmp : 0 , value dc_q_tmp : 4 ,I:reg0x1210=0x23271b2b. Q:reg0x124c=0x15172121.
rx1 vga case:7 pass.
RX1 vga case:7 ,absolute value dc_i_tmp : 0 , value dc_q_tmp : 4 ,I:reg0x1214=0x23271b2b. Q:reg0x1250=0x15172121.
rx1 vga case:8 pass.
RX1 vga case:8 ,absolute value dc_i_tmp : 0 , value dc_q_tmp : 4 ,I:reg0x1218=0x29231b2d. Q:reg0x1254=0x13172121.
rx1 vga case:9 pass.
RX1 vga case:9 ,absolute value dc_i_tmp : 0 , value dc_q_tmp : 5 ,I:reg0x121c=0x212b172f. Q:reg0x1258=0x19112321.
rx1 vga case:10 pass.
RX1 vga case:10 ,absolute value dc_i_tmp : 0 , value dc_q_tmp : 5 ,I:reg0x1220=0x23271531. Q:reg0x125c=0x19132321.
rx1 vga case:11 pass.
RX1 vga case:11 ,absolute value dc_i_tmp : 0 , value dc_q_tmp : 4 ,I:reg0x1224=0x29231335. Q:reg0x1260=0x1715211f.
rx1 vga case:12 pass.
RX1 vga case:12 ,absolute value dc_i_tmp : 0 , value dc_q_tmp : 5 ,I:reg0x1228=0x27270f39. Q:reg0x1264=0x1517211f.
rx1 vga case:13 pass.
RX1 vga case:13 ,absolute value dc_i_tmp : 0 , value dc_q_tmp : 4 ,I:reg0x122c=0x2923093d. Q:reg0x1268=0x1b13231f.
rx1 vga case:14 pass.
RX1 vga case:14 ,absolute value dc_i_tmp : 15 , value dc_q_tmp : 4 ,I:reg0x1230=0x29271b29. Q:reg0x126c=0x1b11251f.
reg0x1120=0x3c0100.
vga calibration end!
RX0: 0x103c : e0020000 ,0x1040 : 80001102 
RX1: 0x1054 : e0020000 ,0x1058 : 80001100 
THIS CASE J: 0 M: 8 
adc calibration begin
calibration begin
RX0 cali pre ,absolute value dc_i_tmp : 8 , value dc_q_tmp : 8 ,

reg0x1180=0x21231d25.
reg0x11bc=0x25272729.
RX1 cali pre ,absolute value dc_i_tmp : 4 , value dc_q_tmp : 5 ,reg0x11f8=0x27272125.
reg0x1234=0x17152121.
rx0 tia cali begin:
####:reg0x1270=0x601f6c13.
tia_cnt_i : 88 ,
tia_cnt_q : 96 ,
I:reg0x1150=0x21231d25.
Q:reg0x1154=0x25272729.
RX0 tia case :0,absolute value dc_i : -1 , value dc_q : -2 
####:reg0x1270=0x147f146b.
####:reg0x1274=0x5e216a15.
tia_cnt_i : 106 ,
tia_cnt_q : 1 ,
I:reg0x1150=0x21231d25.
Q:reg0x1154=0x25272729.
RX0 tia case :1,absolute value dc_i : -3 , value dc_q : -6 
####:reg0x1274=0x22007f.
####:reg0x1278=0x5e236619.
tia_cnt_i : 102 ,
tia_cnt_q : 1 ,
I:reg0x1150=0x21231d25.
Q:reg0x1154=0x25272729.
RX0 tia case :2,absolute value dc_i : -4 , value dc_q : -6 
####:reg0x1278=0x24007f.
####:reg0x127c=0x5a25621d.
tia_cnt_i : 98 ,
tia_cnt_q : 1 ,
I:reg0x1150=0x21231d25.
Q:reg0x1154=0x25272729.
RX0 tia case :3,absolute value dc_i : -5 , value dc_q : -7 
####:reg0x127c=0x26007f.
####:reg0x1280=0x4c31562b.
tia_cnt_i : 84 ,
tia_cnt_q : 78 ,
I:reg0x1150=0x21231d25.
Q:reg0x1154=0x25272729.
RX0 tia case :4,absolute value dc_i : -6 , value dc_q : -6 
####:reg0x1280=0x27f027f.
####:reg0x1284=0x4e315429.
tia_cnt_i : 84 ,
tia_cnt_q : 1 ,
I:reg0x1150=0x21231d25.
Q:reg0x1154=0x25272729.
RX0 tia case :5,absolute value dc_i : -6 , value dc_q : -7 
####:reg0x1284=0x32007d.
####:reg0x1288=0x4c33542b.
tia_cnt_i : 84 ,
tia_cnt_q : 1 ,
I:reg0x1150=0x21231d25.
Q:reg0x1154=0x25272729.
RX0 tia case :6,absolute value dc_i : -6 , value dc_q : -7 
####:reg0x1288=0x34007f.
####:reg0x128c=0x4c33502d.
tia_cnt_i : 80 ,
tia_cnt_q : 1 ,
I:reg0x1150=0x21231d25.
Q:reg0x1154=0x25272729.
RX0 tia case :7,absolute value dc_i : -6 , value dc_q : -7 
####:reg0x128c=0x34007d.
####:reg0x1290=0x48374a35.
tia_cnt_i : 74 ,
tia_cnt_q : 1 ,
I:reg0x1150=0x21231d25.
Q:reg0x1154=0x25272729.
RX0 tia case :8,absolute value dc_i : -6 , value dc_q : -7 
####:reg0x1290=0x38007f.
####:reg0x1294=0x46394c33.
tia_cnt_i : 76 ,
tia_cnt_q : 1 ,
I:reg0x1150=0x21231d25.
Q:reg0x1154=0x25272729.
RX0 tia case :9,absolute value dc_i : -6 , value dc_q : -7 
####:reg0x1294=0x3a007f.
####:reg0x1298=0x48374c33.
tia_cnt_i : 76 ,
tia_cnt_q : 1 ,
I:reg0x1150=0x21231d25.
Q:reg0x1154=0x25272729.
RX0 tia case :10,absolute value dc_i : -6 , value dc_q : -7 
####:reg0x1298=0x38007f.
####:reg0x129c=0x48354a35.
tia_cnt_i : 74 ,
tia_cnt_q : 1 ,
I:reg0x1150=0x21231d25.
Q:reg0x1154=0x25272729.
RX0 tia case :11,absolute value dc_i : -6 , value dc_q : -7 
####:reg0x129c=0x36007f.
####:reg0x12a0=0x4a374c33.
tia_cnt_i : 76 ,
tia_cnt_q : 1 ,
I:reg0x1150=0x21231d25.
Q:reg0x1154=0x25272729.
RX0 tia case :12,absolute value dc_i : -6 , value dc_q : -7 
####:reg0x12a0=0x38007f.
rx1 tia cali begin:
Q:reg0x12b0=0x4c334c33.
 RX1 :reg0x1130=0x4c334c33.
tia_cnt_i : 76 ,
tia_cnt_q : 1 ,
RX1 tia case :0,absolute value dc_i : -3 , value dc_q : -1 
RX1:reg0x12b0=0x34007f.
Q:reg0x12b4=0x4a374835.
 RX1 :reg0x1130=0x48354a37.
tia_cnt_i : 72 ,
tia_cnt_q : 1 ,
RX1 tia case :1,absolute value dc_i : -3 , value dc_q : -2 
RX1:reg0x12b4=0x38007d.
Q:reg0x12b8=0x4a374a35.
 RX1 :reg0x1130=0x4a354a37.
tia_cnt_i : 74 ,
tia_cnt_q : 1 ,
RX1 tia case :2,absolute value dc_i : -3 , value dc_q : -3 
RX1:reg0x12b8=0x38007f.
Q:reg0x12bc=0x46394639.
 RX1 :reg0x1130=0x46394639.
tia_cnt_i : 70 ,
tia_cnt_q : 1 ,
RX1 tia case :3,absolute value dc_i : -3 , value dc_q : -4 
RX1:reg0x12bc=0x3a007f.
Q:reg0x12c0=0x44394439.
 RX1 :reg0x1130=0x44394439.
tia_cnt_i : 68 ,
tia_cnt_q : 1 ,
RX1 tia case :4,absolute value dc_i : -3 , value dc_q : -4 
RX1:reg0x12c0=0x3a007d.
Q:reg0x12c4=0x3c413c41.
 RX1 :reg0x1130=0x3c413c41.
tia_cnt_i : 60 ,
tia_cnt_q : 1 ,
RX1 tia case :5,absolute value dc_i : -3 , value dc_q : -4 
RX1:reg0x12c4=0x42007d.
Q:reg0x12c8=0x3e433c43.
 RX1 :reg0x1130=0x3c433e43.
tia_cnt_i : 60 ,
tia_cnt_q : 1 ,
RX1 tia case :6,absolute value dc_i : -3 , value dc_q : -4 
RX1:reg0x12c8=0x44007f.
Q:reg0x12cc=0x3c413c43.
 RX1 :reg0x1130=0x3c433c41.
tia_cnt_i : 60 ,
tia_cnt_q : 1 ,
RX1 tia case :7,absolute value dc_i : -3 , value dc_q : -4 
RX1:reg0x12cc=0x42007f.
Q:reg0x12d0=0x3a453a45.
 RX1 :reg0x1130=0x3a453a45.
tia_cnt_i : 58 ,
tia_cnt_q : 1 ,
RX1 tia case :8,absolute value dc_i : -3 , value dc_q : -4 
RX1:reg0x12d0=0x46007f.
Q:reg0x12d4=0x3c433a47.
 RX1 :reg0x1130=0x3a473c43.
tia_cnt_i : 56 ,
tia_cnt_q : 60 ,
RX1 tia case :9,absolute value dc_i : -3 , value dc_q : -4 
RX1:reg0x12d4=0x27f027f.
Q:reg0x12d8=0x3a453845.
 RX1 :reg0x1130=0x38453a45.
tia_cnt_i : 56 ,
tia_cnt_q : 1 ,
RX1 tia case :10,absolute value dc_i : -3 , value dc_q : -4 
RX1:reg0x12d8=0x46007d.
Q:reg0x12dc=0x3a453a45.
 RX1 :reg0x1130=0x3a453a45.
tia_cnt_i : 58 ,
tia_cnt_q : 1 ,
RX1 tia case :11,absolute value dc_i : -3 , value dc_q : -4 
RX1:reg0x12dc=0x46007f.
Q:reg0x12e0=0x3a453845.
 RX1 :reg0x1130=0x38453a45.
tia_cnt_i : 56 ,
tia_cnt_q : 1 ,
RX1 tia case :12,absolute value dc_i : -3 , value dc_q : -4 
RX1:reg0x12e0=0x46007d.
tia calibration end!
rx0 vga calibration begin
reg0x1120=0x3fc100.
vga case:1 pass.
RX0 vga case:1 ,absolute value dc_i_tmp : 8 , value dc_q_tmp : 8 ,I:reg0x1184=0x21212d17.   Q:reg0x11c0=0x25273521.
vga case:2 pass.
RX0 vga case:2 ,absolute value dc_i_tmp : 8 , value dc_q_tmp : 8 ,I:reg0x1188=0x21212d17.   Q:reg0x11c4=0x25273521.
vga case:3 pass.
RX0 vga case:3 ,absolute value dc_i_tmp : 9 , value dc_q_tmp : 8 ,I:reg0x118c=0x21212d17.   Q:reg0x11c8=0x25273521.
vga case:4 pass.
RX0 vga case:4 ,absolute value dc_i_tmp : 9 , value dc_q_tmp : 8 ,I:reg0x1190=0x23232d17.   Q:reg0x11cc=0x25273521.
vga case:5 pass.
RX0 vga case:5 ,absolute value dc_i_tmp : 9 , value dc_q_tmp : 8 ,I:reg0x1194=0x21212d17.   Q:reg0x11d0=0x25273521.
vga case:6 pass.
RX0 vga case:6 ,absolute value dc_i_tmp : 9 , value dc_q_tmp : 8 ,I:reg0x1198=0x23212d17.   Q:reg0x11d4=0x25273521.
vga case:7 pass.
RX0 vga case:7 ,absolute value dc_i_tmp : 9 , value dc_q_tmp : 8 ,I:reg0x119c=0x211f2d17.   Q:reg0x11d8=0x25273521.
vga case:8 pass.
RX0 vga case:8 ,absolute value dc_i_tmp : 8 , value dc_q_tmp : 8 ,I:reg0x11a0=0x271d3115.   Q:reg0x11dc=0x2325371d.
vga case:9 pass.
RX0 vga case:9 ,absolute value dc_i_tmp : 8 , value dc_q_tmp : 8 ,I:reg0x11a4=0x2521310f.   Q:reg0x11e0=0x27273919.
vga case:10 pass.
RX0 vga case:10 ,absolute value dc_i_tmp : 8 , value dc_q_tmp : 7 ,I:reg0x11a8=0x1f23370d.   Q:reg0x11e4=0x25273d17.
vga case:11 pass.
RX0 vga case:11 ,absolute value dc_i_tmp : 8 , value dc_q_tmp : 8 ,I:reg0x11ac=0x23233d07.   Q:reg0x11e8=0x252b3f11.
vga case:12 pass.
RX0 vga case:12 ,absolute value dc_i_tmp : 8 , value dc_q_tmp : 7 ,I:reg0x11b0=0xb333f01.   Q:reg0x11ec=0x113b3f0d.
vga case:13 pass.
RX0 vga case:13 ,absolute value dc_i_tmp : 1 , value dc_q_tmp : 1 ,I:reg0x11b4=0x13f3f01.   Q:reg0x11f0=0x13f3f07.
vga case:14 pass.
RX0 vga case:14 ,absolute value dc_i_tmp : 1 , value dc_q_tmp : 1 ,I:reg0x11b8=0x13f3f01.   Q:reg0x11f4=0x13f3f01.
rx1 vga calibration begin
rx1 vga case:1 pass.
RX1 vga case:1 ,absolute value dc_i_tmp : 5 , value dc_q_tmp : 5 ,I:reg0x11fc=0x2527291d. Q:reg0x1238=0x1515231d.
rx1 vga case:2 pass.
RX1 vga case:2 ,absolute value dc_i_tmp : 4 , value dc_q_tmp : 5 ,I:reg0x1200=0x27252b1d. Q:reg0x123c=0x1515231d.
rx1 vga case:3 pass.
RX1 vga case:3 ,absolute value dc_i_tmp : 4 , value dc_q_tmp : 5 ,I:reg0x1204=0x27252b1d. Q:reg0x1240=0x1717231d.
rx1 vga case:4 pass.
RX1 vga case:4 ,absolute value dc_i_tmp : 5 , value dc_q_tmp : 5 ,I:reg0x1208=0x27252b1d. Q:reg0x1244=0x1717231d.
rx1 vga case:5 pass.
RX1 vga case:5 ,absolute value dc_i_tmp : 5 , value dc_q_tmp : 6 ,I:reg0x120c=0x27252b1d. Q:reg0x1248=0x1517231d.
rx1 vga case:6 pass.
RX1 vga case:6 ,absolute value dc_i_tmp : 4 , value dc_q_tmp : 5 ,I:reg0x1210=0x29252b1d. Q:reg0x124c=0x1517231d.
rx1 vga case:7 pass.
RX1 vga case:7 ,absolute value dc_i_tmp : 4 , value dc_q_tmp : 6 ,I:reg0x1214=0x29232b1d. Q:reg0x1250=0x1317231d.
rx1 vga case:8 pass.
RX1 vga case:8 ,absolute value dc_i_tmp : 4 , value dc_q_tmp : 5 ,I:reg0x1218=0x29232d1b. Q:reg0x1254=0x1717251d.
rx1 vga case:9 pass.
RX1 vga case:9 ,absolute value dc_i_tmp : 4 , value dc_q_tmp : 5 ,I:reg0x121c=0x25272f19. Q:reg0x1258=0x1b11271b.
rx1 vga case:10 pass.
RX1 vga case:10 ,absolute value dc_i_tmp : 4 , value dc_q_tmp : 5 ,I:reg0x1220=0x29273115. Q:reg0x125c=0x1913291b.
rx1 vga case:11 pass.
RX1 vga case:11 ,absolute value dc_i_tmp : 4 , value dc_q_tmp : 5 ,I:reg0x1224=0x25273511. Q:reg0x1260=0x19112b19.
rx1 vga case:12 pass.
RX1 vga case:12 ,absolute value dc_i_tmp : 3 , value dc_q_tmp : 5 ,I:reg0x1228=0x2b253b0f. Q:reg0x1264=0x1b132d17.
rx1 vga case:13 pass.
RX1 vga case:13 ,absolute value dc_i_tmp : 3 , value dc_q_tmp : 4 ,I:reg0x122c=0x2d233f07. Q:reg0x1268=0x1d112f13.
rx1 vga case:14 pass.
RX1 vga case:14 ,absolute value dc_i_tmp : 4 , value dc_q_tmp : 5 ,I:reg0x1230=0x13f3f01. Q:reg0x126c=0x1517330d.
reg0x1120=0x3c0100.
vga calibration end!
RX0: 0x103c : e0024000 ,0x1040 : 90001102 
RX1: 0x1054 : e0024000 ,0x1058 : 90001100 
THIS CASE J: 0 M: 9 
adc calibration begin
calibration begin
RX0 cali pre ,absolute value dc_i_tmp : 1 , value dc_q_tmp : 1 ,

reg0x1180=0x21211f25.
reg0x11bc=0x25272929.
RX1 cali pre ,absolute value dc_i_tmp : 0 , value dc_q_tmp : 1 ,reg0x11f8=0x27272125.
reg0x1234=0x15152121.
rx0 tia cali begin:
####:reg0x1270=0x601f6c13.
tia_cnt_i : 0 ,
tia_cnt_q : 15 ,
I:reg0x1150=0x21211f25.
Q:reg0x1154=0x25272929.
RX0 tia case :0,absolute value dc_i : -1 , value dc_q : -1 
####:reg0x1270=0x6c2e6c13.
####:reg0x1274=0x621f6a15.
tia_cnt_i : 0 ,
tia_cnt_q : 0 ,
I:reg0x1150=0x21211f25.
Q:reg0x1154=0x25272929.
RX0 tia case :1,absolute value dc_i : 1 , value dc_q : 0 
####:reg0x1274=0x621f6a15.
####:reg0x1278=0x5e216817.
tia_cnt_i : 9 ,
tia_cnt_q : 0 ,
I:reg0x1150=0x21211f25.
Q:reg0x1154=0x25272929.
RX0 tia case :2,absolute value dc_i : 1 , value dc_q : 1 
####:reg0x1278=0x5e21710e.
####:reg0x127c=0x5a25621d.
tia_cnt_i : 29 ,
tia_cnt_q : 0 ,
I:reg0x1150=0x21211f25.
Q:reg0x1154=0x25272929.
RX0 tia case :3,absolute value dc_i : 2 , value dc_q : 1 
####:reg0x127c=0x5a257f00.
####:reg0x1280=0x4c31562b.
tia_cnt_i : 41 ,
tia_cnt_q : 0 ,
I:reg0x1150=0x21211f25.
Q:reg0x1154=0x25272929.
RX0 tia case :4,absolute value dc_i : 2 , value dc_q : 1 
####:reg0x1280=0x4c317f02.
####:reg0x1284=0x4c315429.
tia_cnt_i : 41 ,
tia_cnt_q : 0 ,
I:reg0x1150=0x21211f25.
Q:reg0x1154=0x25272929.
RX0 tia case :5,absolute value dc_i : 2 , value dc_q : 1 
####:reg0x1284=0x4c317d00.
####:reg0x1288=0x4c33522d.
tia_cnt_i : 45 ,
tia_cnt_q : 0 ,
I:reg0x1150=0x21211f25.
Q:reg0x1154=0x25272929.
RX0 tia case :6,absolute value dc_i : 2 , value dc_q : 1 
####:reg0x1288=0x4c337f00.
####:reg0x128c=0x4c33502d.
tia_cnt_i : 45 ,
tia_cnt_q : 0 ,
I:reg0x1150=0x21211f25.
Q:reg0x1154=0x25272929.
RX0 tia case :7,absolute value dc_i : 2 , value dc_q : 1 
####:reg0x128c=0x4c337d00.
####:reg0x1290=0x48374c33.
tia_cnt_i : 51 ,
tia_cnt_q : 0 ,
I:reg0x1150=0x21211f25.
Q:reg0x1154=0x25272929.
RX0 tia case :8,absolute value dc_i : 2 , value dc_q : 1 
####:reg0x1290=0x48377f00.
####:reg0x1294=0x48374c33.
tia_cnt_i : 51 ,
tia_cnt_q : 0 ,
I:reg0x1150=0x21211f25.
Q:reg0x1154=0x25272929.
RX0 tia case :9,absolute value dc_i : 2 , value dc_q : 1 
####:reg0x1294=0x48377f00.
####:reg0x1298=0x48374a35.
tia_cnt_i : 53 ,
tia_cnt_q : 0 ,
I:reg0x1150=0x21211f25.
Q:reg0x1154=0x25272929.
RX0 tia case :10,absolute value dc_i : 2 , value dc_q : 1 
####:reg0x1298=0x48377f00.
####:reg0x129c=0x46394a35.
tia_cnt_i : 53 ,
tia_cnt_q : 0 ,
I:reg0x1150=0x21211f25.
Q:reg0x1154=0x25272929.
RX0 tia case :11,absolute value dc_i : 2 , value dc_q : 1 
####:reg0x129c=0x46397f00.
####:reg0x12a0=0x48374835.
tia_cnt_i : 53 ,
tia_cnt_q : 0 ,
I:reg0x1150=0x21211f25.
Q:reg0x1154=0x25272929.
RX0 tia case :12,absolute value dc_i : 2 , value dc_q : 1 
####:reg0x12a0=0x48377d00.
rx1 tia cali begin:
Q:reg0x12b0=0x48354a35.
 RX1 :reg0x1130=0x4a354835.
tia_cnt_i : 5 ,
tia_cnt_q : 14 ,
RX1 tia case :0,absolute value dc_i : 1 , value dc_q : -1 
RX1:reg0x12b0=0x4f434f30.
Q:reg0x12b4=0x48374a37.
 RX1 :reg0x1130=0x4a374837.
tia_cnt_i : 9 ,
tia_cnt_q : 16 ,
RX1 tia case :1,absolute value dc_i : 1 , value dc_q : -1 
RX1:reg0x12b4=0x5347532e.
Q:reg0x12b8=0x48374837.
 RX1 :reg0x1130=0x48374837.
tia_cnt_i : 11 ,
tia_cnt_q : 23 ,
RX1 tia case :2,absolute value dc_i : 1 , value dc_q : -1 
RX1:reg0x12b8=0x534e532c.
Q:reg0x12bc=0x48374837.
 RX1 :reg0x1130=0x48374837.
tia_cnt_i : 0 ,
tia_cnt_q : 17 ,
RX1 tia case :3,absolute value dc_i : 1 , value dc_q : -1 
RX1:reg0x12bc=0x48484837.
Q:reg0x12c0=0x463b463b.
 RX1 :reg0x1130=0x463b463b.
tia_cnt_i : 1 ,
tia_cnt_q : 18 ,
RX1 tia case :4,absolute value dc_i : 1 , value dc_q : -1 
RX1:reg0x12c0=0x474d473a.
Q:reg0x12c4=0x3c413e43.
 RX1 :reg0x1130=0x3e433c41.
tia_cnt_i : 5 ,
tia_cnt_q : 1 ,
RX1 tia case :5,absolute value dc_i : 1 , value dc_q : -1 
RX1:reg0x12c4=0x4342433e.
Q:reg0x12c8=0x3c433c41.
 RX1 :reg0x1130=0x3c413c43.
tia_cnt_i : 4 ,
tia_cnt_q : 8 ,
RX1 tia case :6,absolute value dc_i : 1 , value dc_q : -1 
RX1:reg0x12c8=0x404b403d.
Q:reg0x12cc=0x3c433c41.
 RX1 :reg0x1130=0x3c413c43.
tia_cnt_i : 6 ,
tia_cnt_q : 9 ,
RX1 tia case :7,absolute value dc_i : 1 , value dc_q : -1 
RX1:reg0x12cc=0x424c423b.
Q:reg0x12d0=0x3c433845.
 RX1 :reg0x1130=0x38453c43.
tia_cnt_i : 3 ,
tia_cnt_q : 3 ,
RX1 tia case :8,absolute value dc_i : 1 , value dc_q : -1 
RX1:reg0x12d0=0x3b463b42.
Q:reg0x12d4=0x3a473a45.
 RX1 :reg0x1130=0x3a453a47.
tia_cnt_i : 3 ,
tia_cnt_q : 0 ,
RX1 tia case :9,absolute value dc_i : 1 , value dc_q : -1 
RX1:reg0x12d4=0x3a473d42.
Q:reg0x12d8=0x3a453a45.
 RX1 :reg0x1130=0x3a453a45.
tia_cnt_i : 0 ,
tia_cnt_q : 0 ,
RX1 tia case :10,absolute value dc_i : 1 , value dc_q : -1 
RX1:reg0x12d8=0x3a453a45.
Q:reg0x12dc=0x3a453845.
 RX1 :reg0x1130=0x38453a45.
tia_cnt_i : 0 ,
tia_cnt_q : 4 ,
RX1 tia case :11,absolute value dc_i : 1 , value dc_q : -1 
RX1:reg0x12dc=0x38493845.
Q:reg0x12e0=0x3a453845.
 RX1 :reg0x1130=0x38453a45.
tia_cnt_i : 0 ,
tia_cnt_q : 1 ,
RX1 tia case :12,absolute value dc_i : 1 , value dc_q : -1 
RX1:reg0x12e0=0x38463845.
tia calibration end!
rx0 vga calibration begin
reg0x1120=0x3fc100.
vga case:1 pass.
RX0 vga case:1 ,absolute value dc_i_tmp : 1 , value dc_q_tmp : 0 ,I:reg0x1184=0x23231f25.   Q:reg0x11c0=0x27272929.
vga case:2 pass.
RX0 vga case:2 ,absolute value dc_i_tmp : 1 , value dc_q_tmp : 1 ,I:reg0x1188=0x23231f25.   Q:reg0x11c4=0x25272929.
vga case:3 pass.
RX0 vga case:3 ,absolute value dc_i_tmp : 1 , value dc_q_tmp : 0 ,I:reg0x118c=0x21211f25.   Q:reg0x11c8=0x27272929.
vga case:4 pass.
RX0 vga case:4 ,absolute value dc_i_tmp : 1 , value dc_q_tmp : 1 ,I:reg0x1190=0x21211f25.   Q:reg0x11cc=0x25272929.
vga case:5 pass.
RX0 vga case:5 ,absolute value dc_i_tmp : 1 , value dc_q_tmp : 0 ,I:reg0x1194=0x211f1f25.   Q:reg0x11d0=0x27272929.
vga case:6 pass.
RX0 vga case:6 ,absolute value dc_i_tmp : 1 , value dc_q_tmp : 0 ,I:reg0x1198=0x211f1f25.   Q:reg0x11d4=0x27272929.
vga case:7 pass.
RX0 vga case:7 ,absolute value dc_i_tmp : 1 , value dc_q_tmp : 0 ,I:reg0x119c=0x23211f25.   Q:reg0x11d8=0x27272929.
vga case:8 pass.
RX0 vga case:8 ,absolute value dc_i_tmp : 1 , value dc_q_tmp : 0 ,I:reg0x11a0=0x23231f27.   Q:reg0x11dc=0x23292729.
vga case:9 pass.
RX0 vga case:9 ,absolute value dc_i_tmp : 1 , value dc_q_tmp : 0 ,I:reg0x11a4=0x231f1d27.   Q:reg0x11e0=0x2727292b.
vga case:10 pass.
RX0 vga case:10 ,absolute value dc_i_tmp : 1 , value dc_q_tmp : 0 ,I:reg0x11a8=0x271d1d29.   Q:reg0x11e4=0x2527272b.
vga case:11 pass.
RX0 vga case:11 ,absolute value dc_i_tmp : 1 , value dc_q_tmp : 0 ,I:reg0x11ac=0x1d27192b.   Q:reg0x11e8=0x2327272d.
vga case:12 pass.
RX0 vga case:12 ,absolute value dc_i_tmp : 1 , value dc_q_tmp : 0 ,I:reg0x11b0=0x251f192d.   Q:reg0x11ec=0x2923272d.
vga case:13 pass.
RX0 vga case:13 ,absolute value dc_i_tmp : 0 , value dc_q_tmp : 1 ,I:reg0x11b4=0x2323152f.   Q:reg0x11f0=0x2327252f.
vga case:14 pass.
RX0 vga case:14 ,absolute value dc_i_tmp : 1 , value dc_q_tmp : 1 ,I:reg0x11b8=0x191f0f35.   Q:reg0x11f4=0x252d2131.
rx1 vga calibration begin
rx1 vga case:1 pass.
RX1 vga case:1 ,absolute value dc_i_tmp : 0 , value dc_q_tmp : 1 ,I:reg0x11fc=0x25272127. Q:reg0x1238=0x15152121.
rx1 vga case:2 pass.
RX1 vga case:2 ,absolute value dc_i_tmp : 0 , value dc_q_tmp : 1 ,I:reg0x1200=0x25272127. Q:reg0x123c=0x15152121.
rx1 vga case:3 pass.
RX1 vga case:3 ,absolute value dc_i_tmp : 0 , value dc_q_tmp : 0 ,I:reg0x1204=0x25272127. Q:reg0x1240=0x17152121.
rx1 vga case:4 pass.
RX1 vga case:4 ,absolute value dc_i_tmp : 1 , value dc_q_tmp : 0 ,I:reg0x1208=0x27252327. Q:reg0x1244=0x17152121.
rx1 vga case:5 pass.
RX1 vga case:5 ,absolute value dc_i_tmp : 0 , value dc_q_tmp : 1 ,I:reg0x120c=0x23272127. Q:reg0x1248=0x17152121.
rx1 vga case:6 pass.
RX1 vga case:6 ,absolute value dc_i_tmp : 0 , value dc_q_tmp : 1 ,I:reg0x1210=0x23272127. Q:reg0x124c=0x17152121.
rx1 vga case:7 pass.
RX1 vga case:7 ,absolute value dc_i_tmp : 1 , value dc_q_tmp : 1 ,I:reg0x1214=0x2b232327. Q:reg0x1250=0x17152121.
rx1 vga case:8 pass.
RX1 vga case:8 ,absolute value dc_i_tmp : 1 , value dc_q_tmp : 1 ,I:reg0x1218=0x25272127. Q:reg0x1254=0x17152121.
rx1 vga case:9 pass.
RX1 vga case:9 ,absolute value dc_i_tmp : 1 , value dc_q_tmp : 0 ,I:reg0x121c=0x23271f27. Q:reg0x1258=0x17152121.
rx1 vga case:10 pass.
RX1 vga case:10 ,absolute value dc_i_tmp : 0 , value dc_q_tmp : 1 ,I:reg0x1220=0x27231f27. Q:reg0x125c=0x17152121.
rx1 vga case:11 pass.
RX1 vga case:11 ,absolute value dc_i_tmp : 1 , value dc_q_tmp : 0 ,I:reg0x1224=0x23251f29. Q:reg0x1260=0x17152121.
rx1 vga case:12 pass.
RX1 vga case:12 ,absolute value dc_i_tmp : 0 , value dc_q_tmp : 1 ,I:reg0x1228=0x23251d29. Q:reg0x1264=0x15152121.
rx1 vga case:13 pass.
RX1 vga case:13 ,absolute value dc_i_tmp : 0 , value dc_q_tmp : 0 ,I:reg0x122c=0x27251d2b. Q:reg0x1268=0x17172121.
rx1 vga case:14 pass.
RX1 vga case:14 ,absolute value dc_i_tmp : 0 , value dc_q_tmp : 1 ,I:reg0x1230=0x2725192d. Q:reg0x126c=0x1f0f2321.
reg0x1120=0x3c0100.
vga calibration end!
RX0: 0x103c : e0028000 ,0x1040 : a0001102 
RX1: 0x1054 : e0028000 ,0x1058 : a0001100 
THIS CASE J: 0 M:10 
adc calibration begin
calibration begin
RX0 cali pre ,absolute value dc_i_tmp : 1 , value dc_q_tmp : 0 ,

reg0x1180=0x23231f25.
reg0x11bc=0x27272929.
RX1 cali pre ,absolute value dc_i_tmp : 0 , value dc_q_tmp : 1 ,reg0x11f8=0x25272125.
reg0x1234=0x15152121.
rx0 tia cali begin:
####:reg0x1270=0x601f6c11.
tia_cnt_i : 0 ,
tia_cnt_q : 0 ,
I:reg0x1150=0x23231f25.
Q:reg0x1154=0x27272929.
RX0 tia case :0,absolute value dc_i : -1 , value dc_q : 0 
####:reg0x1270=0x601f6c11.
####:reg0x1274=0x5e216e13.
tia_cnt_i : 0 ,
tia_cnt_q : 0 ,
I:reg0x1150=0x23231f25.
Q:reg0x1154=0x27272929.
RX0 tia case :1,absolute value dc_i : 1 , value dc_q : 1 
####:reg0x1274=0x5e216e13.
####:reg0x1278=0x5e236619.
tia_cnt_i : 13 ,
tia_cnt_q : 1 ,
I:reg0x1150=0x23231f25.
Q:reg0x1154=0x27272929.
RX0 tia case :2,absolute value dc_i : 1 , value dc_q : 1 
####:reg0x1278=0x7322730c.
####:reg0x127c=0x5a27621d.
tia_cnt_i : 29 ,
tia_cnt_q : 1 ,
I:reg0x1150=0x23231f25.
Q:reg0x1154=0x27272929.
RX0 tia case :3,absolute value dc_i : 2 , value dc_q : 2 
####:reg0x127c=0x7f267f00.
####:reg0x1280=0x4e315429.
tia_cnt_i : 41 ,
tia_cnt_q : 29 ,
I:reg0x1150=0x23231f25.
Q:reg0x1154=0x27272929.
RX0 tia case :4,absolute value dc_i : 2 , value dc_q : 1 
####:reg0x1280=0x7d147d00.
####:reg0x1284=0x4e315429.
tia_cnt_i : 41 ,
tia_cnt_q : 27 ,
I:reg0x1150=0x23231f25.
Q:reg0x1154=0x27272929.
RX0 tia case :5,absolute value dc_i : 2 , value dc_q : 1 
####:reg0x1284=0x7d167d00.
####:reg0x1288=0x4c33542b.
tia_cnt_i : 43 ,
tia_cnt_q : 1 ,
I:reg0x1150=0x23231f25.
Q:reg0x1154=0x27272929.
RX0 tia case :6,absolute value dc_i : 2 , value dc_q : 2 
####:reg0x1288=0x7f327f00.
####:reg0x128c=0x4c33542b.
tia_cnt_i : 43 ,
tia_cnt_q : 1 ,
I:reg0x1150=0x23231f25.
Q:reg0x1154=0x27272929.
RX0 tia case :7,absolute value dc_i : 2 , value dc_q : 2 
####:reg0x128c=0x7f327f00.
####:reg0x1290=0x48374c33.
tia_cnt_i : 51 ,
tia_cnt_q : 1 ,
I:reg0x1150=0x23231f25.
Q:reg0x1154=0x27272929.
RX0 tia case :8,absolute value dc_i : 2 , value dc_q : 2 
####:reg0x1290=0x7f367f00.
####:reg0x1294=0x48374a35.
tia_cnt_i : 53 ,
tia_cnt_q : 1 ,
I:reg0x1150=0x23231f25.
Q:reg0x1154=0x27272929.
RX0 tia case :9,absolute value dc_i : 2 , value dc_q : 2 
####:reg0x1294=0x7f367f00.
####:reg0x1298=0x48374e33.
tia_cnt_i : 49 ,
tia_cnt_q : 1 ,
I:reg0x1150=0x23231f25.
Q:reg0x1154=0x27272929.
RX0 tia case :10,absolute value dc_i : 2 , value dc_q : 2 
####:reg0x1298=0x7f367f02.
####:reg0x129c=0x4a374a35.
tia_cnt_i : 53 ,
tia_cnt_q : 1 ,
I:reg0x1150=0x23231f25.
Q:reg0x1154=0x27272929.
RX0 tia case :11,absolute value dc_i : 2 , value dc_q : 2 
####:reg0x129c=0x7f367f00.
####:reg0x12a0=0x4a374a35.
tia_cnt_i : 53 ,
tia_cnt_q : 1 ,
I:reg0x1150=0x23231f25.
Q:reg0x1154=0x27272929.
RX0 tia case :12,absolute value dc_i : 2 , value dc_q : 2 
####:reg0x12a0=0x7f367f00.
rx1 tia cali begin:
Q:reg0x12b0=0x48354a35.
 RX1 :reg0x1130=0x4a354835.
tia_cnt_i : 0 ,
tia_cnt_q : 5 ,
RX1 tia case :0,absolute value dc_i : 1 , value dc_q : -1 
RX1:reg0x12b0=0x4a3a4a35.
Q:reg0x12b4=0x48354a35.
 RX1 :reg0x1130=0x4a354835.
tia_cnt_i : 0 ,
tia_cnt_q : 5 ,
RX1 tia case :1,absolute value dc_i : 1 , value dc_q : -1 
RX1:reg0x12b4=0x4a3a4a35.
Q:reg0x12b8=0x46394837.
 RX1 :reg0x1130=0x48374639.
tia_cnt_i : 0 ,
tia_cnt_q : 6 ,
RX1 tia case :2,absolute value dc_i : 1 , value dc_q : -1 
RX1:reg0x12b8=0x483f4837.
Q:reg0x12bc=0x46394439.
 RX1 :reg0x1130=0x44394639.
tia_cnt_i : 0 ,
tia_cnt_q : 5 ,
RX1 tia case :3,absolute value dc_i : 1 , value dc_q : -1 
RX1:reg0x12bc=0x443e4439.
Q:reg0x12c0=0x443b4439.
 RX1 :reg0x1130=0x4439443b.
tia_cnt_i : 0 ,
tia_cnt_q : 21 ,
RX1 tia case :4,absolute value dc_i : 1 , value dc_q : -1 
RX1:reg0x12c0=0x44504439.
Q:reg0x12c4=0x3c413a45.
 RX1 :reg0x1130=0x3a453c41.
tia_cnt_i : 0 ,
tia_cnt_q : 1 ,
RX1 tia case :5,absolute value dc_i : 1 , value dc_q : -1 
RX1:reg0x12c4=0x3a423a45.
Q:reg0x12c8=0x3c413c43.
 RX1 :reg0x1130=0x3c433c41.
tia_cnt_i : 0 ,
tia_cnt_q : 9 ,
RX1 tia case :6,absolute value dc_i : 1 , value dc_q : -1 
RX1:reg0x12c8=0x3c4a3c43.
Q:reg0x12cc=0x3c413e43.
 RX1 :reg0x1130=0x3e433c41.
tia_cnt_i : 0 ,
tia_cnt_q : 9 ,
RX1 tia case :7,absolute value dc_i : 1 , value dc_q : -1 
RX1:reg0x12cc=0x3e4a3e43.
Q:reg0x12d0=0x3a453a45.
 RX1 :reg0x1130=0x3a453a45.
tia_cnt_i : 0 ,
tia_cnt_q : 8 ,
RX1 tia case :8,absolute value dc_i : 1 , value dc_q : -1 
RX1:reg0x12d0=0x3a4d3a45.
Q:reg0x12d4=0x3c433a45.
 RX1 :reg0x1130=0x3a453c43.
tia_cnt_i : 0 ,
tia_cnt_q : 9 ,
RX1 tia case :9,absolute value dc_i : 1 , value dc_q : -1 
RX1:reg0x12d4=0x3a4c3a45.
Q:reg0x12d8=0x3c433845.
 RX1 :reg0x1130=0x38453c43.
tia_cnt_i : 0 ,
tia_cnt_q : 10 ,
RX1 tia case :10,absolute value dc_i : 0 , value dc_q : -1 
RX1:reg0x12d8=0x384d3845.
Q:reg0x12dc=0x3a453a45.
 RX1 :reg0x1130=0x3a453a45.
tia_cnt_i : 0 ,
tia_cnt_q : 6 ,
RX1 tia case :11,absolute value dc_i : 1 , value dc_q : -1 
RX1:reg0x12dc=0x3a4b3a45.
Q:reg0x12e0=0x3a453845.
 RX1 :reg0x1130=0x38453a45.
tia_cnt_i : 0 ,
tia_cnt_q : 3 ,
RX1 tia case :12,absolute value dc_i : 1 , value dc_q : -1 
RX1:reg0x12e0=0x38483845.
tia calibration end!
rx0 vga calibration begin
reg0x1120=0x3fc100.
vga case:1 pass.
RX0 vga case:1 ,absolute value dc_i_tmp : 1 , value dc_q_tmp : 0 ,I:reg0x1184=0x21211f25.   Q:reg0x11c0=0x27272929.
vga case:2 pass.
RX0 vga case:2 ,absolute value dc_i_tmp : 1 , value dc_q_tmp : 0 ,I:reg0x1188=0x1f231d25.   Q:reg0x11c4=0x27272929.
vga case:3 pass.
RX0 vga case:3 ,absolute value dc_i_tmp : 0 , value dc_q_tmp : 0 ,I:reg0x118c=0x23211f25.   Q:reg0x11c8=0x25292729.
vga case:4 pass.
RX0 vga case:4 ,absolute value dc_i_tmp : 1 , value dc_q_tmp : 1 ,I:reg0x1190=0x23211f25.   Q:reg0x11cc=0x27272929.
vga case:5 pass.
RX0 vga case:5 ,absolute value dc_i_tmp : 1 , value dc_q_tmp : 1 ,I:reg0x1194=0x1f251d25.   Q:reg0x11d0=0x27272929.
vga case:6 pass.
RX0 vga case:6 ,absolute value dc_i_tmp : 1 , value dc_q_tmp : 0 ,I:reg0x1198=0x231f1f25.   Q:reg0x11d4=0x27252929.
vga case:7 pass.
RX0 vga case:7 ,absolute value dc_i_tmp : 1 , value dc_q_tmp : 1 ,I:reg0x119c=0x251d1f25.   Q:reg0x11d8=0x27252929.
vga case:8 pass.
RX0 vga case:8 ,absolute value dc_i_tmp : 1 , value dc_q_tmp : 1 ,I:reg0x11a0=0x231f1f27.   Q:reg0x11dc=0x23272729.
vga case:9 pass.
RX0 vga case:9 ,absolute value dc_i_tmp : 1 , value dc_q_tmp : 1 ,I:reg0x11a4=0x1d251b27.   Q:reg0x11e0=0x2725292b.
vga case:10 pass.
RX0 vga case:10 ,absolute value dc_i_tmp : 1 , value dc_q_tmp : 1 ,I:reg0x11a8=0x21231b29.   Q:reg0x11e4=0x2727272b.
vga case:11 pass.
RX0 vga case:11 ,absolute value dc_i_tmp : 0 , value dc_q_tmp : 0 ,I:reg0x11ac=0x2321192b.   Q:reg0x11e8=0x2723272d.
vga case:12 pass.
RX0 vga case:12 ,absolute value dc_i_tmp : 1 , value dc_q_tmp : 0 ,I:reg0x11b0=0x2321192f.   Q:reg0x11ec=0x2723252d.
vga case:13 pass.
RX0 vga case:13 ,absolute value dc_i_tmp : 0 , value dc_q_tmp : 1 ,I:reg0x11b4=0x21251531.   Q:reg0x11f0=0x2327232f.
vga case:14 pass.
RX0 vga case:14 ,absolute value dc_i_tmp : 0 , value dc_q_tmp : 1 ,I:reg0x11b8=0x1d1f0f35.   Q:reg0x11f4=0x29232131.
rx1 vga calibration begin
rx1 vga case:1 pass.
RX1 vga case:1 ,absolute value dc_i_tmp : 0 , value dc_q_tmp : 0 ,I:reg0x11fc=0x25252125. Q:reg0x1238=0x17152121.
rx1 vga case:2 pass.
RX1 vga case:2 ,absolute value dc_i_tmp : 0 , value dc_q_tmp : 1 ,I:reg0x1200=0x25252125. Q:reg0x123c=0x15132121.
rx1 vga case:3 pass.
RX1 vga case:3 ,absolute value dc_i_tmp : 0 , value dc_q_tmp : 1 ,I:reg0x1204=0x25252125. Q:reg0x1240=0x17152121.
rx1 vga case:4 pass.
RX1 vga case:4 ,absolute value dc_i_tmp : 1 , value dc_q_tmp : 1 ,I:reg0x1208=0x25252125. Q:reg0x1244=0x15132121.
rx1 vga case:5 pass.
RX1 vga case:5 ,absolute value dc_i_tmp : 1 , value dc_q_tmp : 1 ,I:reg0x120c=0x25252125. Q:reg0x1248=0x17152121.
rx1 vga case:6 pass.
RX1 vga case:6 ,absolute value dc_i_tmp : 1 , value dc_q_tmp : 0 ,I:reg0x1210=0x25252125. Q:reg0x124c=0x17132121.
rx1 vga case:7 pass.
RX1 vga case:7 ,absolute value dc_i_tmp : 0 , value dc_q_tmp : 1 ,I:reg0x1214=0x27252125. Q:reg0x1250=0x17132121.
rx1 vga case:8 pass.
RX1 vga case:8 ,absolute value dc_i_tmp : 0 , value dc_q_tmp : 1 ,I:reg0x1218=0x29232125. Q:reg0x1254=0x17132121.
rx1 vga case:9 pass.
RX1 vga case:9 ,absolute value dc_i_tmp : 0 , value dc_q_tmp : 1 ,I:reg0x121c=0x25292127. Q:reg0x1258=0x15112121.
rx1 vga case:10 pass.
RX1 vga case:10 ,absolute value dc_i_tmp : 1 , value dc_q_tmp : 1 ,I:reg0x1220=0x27252127. Q:reg0x125c=0x17132121.
rx1 vga case:11 pass.
RX1 vga case:11 ,absolute value dc_i_tmp : 0 , value dc_q_tmp : 1 ,I:reg0x1224=0x25271f27. Q:reg0x1260=0x19132121.
rx1 vga case:12 pass.
RX1 vga case:12 ,absolute value dc_i_tmp : 0 , value dc_q_tmp : 0 ,I:reg0x1228=0x29231f27. Q:reg0x1264=0x17112121.
rx1 vga case:13 pass.
RX1 vga case:13 ,absolute value dc_i_tmp : 1 , value dc_q_tmp : 1 ,I:reg0x122c=0x23251f29. Q:reg0x1268=0x19132121.
rx1 vga case:14 pass.
RX1 vga case:14 ,absolute value dc_i_tmp : 0 , value dc_q_tmp : 1 ,I:reg0x1230=0x21251d2b. Q:reg0x126c=0x19112121.
reg0x1120=0x3c0100.
vga calibration end!
RX0: 0x103c : e002c000 ,0x1040 : b0001102 
RX1: 0x1054 : e002c000 ,0x1058 : b0001100 
THIS CASE J: 0 M:11 
adc calibration begin
calibration begin
RX0 cali pre ,absolute value dc_i_tmp : 7 , value dc_q_tmp : 2 ,

reg0x1180=0x23231f25.
reg0x11bc=0x27272929.
RX1 cali pre ,absolute value dc_i_tmp : 0 , value dc_q_tmp : 3 ,reg0x11f8=0x27272125.
reg0x1234=0x17152121.
rx0 tia cali begin:
####:reg0x1270=0x601f6815.
tia_cnt_i : 56 ,
tia_cnt_q : 1 ,
I:reg0x1150=0x23231f25.
Q:reg0x1154=0x27272929.
RX0 tia case :0,absolute value dc_i : -1 , value dc_q : 1 
####:reg0x1270=0x3020304d.
####:reg0x1274=0x5e216815.
tia_cnt_i : 74 ,
tia_cnt_q : 0 ,
I:reg0x1150=0x23231f25.
Q:reg0x1154=0x27272929.
RX0 tia case :1,absolute value dc_i : -1 , value dc_q : 0 
####:reg0x1274=0x5e211e5f.
####:reg0x1278=0x5e216817.
tia_cnt_i : 104 ,
tia_cnt_q : 0 ,
I:reg0x1150=0x23231f25.
Q:reg0x1154=0x27272929.
RX0 tia case :2,absolute value dc_i : -2 , value dc_q : 0 
####:reg0x1278=0x5e21007f.
####:reg0x127c=0x5a27621d.
tia_cnt_i : 57 ,
tia_cnt_q : 0 ,
I:reg0x1150=0x23231f25.
Q:reg0x1154=0x27272929.
RX0 tia case :3,absolute value dc_i : -1 , value dc_q : 0 
####:reg0x127c=0x5a272956.
####:reg0x1280=0x4e315629.
tia_cnt_i : 86 ,
tia_cnt_q : 0 ,
I:reg0x1150=0x23231f25.
Q:reg0x1154=0x27272929.
RX0 tia case :4,absolute value dc_i : -3 , value dc_q : 0 
####:reg0x1280=0x4e31007f.
####:reg0x1284=0x4c315629.
tia_cnt_i : 86 ,
tia_cnt_q : 0 ,
I:reg0x1150=0x23231f25.
Q:reg0x1154=0x27272929.
RX0 tia case :5,absolute value dc_i : -3 , value dc_q : 0 
####:reg0x1284=0x4c31007f.
####:reg0x1288=0x4e33542b.
tia_cnt_i : 84 ,
tia_cnt_q : 0 ,
I:reg0x1150=0x23231f25.
Q:reg0x1154=0x27272929.
RX0 tia case :6,absolute value dc_i : -3 , value dc_q : 1 
####:reg0x1288=0x4e33007f.
####:reg0x128c=0x4c334e31.
tia_cnt_i : 78 ,
tia_cnt_q : 0 ,
I:reg0x1150=0x23231f25.
Q:reg0x1154=0x27272929.
RX0 tia case :7,absolute value dc_i : -3 , value dc_q : 0 
####:reg0x128c=0x4c33007f.
####:reg0x1290=0x48374a35.
tia_cnt_i : 74 ,
tia_cnt_q : 0 ,
I:reg0x1150=0x23231f25.
Q:reg0x1154=0x27272929.
RX0 tia case :8,absolute value dc_i : -2 , value dc_q : 1 
####:reg0x1290=0x4837007f.
####:reg0x1294=0x48374a35.
tia_cnt_i : 74 ,
tia_cnt_q : 0 ,
I:reg0x1150=0x23231f25.
Q:reg0x1154=0x27272929.
RX0 tia case :9,absolute value dc_i : -3 , value dc_q : 0 
####:reg0x1294=0x4837007f.
####:reg0x1298=0x48374a35.
tia_cnt_i : 74 ,
tia_cnt_q : 0 ,
I:reg0x1150=0x23231f25.
Q:reg0x1154=0x27272929.
RX0 tia case :10,absolute value dc_i : -3 , value dc_q : 0 
####:reg0x1298=0x4837007f.
####:reg0x129c=0x46394c33.
tia_cnt_i : 76 ,
tia_cnt_q : 0 ,
I:reg0x1150=0x23231f25.
Q:reg0x1154=0x27272929.
RX0 tia case :11,absolute value dc_i : -3 , value dc_q : 0 
####:reg0x129c=0x4639007f.
####:reg0x12a0=0x48374c33.
tia_cnt_i : 76 ,
tia_cnt_q : 0 ,
I:reg0x1150=0x23231f25.
Q:reg0x1154=0x27272929.
RX0 tia case :12,absolute value dc_i : -3 , value dc_q : 0 
####:reg0x12a0=0x4837007f.
rx1 tia cali begin:
Q:reg0x12b0=0x4c334c33.
 RX1 :reg0x1130=0x4c334c33.
tia_cnt_i : 51 ,
tia_cnt_q : 75 ,
RX1 tia case :0,absolute value dc_i : 2 , value dc_q : -1 
RX1:reg0x12b0=0x7f7e7f00.
Q:reg0x12b4=0x4a354c33.
 RX1 :reg0x1130=0x4c334a35.
tia_cnt_i : 2 ,
tia_cnt_q : 9 ,
RX1 tia case :1,absolute value dc_i : 1 , value dc_q : -1 
RX1:reg0x12b4=0x4e3e4e31.
Q:reg0x12b8=0x4a354a35.
 RX1 :reg0x1130=0x4a354a35.
tia_cnt_i : 0 ,
tia_cnt_q : 2 ,
RX1 tia case :2,absolute value dc_i : 1 , value dc_q : -1 
RX1:reg0x12b8=0x4a374a35.
Q:reg0x12bc=0x48374835.
 RX1 :reg0x1130=0x48354837.
tia_cnt_i : 0 ,
tia_cnt_q : 0 ,
RX1 tia case :3,absolute value dc_i : 1 , value dc_q : -1 
RX1:reg0x12bc=0x48374835.
Q:reg0x12c0=0x46394639.
 RX1 :reg0x1130=0x46394639.
tia_cnt_i : 0 ,
tia_cnt_q : 0 ,
RX1 tia case :4,absolute value dc_i : 1 , value dc_q : -1 
RX1:reg0x12c0=0x46394639.
Q:reg0x12c4=0x3c413e43.
 RX1 :reg0x1130=0x3e433c41.
tia_cnt_i : 0 ,
tia_cnt_q : 0 ,
RX1 tia case :5,absolute value dc_i : 1 , value dc_q : -1 
RX1:reg0x12c4=0x3c413e43.
Q:reg0x12c8=0x3e413e41.
 RX1 :reg0x1130=0x3e413e41.
tia_cnt_i : 0 ,
tia_cnt_q : 0 ,
RX1 tia case :6,absolute value dc_i : 1 , value dc_q : -1 
RX1:reg0x12c8=0x3e413e41.
Q:reg0x12cc=0x3e433c41.
 RX1 :reg0x1130=0x3c413e43.
tia_cnt_i : 0 ,
tia_cnt_q : 1 ,
RX1 tia case :7,absolute value dc_i : 1 , value dc_q : -1 
RX1:reg0x12cc=0x3c443c41.
Q:reg0x12d0=0x3a453a45.
 RX1 :reg0x1130=0x3a453a45.
tia_cnt_i : 0 ,
tia_cnt_q : 0 ,
RX1 tia case :8,absolute value dc_i : 1 , value dc_q : -1 
RX1:reg0x12d0=0x3a453a45.
Q:reg0x12d4=0x3c433a45.
 RX1 :reg0x1130=0x3a453c43.
tia_cnt_i : 0 ,
tia_cnt_q : 0 ,
RX1 tia case :9,absolute value dc_i : 1 , value dc_q : -1 
RX1:reg0x12d4=0x3c433a45.
Q:reg0x12d8=0x3a453c43.
 RX1 :reg0x1130=0x3c433a45.
tia_cnt_i : 0 ,
tia_cnt_q : 0 ,
RX1 tia case :10,absolute value dc_i : 1 , value dc_q : -1 
RX1:reg0x12d8=0x3a453c43.
Q:reg0x12dc=0x3a453845.
 RX1 :reg0x1130=0x38453a45.
tia_cnt_i : 0 ,
tia_cnt_q : 0 ,
RX1 tia case :11,absolute value dc_i : 1 , value dc_q : -1 
RX1:reg0x12dc=0x3a453845.
Q:reg0x12e0=0x3a453a47.
 RX1 :reg0x1130=0x3a473a45.
tia_cnt_i : 0 ,
tia_cnt_q : 0 ,
RX1 tia case :12,absolute value dc_i : 1 , value dc_q : -1 
RX1:reg0x12e0=0x3a453a47.
tia calibration end!
rx0 vga calibration begin
reg0x1120=0x3fc100.
vga case:1 pass.
RX0 vga case:1 ,absolute value dc_i_tmp : 7 , value dc_q_tmp : 3 ,I:reg0x1184=0x2123271d.   Q:reg0x11c0=0x25272b27.
vga case:2 pass.
RX0 vga case:2 ,absolute value dc_i_tmp : 7 , value dc_q_tmp : 2 ,I:reg0x1188=0x2123271d.   Q:reg0x11c4=0x25272b27.
vga case:3 pass.
RX0 vga case:3 ,absolute value dc_i_tmp : 7 , value dc_q_tmp : 2 ,I:reg0x118c=0x2123271d.   Q:reg0x11c8=0x27252d27.
vga case:4 pass.
RX0 vga case:4 ,absolute value dc_i_tmp : 7 , value dc_q_tmp : 3 ,I:reg0x1190=0x1f23271d.   Q:reg0x11cc=0x27252d27.
vga case:5 pass.
RX0 vga case:5 ,absolute value dc_i_tmp : 7 , value dc_q_tmp : 4 ,I:reg0x1194=0x2123271d.   Q:reg0x11d0=0x27252d27.
vga case:6 pass.
RX0 vga case:6 ,absolute value dc_i_tmp : 7 , value dc_q_tmp : 2 ,I:reg0x1198=0x1f23271d.   Q:reg0x11d4=0x25292b27.
vga case:7 pass.
RX0 vga case:7 ,absolute value dc_i_tmp : 6 , value dc_q_tmp : 3 ,I:reg0x119c=0x2123271d.   Q:reg0x11d8=0x25292b27.
vga case:8 pass.
RX0 vga case:8 ,absolute value dc_i_tmp : 7 , value dc_q_tmp : 3 ,I:reg0x11a0=0x1f27271b.   Q:reg0x11dc=0x27232d27.
vga case:9 pass.
RX0 vga case:9 ,absolute value dc_i_tmp : 6 , value dc_q_tmp : 3 ,I:reg0x11a4=0x1f232919.   Q:reg0x11e0=0x27252d27.
vga case:10 pass.
RX0 vga case:10 ,absolute value dc_i_tmp : 6 , value dc_q_tmp : 1 ,I:reg0x11a8=0x1f252b17.   Q:reg0x11e4=0x25272d27.
vga case:11 pass.
RX0 vga case:11 ,absolute value dc_i_tmp : 5 , value dc_q_tmp : 1 ,I:reg0x11ac=0x23252f15.   Q:reg0x11e8=0x252b2d27.
vga case:12 pass.
RX0 vga case:12 ,absolute value dc_i_tmp : 6 , value dc_q_tmp : 2 ,I:reg0x11b0=0x2d19310f.   Q:reg0x11ec=0x27252d25.
vga case:13 pass.
RX0 vga case:13 ,absolute value dc_i_tmp : 6 , value dc_q_tmp : 1 ,I:reg0x11b4=0x2321370f.   Q:reg0x11f0=0x23272d25.
vga case:14 pass.
RX0 vga case:14 ,absolute value dc_i_tmp : 6 , value dc_q_tmp : 0 ,I:reg0x11b8=0x1b1f3f07.   Q:reg0x11f4=0x2d273125.
rx1 vga calibration begin
rx1 vga case:1 pass.
RX1 vga case:1 ,absolute value dc_i_tmp : 0 , value dc_q_tmp : 3 ,I:reg0x11fc=0x25271b2b. Q:reg0x1238=0x1715211f.
rx1 vga case:2 pass.
RX1 vga case:2 ,absolute value dc_i_tmp : 0 , value dc_q_tmp : 4 ,I:reg0x1200=0x25271b2b. Q:reg0x123c=0x17152321.
rx1 vga case:3 pass.
RX1 vga case:3 ,absolute value dc_i_tmp : 0 , value dc_q_tmp : 5 ,I:reg0x1204=0x25271b2b. Q:reg0x1240=0x1715211f.
rx1 vga case:4 pass.
RX1 vga case:4 ,absolute value dc_i_tmp : 0 , value dc_q_tmp : 5 ,I:reg0x1208=0x25271b2b. Q:reg0x1244=0x17152321.
rx1 vga case:5 pass.
RX1 vga case:5 ,absolute value dc_i_tmp : 0 , value dc_q_tmp : 6 ,I:reg0x120c=0x27231d2b. Q:reg0x1248=0x17152321.
rx1 vga case:6 pass.
RX1 vga case:6 ,absolute value dc_i_tmp : 0 , value dc_q_tmp : 3 ,I:reg0x1210=0x23271b2b. Q:reg0x124c=0x19152321.
rx1 vga case:7 pass.
RX1 vga case:7 ,absolute value dc_i_tmp : 0 , value dc_q_tmp : 5 ,I:reg0x1214=0x23271b2b. Q:reg0x1250=0x19152321.
rx1 vga case:8 pass.
RX1 vga case:8 ,absolute value dc_i_tmp : 0 , value dc_q_tmp : 5 ,I:reg0x1218=0x29231b2d. Q:reg0x1254=0x1715211f.
rx1 vga case:9 pass.
RX1 vga case:9 ,absolute value dc_i_tmp : 0 , value dc_q_tmp : 5 ,I:reg0x121c=0x2129172f. Q:reg0x1258=0x1317211f.
rx1 vga case:10 pass.
RX1 vga case:10 ,absolute value dc_i_tmp : 0 , value dc_q_tmp : 5 ,I:reg0x1220=0x23271531. Q:reg0x125c=0x1913231f.
rx1 vga case:11 pass.
RX1 vga case:11 ,absolute value dc_i_tmp : 0 , value dc_q_tmp : 4 ,I:reg0x1224=0x29211335. Q:reg0x1260=0x1717231f.
rx1 vga case:12 pass.
RX1 vga case:12 ,absolute value dc_i_tmp : 0 , value dc_q_tmp : 5 ,I:reg0x1228=0x25250f39. Q:reg0x1264=0x1913251f.
rx1 vga case:13 pass.
RX1 vga case:13 ,absolute value dc_i_tmp : 0 , value dc_q_tmp : 4 ,I:reg0x122c=0x2721093d. Q:reg0x1268=0x1d11251d.
rx1 vga case:14 pass.
RX1 vga case:14 ,absolute value dc_i_tmp : 15 , value dc_q_tmp : 4 ,I:reg0x1230=0x21251d2b. Q:reg0x126c=0x1d11271b.
reg0x1120=0x3c0100.
vga calibration end!
RX0: 0x103c : e0030000 ,0x1040 : c0001102 
RX1: 0x1054 : e0030000 ,0x1058 : c0001100 
THIS CASE J: 0 M:12 
adc calibration begin
calibration begin
RX0 cali pre ,absolute value dc_i_tmp : 4 , value dc_q_tmp : 2 ,

reg0x1180=0x1f211f25.
reg0x11bc=0x25272729.
RX1 cali pre ,absolute value dc_i_tmp : 1 , value dc_q_tmp : 0 ,reg0x11f8=0x25272125.
reg0x1234=0x17152121.
rx0 tia cali begin:
####:reg0x1270=0x5e216a15.
tia_cnt_i : 20 ,
tia_cnt_q : 0 ,
I:reg0x1150=0x1f211f25.
Q:reg0x1154=0x25272729.
RX0 tia case :0,absolute value dc_i : -1 , value dc_q : -1 
####:reg0x1270=0x5e215629.
####:reg0x1274=0x5e216a15.
tia_cnt_i : 18 ,
tia_cnt_q : 0 ,
I:reg0x1150=0x1f211f25.
Q:reg0x1154=0x25272729.
RX0 tia case :1,absolute value dc_i : -1 , value dc_q : 0 
####:reg0x1274=0x5e215827.
####:reg0x1278=0x5e236619.
tia_cnt_i : 10 ,
tia_cnt_q : 0 ,
I:reg0x1150=0x1f211f25.
Q:reg0x1154=0x25272729.
RX0 tia case :2,absolute value dc_i : -1 , value dc_q : 0 
####:reg0x1278=0x5e235c23.
####:reg0x127c=0x5a25661b.
tia_cnt_i : 4 ,
tia_cnt_q : 0 ,
I:reg0x1150=0x1f211f25.
Q:reg0x1154=0x25272729.
RX0 tia case :3,absolute value dc_i : -1 , value dc_q : 0 
####:reg0x127c=0x5a25621f.
####:reg0x1280=0x4c315429.
tia_cnt_i : 2 ,
tia_cnt_q : 0 ,
I:reg0x1150=0x1f211f25.
Q:reg0x1154=0x25272729.
RX0 tia case :4,absolute value dc_i : -1 , value dc_q : 0 
####:reg0x1280=0x4c31522b.
####:reg0x1284=0x4e31562b.
tia_cnt_i : 1 ,
tia_cnt_q : 0 ,
I:reg0x1150=0x1f211f25.
Q:reg0x1154=0x25272729.
RX0 tia case :5,absolute value dc_i : -1 , value dc_q : 1 
####:reg0x1284=0x4e31552c.
####:reg0x1288=0x4e33522d.
tia_cnt_i : 0 ,
tia_cnt_q : 0 ,
I:reg0x1150=0x1f211f25.
Q:reg0x1154=0x25272729.
RX0 tia case :6,absolute value dc_i : -1 , value dc_q : 0 
####:reg0x1288=0x4e33522d.
####:reg0x128c=0x4c33522d.
tia_cnt_i : 0 ,
tia_cnt_q : 0 ,
I:reg0x1150=0x1f211f25.
Q:reg0x1154=0x25272729.
RX0 tia case :7,absolute value dc_i : -1 , value dc_q : 0 
####:reg0x128c=0x4c33522d.
####:reg0x1290=0x48374a35.
tia_cnt_i : 0 ,
tia_cnt_q : 0 ,
I:reg0x1150=0x1f211f25.
Q:reg0x1154=0x25272729.
RX0 tia case :8,absolute value dc_i : -1 , value dc_q : 0 
####:reg0x1290=0x48374a35.
####:reg0x1294=0x4a374c33.
tia_cnt_i : 0 ,
tia_cnt_q : 0 ,
I:reg0x1150=0x1f211f25.
Q:reg0x1154=0x25272729.
RX0 tia case :9,absolute value dc_i : -1 , value dc_q : 0 
####:reg0x1294=0x4a374c33.
####:reg0x1298=0x48374c33.
tia_cnt_i : 0 ,
tia_cnt_q : 0 ,
I:reg0x1150=0x1f211f25.
Q:reg0x1154=0x25272729.
RX0 tia case :10,absolute value dc_i : -1 , value dc_q : 0 
####:reg0x1298=0x48374c33.
####:reg0x129c=0x48374e33.
tia_cnt_i : 0 ,
tia_cnt_q : 0 ,
I:reg0x1150=0x1f211f25.
Q:reg0x1154=0x25272729.
RX0 tia case :11,absolute value dc_i : -1 , value dc_q : 0 
####:reg0x129c=0x48374e33.
####:reg0x12a0=0x4a374a35.
tia_cnt_i : 0 ,
tia_cnt_q : 0 ,
I:reg0x1150=0x1f211f25.
Q:reg0x1154=0x25272729.
RX0 tia case :12,absolute value dc_i : -1 , value dc_q : 1 
####:reg0x12a0=0x4a374a35.
rx1 tia cali begin:
Q:reg0x12b0=0x4a354c33.
 RX1 :reg0x1130=0x4c334a35.
tia_cnt_i : 0 ,
tia_cnt_q : 0 ,
RX1 tia case :0,absolute value dc_i : 0 , value dc_q : 0 
RX1:reg0x12b0=0x4a354c33.
Q:reg0x12b4=0x4a354c33.
 RX1 :reg0x1130=0x4c334a35.
tia_cnt_i : 0 ,
tia_cnt_q : 0 ,
RX1 tia case :1,absolute value dc_i : 0 , value dc_q : 0 
RX1:reg0x12b4=0x4a354c33.
Q:reg0x12b8=0x48374835.
 RX1 :reg0x1130=0x48354837.
tia_cnt_i : 0 ,
tia_cnt_q : 0 ,
RX1 tia case :2,absolute value dc_i : 0 , value dc_q : 0 
RX1:reg0x12b8=0x48374835.
Q:reg0x12bc=0x48374639.
 RX1 :reg0x1130=0x46394837.
tia_cnt_i : 0 ,
tia_cnt_q : 0 ,
RX1 tia case :3,absolute value dc_i : 0 , value dc_q : 0 
RX1:reg0x12bc=0x48374639.
Q:reg0x12c0=0x46394439.
 RX1 :reg0x1130=0x44394639.
tia_cnt_i : 0 ,
tia_cnt_q : 0 ,
RX1 tia case :4,absolute value dc_i : 0 , value dc_q : 0 
RX1:reg0x12c0=0x46394439.
Q:reg0x12c4=0x3e433e43.
 RX1 :reg0x1130=0x3e433e43.
tia_cnt_i : 0 ,
tia_cnt_q : 0 ,
RX1 tia case :5,absolute value dc_i : 0 , value dc_q : 0 
RX1:reg0x12c4=0x3e433e43.
Q:reg0x12c8=0x3e433c41.
 RX1 :reg0x1130=0x3c413e43.
tia_cnt_i : 0 ,
tia_cnt_q : 0 ,
RX1 tia case :6,absolute value dc_i : 0 , value dc_q : 0 
RX1:reg0x12c8=0x3e433c41.
Q:reg0x12cc=0x3c433c43.
 RX1 :reg0x1130=0x3c433c43.
tia_cnt_i : 0 ,
tia_cnt_q : 0 ,
RX1 tia case :7,absolute value dc_i : 0 , value dc_q : 0 
RX1:reg0x12cc=0x3c433c43.
Q:reg0x12d0=0x3a453a45.
 RX1 :reg0x1130=0x3a453a45.
tia_cnt_i : 0 ,
tia_cnt_q : 0 ,
RX1 tia case :8,absolute value dc_i : 0 , value dc_q : 0 
RX1:reg0x12d0=0x3a453a45.
Q:reg0x12d4=0x3a453a45.
 RX1 :reg0x1130=0x3a453a45.
tia_cnt_i : 0 ,
tia_cnt_q : 0 ,
RX1 tia case :9,absolute value dc_i : 0 , value dc_q : 0 
RX1:reg0x12d4=0x3a453a45.
Q:reg0x12d8=0x3a453a45.
 RX1 :reg0x1130=0x3a453a45.
tia_cnt_i : 0 ,
tia_cnt_q : 0 ,
RX1 tia case :10,absolute value dc_i : 0 , value dc_q : 0 
RX1:reg0x12d8=0x3a453a45.
Q:reg0x12dc=0x3a453c43.
 RX1 :reg0x1130=0x3c433a45.
tia_cnt_i : 0 ,
tia_cnt_q : 0 ,
RX1 tia case :11,absolute value dc_i : 0 , value dc_q : 0 
RX1:reg0x12dc=0x3a453c43.
Q:reg0x12e0=0x3c433845.
 RX1 :reg0x1130=0x38453c43.
tia_cnt_i : 0 ,
tia_cnt_q : 0 ,
RX1 tia case :12,absolute value dc_i : 0 , value dc_q : 0 
RX1:reg0x12e0=0x3c433845.
tia calibration end!
rx0 vga calibration begin
reg0x1120=0x3fc100.
vga case:1 pass.
RX0 vga case:1 ,absolute value dc_i_tmp : 4 , value dc_q_tmp : 2 ,I:reg0x1184=0x1f232123.   Q:reg0x11c0=0x27272929.
vga case:2 pass.
RX0 vga case:2 ,absolute value dc_i_tmp : 4 , value dc_q_tmp : 2 ,I:reg0x1188=0x21212323.   Q:reg0x11c4=0x27272929.
vga case:3 pass.
RX0 vga case:3 ,absolute value dc_i_tmp : 4 , value dc_q_tmp : 2 ,I:reg0x118c=0x23232323.   Q:reg0x11c8=0x27272929.
vga case:4 pass.
RX0 vga case:4 ,absolute value dc_i_tmp : 3 , value dc_q_tmp : 2 ,I:reg0x1190=0x23212323.   Q:reg0x11cc=0x27272929.
vga case:5 pass.
RX0 vga case:5 ,absolute value dc_i_tmp : 3 , value dc_q_tmp : 2 ,I:reg0x1194=0x21252123.   Q:reg0x11d0=0x27272929.
vga case:6 pass.
RX0 vga case:6 ,absolute value dc_i_tmp : 4 , value dc_q_tmp : 3 ,I:reg0x1198=0x1b232123.   Q:reg0x11d4=0x27272929.
vga case:7 pass.
RX0 vga case:7 ,absolute value dc_i_tmp : 4 , value dc_q_tmp : 2 ,I:reg0x119c=0x231f2323.   Q:reg0x11d8=0x27252929.
vga case:8 pass.
RX0 vga case:8 ,absolute value dc_i_tmp : 3 , value dc_q_tmp : 2 ,I:reg0x11a0=0x1f252123.   Q:reg0x11dc=0x25292729.
vga case:9 pass.
RX0 vga case:9 ,absolute value dc_i_tmp : 3 , value dc_q_tmp : 3 ,I:reg0x11a4=0x21252123.   Q:reg0x11e0=0x2727292b.
vga case:10 pass.
RX0 vga case:10 ,absolute value dc_i_tmp : 3 , value dc_q_tmp : 2 ,I:reg0x11a8=0x21232123.   Q:reg0x11e4=0x2727272b.
vga case:11 pass.
RX0 vga case:11 ,absolute value dc_i_tmp : 3 , value dc_q_tmp : 1 ,I:reg0x11ac=0x21232123.   Q:reg0x11e8=0x2727272d.
vga case:12 pass.
RX0 vga case:12 ,absolute value dc_i_tmp : 3 , value dc_q_tmp : 1 ,I:reg0x11b0=0x231f2123.   Q:reg0x11ec=0x2727252d.
vga case:13 pass.
RX0 vga case:13 ,absolute value dc_i_tmp : 3 , value dc_q_tmp : 1 ,I:reg0x11b4=0x1d2b1f23.   Q:reg0x11f0=0x232b232f.
vga case:14 pass.
RX0 vga case:14 ,absolute value dc_i_tmp : 1 , value dc_q_tmp : 0 ,I:reg0x11b8=0x21291f23.   Q:reg0x11f4=0x1f2f1f31.
rx1 vga calibration begin
rx1 vga case:1 pass.
RX1 vga case:1 ,absolute value dc_i_tmp : 0 , value dc_q_tmp : 1 ,I:reg0x11fc=0x27272327. Q:reg0x1238=0x17152121.
rx1 vga case:2 pass.
RX1 vga case:2 ,absolute value dc_i_tmp : 1 , value dc_q_tmp : 1 ,I:reg0x1200=0x27272327. Q:reg0x123c=0x17152121.
rx1 vga case:3 pass.
RX1 vga case:3 ,absolute value dc_i_tmp : 1 , value dc_q_tmp : 0 ,I:reg0x1204=0x27272327. Q:reg0x1240=0x17132121.
rx1 vga case:4 pass.
RX1 vga case:4 ,absolute value dc_i_tmp : 1 , value dc_q_tmp : 1 ,I:reg0x1208=0x25252327. Q:reg0x1244=0x19152121.
rx1 vga case:5 pass.
RX1 vga case:5 ,absolute value dc_i_tmp : 0 , value dc_q_tmp : 1 ,I:reg0x120c=0x27252327. Q:reg0x1248=0x17132121.
rx1 vga case:6 pass.
RX1 vga case:6 ,absolute value dc_i_tmp : 1 , value dc_q_tmp : 1 ,I:reg0x1210=0x27252327. Q:reg0x124c=0x19132121.
rx1 vga case:7 pass.
RX1 vga case:7 ,absolute value dc_i_tmp : 1 , value dc_q_tmp : 1 ,I:reg0x1214=0x27252327. Q:reg0x1250=0x19112121.
rx1 vga case:8 pass.
RX1 vga case:8 ,absolute value dc_i_tmp : 0 , value dc_q_tmp : 1 ,I:reg0x1218=0x2b232327. Q:reg0x1254=0x1b112121.
rx1 vga case:9 pass.
RX1 vga case:9 ,absolute value dc_i_tmp : 1 , value dc_q_tmp : 1 ,I:reg0x121c=0x25252127. Q:reg0x1258=0x17151f21.
rx1 vga case:10 pass.
RX1 vga case:10 ,absolute value dc_i_tmp : 0 , value dc_q_tmp : 1 ,I:reg0x1220=0x25291f27. Q:reg0x125c=0x19151f21.
rx1 vga case:11 pass.
RX1 vga case:11 ,absolute value dc_i_tmp : 1 , value dc_q_tmp : 1 ,I:reg0x1224=0x2b251f27. Q:reg0x1260=0x15152123.
rx1 vga case:12 pass.
RX1 vga case:12 ,absolute value dc_i_tmp : 0 , value dc_q_tmp : 1 ,I:reg0x1228=0x27291f29. Q:reg0x1264=0x1b131f21.
rx1 vga case:13 pass.
RX1 vga case:13 ,absolute value dc_i_tmp : 0 , value dc_q_tmp : 1 ,I:reg0x122c=0x27271d29. Q:reg0x1268=0x19152123.
rx1 vga case:14 pass.
RX1 vga case:14 ,absolute value dc_i_tmp : 0 , value dc_q_tmp : 1 ,I:reg0x1230=0x27251d2d. Q:reg0x126c=0x17131f23.
reg0x1120=0x3c0100.
vga calibration end!
RX0: 0x103c : e0034000 ,0x1040 : d0001102 
RX1: 0x1054 : e0034000 ,0x1058 : d0001100 
THIS CASE J: 0 M:13 
adc calibration begin
calibration begin
RX0 cali pre ,absolute value dc_i_tmp : 8 , value dc_q_tmp : 8 ,

reg0x1180=0x21211f25.
reg0x11bc=0x25272729.
RX1 cali pre ,absolute value dc_i_tmp : 4 , value dc_q_tmp : 5 ,reg0x11f8=0x27272125.
reg0x1234=0x17152121.
rx0 tia cali begin:
####:reg0x1270=0x601f6c13.
tia_cnt_i : 90 ,
tia_cnt_q : 96 ,
I:reg0x1150=0x21211f25.
Q:reg0x1154=0x25272729.
RX0 tia case :0,absolute value dc_i : -1 , value dc_q : -2 
####:reg0x1270=0x127f126d.
####:reg0x1274=0x5e216a15.
tia_cnt_i : 106 ,
tia_cnt_q : 1 ,
