
read pll state:0x77 
pll state:0x0000007F! 
RX0: 0x103c : e0000000 ,0x1040 :        0 
RX1: 0x1054 : e0000000 ,0x1058 : 0 
THIS CASE J: 0 M: 0 
adc calibration begin
calibration begin
RX0 cali pre ,absolute value dc_i_tmp : 5 , value dc_q_tmp : 1 ,
reg0x1180=0x21272119.
reg0x11bc=0x1d1f2523.
RX1 cali pre ,absolute value dc_i_tmp : 1 , value dc_q_tmp : 3 ,reg0x11f8=0x1b1f1f21.
reg0x1234=0x19111717.
rx0 tia cali begin:
####:reg0x1270=0x4639463b.
tia_cnt_i : 1 ,
tia_cnt_q : 4 ,
I:reg0x1150=0x21272119.
Q:reg0x1154=0x1d1f2523.
RX0 tia case :0,absolute value dc_i : -1 , value dc_q : -1 
####:reg0x1270=0x453d453c.
####:reg0x1274=0x463b4439.
tia_cnt_i : 3 ,
tia_cnt_q : 0 ,
I:reg0x1150=0x21272119.
Q:reg0x1154=0x1d1f2523.
RX0 tia case :1,absolute value dc_i : -1 , value dc_q : 0 
####:reg0x1274=0x463b413c.
####:reg0x1278=0x463b4439.
tia_cnt_i : 14 ,
tia_cnt_q : 0 ,
I:reg0x1150=0x21272119.
Q:reg0x1154=0x1d1f2523.
RX0 tia case :2,absolute value dc_i : -1 , value dc_q : 0 
####:reg0x1278=0x463b3647.
####:reg0x127c=0x3e41423d.
tia_cnt_i : 16 ,
tia_cnt_q : 0 ,
I:reg0x1150=0x21272119.
Q:reg0x1154=0x1d1f2523.
RX0 tia case :3,absolute value dc_i : -1 , value dc_q : 1 
####:reg0x127c=0x3e41324d.
####:reg0x1280=0x38453a47.
tia_cnt_i : 29 ,
tia_cnt_q : 0 ,
I:reg0x1150=0x21272119.
Q:reg0x1154=0x1d1f2523.
RX0 tia case :4,absolute value dc_i : -1 , value dc_q : 1 
####:reg0x1280=0x38451d64.
####:reg0x1284=0x3a453a45.
tia_cnt_i : 39 ,
tia_cnt_q : 0 ,
I:reg0x1150=0x21272119.
Q:reg0x1154=0x1d1f2523.
RX0 tia case :5,absolute value dc_i : -1 , value dc_q : 1 
####:reg0x1284=0x3a45136c.
####:reg0x1288=0x38453649.
tia_cnt_i : 37 ,
tia_cnt_q : 0 ,
I:reg0x1150=0x21272119.
Q:reg0x1154=0x1d1f2523.
RX0 tia case :6,absolute value dc_i : -1 , value dc_q : 0 
####:reg0x1288=0x3845116e.
####:reg0x128c=0x3a473649.
tia_cnt_i : 28 ,
tia_cnt_q : 0 ,
I:reg0x1150=0x21272119.
Q:reg0x1154=0x1d1f2523.
RX0 tia case :7,absolute value dc_i : -1 , value dc_q : 1 
####:reg0x128c=0x3a471a65.
####:reg0x1290=0x36493649.
tia_cnt_i : 41 ,
tia_cnt_q : 0 ,
I:reg0x1150=0x21272119.
Q:reg0x1154=0x1d1f2523.
RX0 tia case :8,absolute value dc_i : -1 , value dc_q : 1 
####:reg0x1290=0x36490d72.
####:reg0x1294=0x3649364b.
tia_cnt_i : 30 ,
tia_cnt_q : 0 ,
I:reg0x1150=0x21272119.
Q:reg0x1154=0x1d1f2523.
RX0 tia case :9,absolute value dc_i : -1 , value dc_q : 1 
####:reg0x1294=0x36491869.
####:reg0x1298=0x3649364b.
tia_cnt_i : 31 ,
tia_cnt_q : 0 ,
I:reg0x1150=0x21272119.
Q:reg0x1154=0x1d1f2523.
RX0 tia case :10,absolute value dc_i : -1 , value dc_q : 0 
####:reg0x1298=0x3649176a.
####:reg0x129c=0x36493449.
tia_cnt_i : 33 ,
tia_cnt_q : 0 ,
I:reg0x1150=0x21272119.
Q:reg0x1154=0x1d1f2523.
RX0 tia case :11,absolute value dc_i : -1 , value dc_q : 1 
####:reg0x129c=0x3649136a.
####:reg0x12a0=0x36493649.
tia_cnt_i : 35 ,
tia_cnt_q : 0 ,
I:reg0x1150=0x21272119.
Q:reg0x1154=0x1d1f2523.
RX0 tia case :12,absolute value dc_i : -1 , value dc_q : 1 
####:reg0x12a0=0x3649136c.
rx1 tia cali begin:
Q:reg0x12b0=0x5e23621f.
 RX1 :reg0x1130=0x621f5e23.
tia_cnt_i : 1 ,
tia_cnt_q : 42 ,
RX1 tia case :0,absolute value dc_i : 1 , value dc_q : 0 
RX1:reg0x12b0=0x634d631e.
Q:reg0x12b4=0x5a25601f.
 RX1 :reg0x1130=0x601f5a25.
tia_cnt_i : 0 ,
tia_cnt_q : 45 ,
RX1 tia case :1,absolute value dc_i : 1 , value dc_q : -1 
RX1:reg0x12b4=0x6052601f.
Q:reg0x12b8=0x5a275e23.
 RX1 :reg0x1130=0x5e235a27.
tia_cnt_i : 0 ,
tia_cnt_q : 30 ,
RX1 tia case :2,absolute value dc_i : 0 , value dc_q : -1 
RX1:reg0x12b8=0x5e455e23.
Q:reg0x12bc=0x5a275c23.
 RX1 :reg0x1130=0x5c235a27.
tia_cnt_i : 0 ,
tia_cnt_q : 4 ,
RX1 tia case :3,absolute value dc_i : 0 , value dc_q : -1 
RX1:reg0x12bc=0x5c2b5c23.
Q:reg0x12c0=0x54295a27.
 RX1 :reg0x1130=0x5a275429.
tia_cnt_i : 0 ,
tia_cnt_q : 40 ,
RX1 tia case :4,absolute value dc_i : -1 , value dc_q : -1 
RX1:reg0x12c0=0x5a515a27.
Q:reg0x12c4=0x542b5429.
 RX1 :reg0x1130=0x5429542b.
tia_cnt_i : 0 ,
tia_cnt_q : 15 ,
RX1 tia case :5,absolute value dc_i : -1 , value dc_q : -1 
RX1:reg0x12c4=0x543a5429.
Q:reg0x12c8=0x522f5629.
 RX1 :reg0x1130=0x5629522f.
tia_cnt_i : 0 ,
tia_cnt_q : 16 ,
RX1 tia case :6,absolute value dc_i : -1 , value dc_q : -1 
RX1:reg0x12c8=0x563f5629.
Q:reg0x12cc=0x4e315429.
 RX1 :reg0x1130=0x54294e31.
tia_cnt_i : 0 ,
tia_cnt_q : 12 ,
RX1 tia case :7,absolute value dc_i : 0 , value dc_q : -1 
RX1:reg0x12cc=0x543d5429.
Q:reg0x12d0=0x502f522d.
 RX1 :reg0x1130=0x522d502f.
tia_cnt_i : 0 ,
tia_cnt_q : 16 ,
RX1 tia case :8,absolute value dc_i : 0 , value dc_q : -1 
RX1:reg0x12d0=0x523f522d.
Q:reg0x12d4=0x4e31542b.
 RX1 :reg0x1130=0x542b4e31.
tia_cnt_i : 0 ,
tia_cnt_q : 9 ,
RX1 tia case :9,absolute value dc_i : -1 , value dc_q : -1 
RX1:reg0x12d4=0x543a542b.
Q:reg0x12d8=0x4c31522d.
 RX1 :reg0x1130=0x522d4c31.
tia_cnt_i : 0 ,
tia_cnt_q : 3 ,
RX1 tia case :10,absolute value dc_i : -1 , value dc_q : -1 
RX1:reg0x12d8=0x5234522d.
Q:reg0x12dc=0x4e31522d.
 RX1 :reg0x1130=0x522d4e31.
tia_cnt_i : 0 ,
tia_cnt_q : 8 ,
RX1 tia case :11,absolute value dc_i : -1 , value dc_q : -1 
RX1:reg0x12dc=0x5239522d.
Q:reg0x12e0=0x4e31542b.
 RX1 :reg0x1130=0x542b4e31.
tia_cnt_i : 0 ,
tia_cnt_q : 1 ,
RX1 tia case :12,absolute value dc_i : -1 , value dc_q : -1 
RX1:reg0x12e0=0x5432542b.
tia calibration end!
rx0 vga calibration begin
reg0x1120=0x3fc100.
vga case:1 pass.
RX0 vga case:1 ,absolute value dc_i_tmp : 5 , value dc_q_tmp : 2 ,I:reg0x1184=0x1f272117.   Q:reg0x11c0=0x1b212323.
vga case:2 pass.
RX0 vga case:2 ,absolute value dc_i_tmp : 4 , value dc_q_tmp : 2 ,I:reg0x1188=0x1f272117.   Q:reg0x11c4=0x1b212323.
vga case:3 pass.
RX0 vga case:3 ,absolute value dc_i_tmp : 4 , value dc_q_tmp : 0 ,I:reg0x118c=0x1f272117.   Q:reg0x11c8=0x1d212323.
vga case:4 pass.
RX0 vga case:4 ,absolute value dc_i_tmp : 3 , value dc_q_tmp : 0 ,I:reg0x1190=0x1f272117.   Q:reg0x11cc=0x1d212323.
vga case:5 pass.
RX0 vga case:5 ,absolute value dc_i_tmp : 3 , value dc_q_tmp : 1 ,I:reg0x1194=0x1f272117.   Q:reg0x11d0=0x1b212323.
vga case:6 pass.
RX0 vga case:6 ,absolute value dc_i_tmp : 3 , value dc_q_tmp : 1 ,I:reg0x1198=0x1f272117.   Q:reg0x11d4=0x1b212323.
vga case:7 pass.
RX0 vga case:7 ,absolute value dc_i_tmp : 3 , value dc_q_tmp : 0 ,I:reg0x119c=0x1d272117.   Q:reg0x11d8=0x1d232323.
vga case:8 pass.
RX0 vga case:8 ,absolute value dc_i_tmp : 3 , value dc_q_tmp : 0 ,I:reg0x11a0=0x23252317.   Q:reg0x11dc=0x1f1f2323.
vga case:9 pass.
RX0 vga case:9 ,absolute value dc_i_tmp : 2 , value dc_q_tmp : 0 ,I:reg0x11a4=0x1f292317.   Q:reg0x11e0=0x231d2525.
vga case:10 pass.
RX0 vga case:10 ,absolute value dc_i_tmp : 2 , value dc_q_tmp : 0 ,I:reg0x11a8=0x23272315.   Q:reg0x11e4=0x231f2325.
vga case:11 pass.
RX0 vga case:11 ,absolute value dc_i_tmp : 3 , value dc_q_tmp : 0 ,I:reg0x11ac=0x23272313.   Q:reg0x11e8=0x1d1f2327.
vga case:12 pass.
RX0 vga case:12 ,absolute value dc_i_tmp : 2 , value dc_q_tmp : 0 ,I:reg0x11b0=0x21252513.   Q:reg0x11ec=0x191f1f27.
vga case:13 pass.
RX0 vga case:13 ,absolute value dc_i_tmp : 2 , value dc_q_tmp : 0 ,I:reg0x11b4=0x27232913.   Q:reg0x11f0=0x291d1f27.
vga case:14 pass.
RX0 vga case:14 ,absolute value dc_i_tmp : 2 , value dc_q_tmp : 1 ,I:reg0x11b8=0x1f27290f.   Q:reg0x11f4=0x211f1d2b.
rx1 vga calibration begin
rx1 vga case:1 pass.
RX1 vga case:1 ,absolute value dc_i_tmp : 1 , value dc_q_tmp : 3 ,I:reg0x11fc=0x1b1f1d23. Q:reg0x1238=0x19111917.
rx1 vga case:2 pass.
RX1 vga case:2 ,absolute value dc_i_tmp : 0 , value dc_q_tmp : 2 ,I:reg0x1200=0x1f211d23. Q:reg0x123c=0x19111917.
rx1 vga case:3 pass.
RX1 vga case:3 ,absolute value dc_i_tmp : 0 , value dc_q_tmp : 2 ,I:reg0x1204=0x1d1f1d23. Q:reg0x1240=0x1b131917.
rx1 vga case:4 pass.
RX1 vga case:4 ,absolute value dc_i_tmp : 0 , value dc_q_tmp : 3 ,I:reg0x1208=0x1d1f1d23. Q:reg0x1244=0x19111917.
rx1 vga case:5 pass.
RX1 vga case:5 ,absolute value dc_i_tmp : 0 , value dc_q_tmp : 2 ,I:reg0x120c=0x1d1f1d23. Q:reg0x1248=0x19111917.
rx1 vga case:6 pass.
RX1 vga case:6 ,absolute value dc_i_tmp : 0 , value dc_q_tmp : 3 ,I:reg0x1210=0x1d1f1d23. Q:reg0x124c=0x19111917.
rx1 vga case:7 pass.
RX1 vga case:7 ,absolute value dc_i_tmp : 0 , value dc_q_tmp : 3 ,I:reg0x1214=0x1f1f1d23. Q:reg0x1250=0x19111917.
rx1 vga case:8 pass.
RX1 vga case:8 ,absolute value dc_i_tmp : 0 , value dc_q_tmp : 2 ,I:reg0x1218=0x1d231b23. Q:reg0x1254=0x1b131917.
rx1 vga case:9 pass.
RX1 vga case:9 ,absolute value dc_i_tmp : 0 , value dc_q_tmp : 2 ,I:reg0x121c=0x1b231b25. Q:reg0x1258=0x19131917.
rx1 vga case:10 pass.
RX1 vga case:10 ,absolute value dc_i_tmp : 0 , value dc_q_tmp : 3 ,I:reg0x1220=0x231d1b25. Q:reg0x125c=0x17151715.
rx1 vga case:11 pass.
RX1 vga case:11 ,absolute value dc_i_tmp : 0 , value dc_q_tmp : 2 ,I:reg0x1224=0x1d231927. Q:reg0x1260=0x1d0f1915.
rx1 vga case:12 pass.
RX1 vga case:12 ,absolute value dc_i_tmp : 0 , value dc_q_tmp : 2 ,I:reg0x1228=0x1d1f1727. Q:reg0x1264=0x1d131915.
rx1 vga case:13 pass.
RX1 vga case:13 ,absolute value dc_i_tmp : 0 , value dc_q_tmp : 2 ,I:reg0x122c=0x1b231529. Q:reg0x1268=0x210f1b15.
rx1 vga case:14 pass.
RX1 vga case:14 ,absolute value dc_i_tmp : 0 , value dc_q_tmp : 1 ,I:reg0x1230=0x231d132d. Q:reg0x126c=0x19151913.
reg0x1120=0x3c0100.
vga calibration end!
RX0: 0x103c : e0004000 ,0x1040 : 10001102 
RX1: 0x1054 : e0004000 ,0x1058 : 10001100 
THIS CASE J: 0 M: 1 
adc calibration begin
calibration begin
RX0 cali pre ,absolute value dc_i_tmp : 15 , value dc_q_tmp : 15 ,
reg0x1180=0x21272119.
reg0x11bc=0x1d1f2523.
RX1 cali pre ,absolute value dc_i_tmp : 7 , value dc_q_tmp : 1 ,reg0x11f8=0x1d211b21.
reg0x1234=0x19131517.
rx0 tia cali begin:
####:reg0x1270=0x48374639.
tia_cnt_i : 70 ,
tia_cnt_q : 1 ,
I:reg0x1150=0x21272119.
Q:reg0x1154=0x1d1f2523.
RX0 tia case :0,absolute value dc_i : -16 , value dc_q : -16 
####:reg0x1270=0x38007f.
####:reg0x1274=0x463b4639.
tia_cnt_i : 70 ,
tia_cnt_q : 1 ,
I:reg0x1150=0x21272119.
Q:reg0x1154=0x1d1f2523.
RX0 tia case :1,absolute value dc_i : -16 , value dc_q : -16 
####:reg0x1274=0x3c007f.
####:reg0x1278=0x463b4639.
tia_cnt_i : 70 ,
tia_cnt_q : 1 ,
I:reg0x1150=0x21272119.
Q:reg0x1154=0x1d1f2523.
RX0 tia case :2,absolute value dc_i : -16 , value dc_q : -16 
####:reg0x1278=0x3c007f.
####:reg0x127c=0x443b3e41.
tia_cnt_i : 62 ,
tia_cnt_q : 1 ,
I:reg0x1150=0x21272119.
Q:reg0x1154=0x1d1f2523.
RX0 tia case :3,absolute value dc_i : -16 , value dc_q : -16 
####:reg0x127c=0x3c007f.
####:reg0x1280=0x3a453845.
tia_cnt_i : 56 ,
tia_cnt_q : 1 ,
I:reg0x1150=0x21272119.
Q:reg0x1154=0x1d1f2523.
RX0 tia case :4,absolute value dc_i : -16 , value dc_q : -16 
####:reg0x1280=0x46007d.
####:reg0x1284=0x3a453a45.
tia_cnt_i : 58 ,
tia_cnt_q : 1 ,
I:reg0x1150=0x21272119.
Q:reg0x1154=0x1d1f2523.
RX0 tia case :5,absolute value dc_i : -16 , value dc_q : -16 
####:reg0x1284=0x46007f.
####:reg0x1288=0x3a473847.
tia_cnt_i : 56 ,
tia_cnt_q : 1 ,
I:reg0x1150=0x21272119.
Q:reg0x1154=0x1d1f2523.
RX0 tia case :6,absolute value dc_i : -16 , value dc_q : -16 
####:reg0x1288=0x48007f.
####:reg0x128c=0x3a473649.
tia_cnt_i : 54 ,
tia_cnt_q : 1 ,
I:reg0x1150=0x21272119.
Q:reg0x1154=0x1d1f2523.
RX0 tia case :7,absolute value dc_i : -16 , value dc_q : -16 
####:reg0x128c=0x48007f.
####:reg0x1290=0x36493649.
tia_cnt_i : 54 ,
tia_cnt_q : 1 ,
I:reg0x1150=0x21272119.
Q:reg0x1154=0x1d1f2523.
RX0 tia case :8,absolute value dc_i : -16 , value dc_q : -16 
####:reg0x1290=0x4a007f.
####:reg0x1294=0x36493449.
tia_cnt_i : 52 ,
tia_cnt_q : 1 ,
I:reg0x1150=0x21272119.
Q:reg0x1154=0x1d1f2523.
RX0 tia case :9,absolute value dc_i : -16 , value dc_q : -16 
####:reg0x1294=0x4a007d.
####:reg0x1298=0x3649344b.
tia_cnt_i : 52 ,
tia_cnt_q : 1 ,
I:reg0x1150=0x21272119.
Q:reg0x1154=0x1d1f2523.
RX0 tia case :10,absolute value dc_i : -16 , value dc_q : -16 
####:reg0x1298=0x4a007f.
####:reg0x129c=0x3649364b.
tia_cnt_i : 52 ,
tia_cnt_q : 54 ,
I:reg0x1150=0x21272119.
Q:reg0x1154=0x1d1f2523.
RX0 tia case :11,absolute value dc_i : -16 , value dc_q : -16 
####:reg0x129c=0x27f027f.
####:reg0x12a0=0x36493449.
tia_cnt_i : 52 ,
tia_cnt_q : 1 ,
I:reg0x1150=0x21272119.
Q:reg0x1154=0x1d1f2523.
RX0 tia case :12,absolute value dc_i : -16 , value dc_q : -16 
####:reg0x12a0=0x4a007d.
rx1 tia cali begin:
Q:reg0x12b0=0x5c23601f.
 RX1 :reg0x1130=0x601f5c23.
tia_cnt_i : 12 ,
tia_cnt_q : 1 ,
RX1 tia case :0,absolute value dc_i : -1 , value dc_q : -1 
RX1:reg0x12b0=0x5424542b.
Q:reg0x12b4=0x5a255e21.
 RX1 :reg0x1130=0x5e215a25.
tia_cnt_i : 39 ,
tia_cnt_q : 0 ,
RX1 tia case :1,absolute value dc_i : -1 , value dc_q : 0 
RX1:reg0x12b4=0x5a253748.
Q:reg0x12b8=0x5a275e23.
 RX1 :reg0x1130=0x5e235a27.
tia_cnt_i : 92 ,
tia_cnt_q : 0 ,
RX1 tia case :2,absolute value dc_i : -2 , value dc_q : 0 
RX1:reg0x12b8=0x5a27027f.
Q:reg0x12bc=0x58275c23.
 RX1 :reg0x1130=0x5c235827.
tia_cnt_i : 92 ,
tia_cnt_q : 0 ,
RX1 tia case :3,absolute value dc_i : -2 , value dc_q : 0 
RX1:reg0x12bc=0x5827007f.
Q:reg0x12c0=0x54295629.
 RX1 :reg0x1130=0x56295429.
tia_cnt_i : 86 ,
tia_cnt_q : 0 ,
RX1 tia case :4,absolute value dc_i : -2 , value dc_q : 0 
RX1:reg0x12c0=0x5429007f.
Q:reg0x12c4=0x522d5629.
 RX1 :reg0x1130=0x5629522d.
tia_cnt_i : 86 ,
tia_cnt_q : 0 ,
RX1 tia case :5,absolute value dc_i : -3 , value dc_q : 0 
RX1:reg0x12c4=0x522d007f.
Q:reg0x12c8=0x502d5429.
 RX1 :reg0x1130=0x5429502d.
tia_cnt_i : 84 ,
tia_cnt_q : 0 ,
RX1 tia case :6,absolute value dc_i : -2 , value dc_q : 0 
RX1:reg0x12c8=0x502d007d.
Q:reg0x12cc=0x522f562b.
 RX1 :reg0x1130=0x562b522f.
tia_cnt_i : 84 ,
tia_cnt_q : 0 ,
RX1 tia case :7,absolute value dc_i : -3 , value dc_q : 0 
RX1:reg0x12cc=0x522f027f.
Q:reg0x12d0=0x4e31522d.
 RX1 :reg0x1130=0x522d4e31.
tia_cnt_i : 82 ,
tia_cnt_q : 0 ,
RX1 tia case :8,absolute value dc_i : -2 , value dc_q : 0 
RX1:reg0x12d0=0x4e31007f.
Q:reg0x12d4=0x4c31522d.
 RX1 :reg0x1130=0x522d4c31.
tia_cnt_i : 82 ,
tia_cnt_q : 0 ,
RX1 tia case :9,absolute value dc_i : -3 , value dc_q : 0 
RX1:reg0x12d4=0x4c31007f.
Q:reg0x12d8=0x4c31542b.
 RX1 :reg0x1130=0x542b4c31.
tia_cnt_i : 84 ,
tia_cnt_q : 0 ,
RX1 tia case :10,absolute value dc_i : -3 , value dc_q : 0 
RX1:reg0x12d8=0x4c31007f.
Q:reg0x12dc=0x4c31542b.
 RX1 :reg0x1130=0x542b4c31.
tia_cnt_i : 84 ,
tia_cnt_q : 0 ,
RX1 tia case :11,absolute value dc_i : -2 , value dc_q : 0 
RX1:reg0x12dc=0x4c31007f.
Q:reg0x12e0=0x4e31542b.
 RX1 :reg0x1130=0x542b4e31.
tia_cnt_i : 84 ,
tia_cnt_q : 0 ,
RX1 tia case :12,absolute value dc_i : -2 , value dc_q : 0 
RX1:reg0x12e0=0x4e31007f.
tia calibration end!
rx0 vga calibration begin
reg0x1120=0x3fc100.
vga case:1 pass.
RX0 vga case:1 ,absolute value dc_i_tmp : 15 , value dc_q_tmp : 15 ,I:reg0x1184=0x1f272117.   Q:reg0x11c0=0x1b212323.
vga case:2 pass.
RX0 vga case:2 ,absolute value dc_i_tmp : 15 , value dc_q_tmp : 15 ,I:reg0x1188=0x1f272117.   Q:reg0x11c4=0x1b212323.
vga case:3 pass.
RX0 vga case:3 ,absolute value dc_i_tmp : 15 , value dc_q_tmp : 15 ,I:reg0x118c=0x1f272117.   Q:reg0x11c8=0x1d212323.
vga case:4 pass.
RX0 vga case:4 ,absolute value dc_i_tmp : 15 , value dc_q_tmp : 15 ,I:reg0x1190=0x1f272117.   Q:reg0x11cc=0x1d212323.
vga case:5 pass.
RX0 vga case:5 ,absolute value dc_i_tmp : 15 , value dc_q_tmp : 15 ,I:reg0x1194=0x1f272117.   Q:reg0x11d0=0x1b212323.
vga case:6 pass.
RX0 vga case:6 ,absolute value dc_i_tmp : 15 , value dc_q_tmp : 15 ,I:reg0x1198=0x1f272117.   Q:reg0x11d4=0x1b212323.
vga case:7 pass.
RX0 vga case:7 ,absolute value dc_i_tmp : 15 , value dc_q_tmp : 15 ,I:reg0x119c=0x1d272117.   Q:reg0x11d8=0x1d232323.
vga case:8 pass.
RX0 vga case:8 ,absolute value dc_i_tmp : 15 , value dc_q_tmp : 15 ,I:reg0x11a0=0x23252317.   Q:reg0x11dc=0x1f1f2323.
vga case:9 pass.
RX0 vga case:9 ,absolute value dc_i_tmp : 15 , value dc_q_tmp : 15 ,I:reg0x11a4=0x1f292317.   Q:reg0x11e0=0x231d2525.
vga case:10 pass.
RX0 vga case:10 ,absolute value dc_i_tmp : 15 , value dc_q_tmp : 15 ,I:reg0x11a8=0x23272315.   Q:reg0x11e4=0x231f2325.
vga case:11 pass.
RX0 vga case:11 ,absolute value dc_i_tmp : 15 , value dc_q_tmp : 15 ,I:reg0x11ac=0x23272313.   Q:reg0x11e8=0x1d1f2327.
vga case:12 pass.
RX0 vga case:12 ,absolute value dc_i_tmp : 15 , value dc_q_tmp : 15 ,I:reg0x11b0=0x21252513.   Q:reg0x11ec=0x191f1f27.
vga case:13 pass.
RX0 vga case:13 ,absolute value dc_i_tmp : 15 , value dc_q_tmp : 15 ,I:reg0x11b4=0x27232913.   Q:reg0x11f0=0x291d1f27.
vga case:14 pass.
RX0 vga case:14 ,absolute value dc_i_tmp : 15 , value dc_q_tmp : 15 ,I:reg0x11b8=0x1f27290f.   Q:reg0x11f4=0x211f1d2b.
rx1 vga calibration begin
rx1 vga case:1 pass.
RX1 vga case:1 ,absolute value dc_i_tmp : 6 , value dc_q_tmp : 1 ,I:reg0x11fc=0x1b1f1d21. Q:reg0x1238=0x19131517.
rx1 vga case:2 pass.
RX1 vga case:2 ,absolute value dc_i_tmp : 6 , value dc_q_tmp : 1 ,I:reg0x1200=0x1d211d21. Q:reg0x123c=0x19131517.
rx1 vga case:3 pass.
RX1 vga case:3 ,absolute value dc_i_tmp : 6 , value dc_q_tmp : 1 ,I:reg0x1204=0x1d211d21. Q:reg0x1240=0x1b111717.
rx1 vga case:4 pass.
RX1 vga case:4 ,absolute value dc_i_tmp : 6 , value dc_q_tmp : 1 ,I:reg0x1208=0x1d211d21. Q:reg0x1244=0x19151517.
rx1 vga case:5 pass.
RX1 vga case:5 ,absolute value dc_i_tmp : 6 , value dc_q_tmp : 1 ,I:reg0x120c=0x1d211d21. Q:reg0x1248=0x19151517.
rx1 vga case:6 pass.
RX1 vga case:6 ,absolute value dc_i_tmp : 6 , value dc_q_tmp : 1 ,I:reg0x1210=0x1d211d21. Q:reg0x124c=0x17151719.
rx1 vga case:7 pass.
RX1 vga case:7 ,absolute value dc_i_tmp : 5 , value dc_q_tmp : 1 ,I:reg0x1214=0x1f211d21. Q:reg0x1250=0x17171517.
rx1 vga case:8 pass.
RX1 vga case:8 ,absolute value dc_i_tmp : 6 , value dc_q_tmp : 1 ,I:reg0x1218=0x1f1f1d21. Q:reg0x1254=0x17131719.
rx1 vga case:9 pass.
RX1 vga case:9 ,absolute value dc_i_tmp : 5 , value dc_q_tmp : 0 ,I:reg0x121c=0x211d1d21. Q:reg0x1258=0x19111719.
rx1 vga case:10 pass.
RX1 vga case:10 ,absolute value dc_i_tmp : 5 , value dc_q_tmp : 1 ,I:reg0x1220=0x1d211d23. Q:reg0x125c=0x1b0f1719.
rx1 vga case:11 pass.
RX1 vga case:11 ,absolute value dc_i_tmp : 6 , value dc_q_tmp : 0 ,I:reg0x1224=0x1f1d1d23. Q:reg0x1260=0x1b131519.
rx1 vga case:12 pass.
RX1 vga case:12 ,absolute value dc_i_tmp : 5 , value dc_q_tmp : 0 ,I:reg0x1228=0x1f211b23. Q:reg0x1264=0x1717151b.
rx1 vga case:13 pass.
RX1 vga case:13 ,absolute value dc_i_tmp : 5 , value dc_q_tmp : 0 ,I:reg0x122c=0x1f231b25. Q:reg0x1268=0x1d11151b.
rx1 vga case:14 pass.
RX1 vga case:14 ,absolute value dc_i_tmp : 5 , value dc_q_tmp : 0 ,I:reg0x1230=0x211f1925. Q:reg0x126c=0x1913111b.
reg0x1120=0x3c0100.
vga calibration end!
RX0: 0x103c : e0008000 ,0x1040 : 20001102 
RX1: 0x1054 : e0008000 ,0x1058 : 20001100 
THIS CASE J: 0 M: 2 
adc calibration begin
calibration begin
RX0 cali pre ,absolute value dc_i_tmp : 15 , value dc_q_tmp : 15 ,
reg0x1180=0x21272119.
reg0x11bc=0x1d1f2523.
RX1 cali pre ,absolute value dc_i_tmp : 7 , value dc_q_tmp : 1 ,reg0x11f8=0x1d211d23.
reg0x1234=0x19131517.
rx0 tia cali begin:
####:reg0x1270=0x463b463b.
tia_cnt_i : 68 ,
tia_cnt_q : 68 ,
I:reg0x1150=0x21272119.
Q:reg0x1154=0x1d1f2523.
RX0 tia case :0,absolute value dc_i : -16 , value dc_q : -16 
####:reg0x1270=0x27f027f.
####:reg0x1274=0x463b4439.
tia_cnt_i : 68 ,
tia_cnt_q : 1 ,
I:reg0x1150=0x21272119.
Q:reg0x1154=0x1d1f2523.
RX0 tia case :1,absolute value dc_i : -16 , value dc_q : -16 
####:reg0x1274=0x3c007d.
####:reg0x1278=0x4439463b.
tia_cnt_i : 68 ,
tia_cnt_q : 70 ,
I:reg0x1150=0x21272119.
Q:reg0x1154=0x1d1f2523.
RX0 tia case :2,absolute value dc_i : -16 , value dc_q : -16 
####:reg0x1278=0x27f027f.
####:reg0x127c=0x3e41423d.
tia_cnt_i : 66 ,
tia_cnt_q : 1 ,
I:reg0x1150=0x21272119.
Q:reg0x1154=0x1d1f2523.
RX0 tia case :3,absolute value dc_i : -16 , value dc_q : -16 
####:reg0x127c=0x42007f.
####:reg0x1280=0x38453845.
tia_cnt_i : 56 ,
tia_cnt_q : 1 ,
I:reg0x1150=0x21272119.
Q:reg0x1154=0x1d1f2523.
RX0 tia case :4,absolute value dc_i : -16 , value dc_q : -16 
####:reg0x1280=0x46007d.
####:reg0x1284=0x3a453a47.
tia_cnt_i : 56 ,
tia_cnt_q : 58 ,
I:reg0x1150=0x21272119.
Q:reg0x1154=0x1d1f2523.
RX0 tia case :5,absolute value dc_i : -16 , value dc_q : -16 
####:reg0x1284=0x27f027f.
####:reg0x1288=0x38473847.
tia_cnt_i : 56 ,
tia_cnt_q : 1 ,
I:reg0x1150=0x21272119.
Q:reg0x1154=0x1d1f2523.
RX0 tia case :6,absolute value dc_i : -16 , value dc_q : -16 
####:reg0x1288=0x48007f.
####:reg0x128c=0x38473649.
tia_cnt_i : 54 ,
tia_cnt_q : 1 ,
I:reg0x1150=0x21272119.
Q:reg0x1154=0x1d1f2523.
RX0 tia case :7,absolute value dc_i : -16 , value dc_q : -16 
####:reg0x128c=0x48007f.
####:reg0x1290=0x36493649.
tia_cnt_i : 54 ,
tia_cnt_q : 1 ,
I:reg0x1150=0x21272119.
Q:reg0x1154=0x1d1f2523.
RX0 tia case :8,absolute value dc_i : -16 , value dc_q : -16 
####:reg0x1290=0x4a007f.
####:reg0x1294=0x34493449.
tia_cnt_i : 52 ,
tia_cnt_q : 1 ,
I:reg0x1150=0x21272119.
Q:reg0x1154=0x1d1f2523.
RX0 tia case :9,absolute value dc_i : -16 , value dc_q : -16 
####:reg0x1294=0x4a007d.
####:reg0x1298=0x38473649.
tia_cnt_i : 54 ,
tia_cnt_q : 1 ,
I:reg0x1150=0x21272119.
Q:reg0x1154=0x1d1f2523.
RX0 tia case :10,absolute value dc_i : -16 , value dc_q : -16 
####:reg0x1298=0x48007f.
####:reg0x129c=0x34493449.
tia_cnt_i : 52 ,
tia_cnt_q : 1 ,
I:reg0x1150=0x21272119.
Q:reg0x1154=0x1d1f2523.
RX0 tia case :11,absolute value dc_i : -16 , value dc_q : -16 
####:reg0x129c=0x4a007d.
####:reg0x12a0=0x36493649.
tia_cnt_i : 54 ,
tia_cnt_q : 1 ,
I:reg0x1150=0x21272119.
Q:reg0x1154=0x1d1f2523.
RX0 tia case :12,absolute value dc_i : -16 , value dc_q : -16 
####:reg0x12a0=0x4a007f.
rx1 tia cali begin:
Q:reg0x12b0=0x5a25601d.
 RX1 :reg0x1130=0x601d5a25.
tia_cnt_i : 96 ,
tia_cnt_q : 39 ,
RX1 tia case :0,absolute value dc_i : -2 , value dc_q : 3 
RX1:reg0x12b0=0x7d.
Q:reg0x12b4=0x5a255e21.
 RX1 :reg0x1130=0x5e215a25.
tia_cnt_i : 94 ,
tia_cnt_q : 0 ,
RX1 tia case :1,absolute value dc_i : -2 , value dc_q : 0 
RX1:reg0x12b4=0x5a25007f.
Q:reg0x12b8=0x58275e23.
 RX1 :reg0x1130=0x5e235827.
tia_cnt_i : 92 ,
tia_cnt_q : 0 ,
RX1 tia case :2,absolute value dc_i : -3 , value dc_q : 0 
RX1:reg0x12b8=0x5827027f.
Q:reg0x12bc=0x58275a25.
 RX1 :reg0x1130=0x5a255827.
tia_cnt_i : 90 ,
tia_cnt_q : 0 ,
RX1 tia case :3,absolute value dc_i : -3 , value dc_q : 0 
RX1:reg0x12bc=0x5827007f.
Q:reg0x12c0=0x54295629.
 RX1 :reg0x1130=0x56295429.
tia_cnt_i : 86 ,
tia_cnt_q : 0 ,
RX1 tia case :4,absolute value dc_i : -3 , value dc_q : 0 
RX1:reg0x12c0=0x5429007f.
Q:reg0x12c4=0x522d5629.
 RX1 :reg0x1130=0x5629522d.
tia_cnt_i : 86 ,
tia_cnt_q : 0 ,
RX1 tia case :5,absolute value dc_i : -3 , value dc_q : 0 
RX1:reg0x12c4=0x522d007f.
Q:reg0x12c8=0x502d562b.
 RX1 :reg0x1130=0x562b502d.
tia_cnt_i : 84 ,
tia_cnt_q : 0 ,
RX1 tia case :6,absolute value dc_i : -4 , value dc_q : 0 
RX1:reg0x12c8=0x502d027f.
Q:reg0x12cc=0x4e315429.
 RX1 :reg0x1130=0x54294e31.
tia_cnt_i : 84 ,
tia_cnt_q : 0 ,
RX1 tia case :7,absolute value dc_i : -3 , value dc_q : 0 
RX1:reg0x12cc=0x4e31007d.
Q:reg0x12d0=0x4e31522d.
 RX1 :reg0x1130=0x522d4e31.
tia_cnt_i : 82 ,
tia_cnt_q : 0 ,
RX1 tia case :8,absolute value dc_i : -3 , value dc_q : 0 
RX1:reg0x12d0=0x4e31007f.
Q:reg0x12d4=0x4e31542b.
 RX1 :reg0x1130=0x542b4e31.
tia_cnt_i : 84 ,
tia_cnt_q : 0 ,
RX1 tia case :9,absolute value dc_i : -3 , value dc_q : 0 
RX1:reg0x12d4=0x4e31007f.
Q:reg0x12d8=0x4e31522d.
 RX1 :reg0x1130=0x522d4e31.
tia_cnt_i : 82 ,
tia_cnt_q : 0 ,
RX1 tia case :10,absolute value dc_i : -4 , value dc_q : 0 
RX1:reg0x12d8=0x4e31007f.
Q:reg0x12dc=0x4e31542b.
 RX1 :reg0x1130=0x542b4e31.
tia_cnt_i : 84 ,
tia_cnt_q : 0 ,
RX1 tia case :11,absolute value dc_i : -3 , value dc_q : 0 
RX1:reg0x12dc=0x4e31007f.
Q:reg0x12e0=0x4e33542b.
 RX1 :reg0x1130=0x542b4e33.
tia_cnt_i : 84 ,
tia_cnt_q : 0 ,
RX1 tia case :12,absolute value dc_i : -3 , value dc_q : 0 
RX1:reg0x12e0=0x4e33007f.
tia calibration end!
rx0 vga calibration begin
reg0x1120=0x3fc100.
vga case:1 pass.
RX0 vga case:1 ,absolute value dc_i_tmp : 15 , value dc_q_tmp : 15 ,I:reg0x1184=0x1f272117.   Q:reg0x11c0=0x1b212323.
vga case:2 pass.
RX0 vga case:2 ,absolute value dc_i_tmp : 15 , value dc_q_tmp : 15 ,I:reg0x1188=0x1f272117.   Q:reg0x11c4=0x1b212323.
vga case:3 pass.
RX0 vga case:3 ,absolute value dc_i_tmp : 15 , value dc_q_tmp : 15 ,I:reg0x118c=0x1f272117.   Q:reg0x11c8=0x1d212323.
vga case:4 pass.
RX0 vga case:4 ,absolute value dc_i_tmp : 15 , value dc_q_tmp : 15 ,I:reg0x1190=0x1f272117.   Q:reg0x11cc=0x1d212323.
vga case:5 pass.
RX0 vga case:5 ,absolute value dc_i_tmp : 15 , value dc_q_tmp : 15 ,I:reg0x1194=0x1f272117.   Q:reg0x11d0=0x1b212323.
vga case:6 pass.
RX0 vga case:6 ,absolute value dc_i_tmp : 15 , value dc_q_tmp : 15 ,I:reg0x1198=0x1f272117.   Q:reg0x11d4=0x1b212323.
vga case:7 pass.
RX0 vga case:7 ,absolute value dc_i_tmp : 15 , value dc_q_tmp : 15 ,I:reg0x119c=0x1d272117.   Q:reg0x11d8=0x1d232323.
vga case:8 pass.
RX0 vga case:8 ,absolute value dc_i_tmp : 15 , value dc_q_tmp : 15 ,I:reg0x11a0=0x23252317.   Q:reg0x11dc=0x1f1f2323.
vga case:9 pass.
RX0 vga case:9 ,absolute value dc_i_tmp : 15 , value dc_q_tmp : 15 ,I:reg0x11a4=0x1f292317.   Q:reg0x11e0=0x231d2525.
vga case:10 pass.
RX0 vga case:10 ,absolute value dc_i_tmp : 15 , value dc_q_tmp : 15 ,I:reg0x11a8=0x23272315.   Q:reg0x11e4=0x231f2325.
vga case:11 pass.
RX0 vga case:11 ,absolute value dc_i_tmp : 15 , value dc_q_tmp : 15 ,I:reg0x11ac=0x23272313.   Q:reg0x11e8=0x1d1f2327.
vga case:12 pass.
RX0 vga case:12 ,absolute value dc_i_tmp : 15 , value dc_q_tmp : 15 ,I:reg0x11b0=0x21252513.   Q:reg0x11ec=0x191f1f27.
vga case:13 pass.
RX0 vga case:13 ,absolute value dc_i_tmp : 15 , value dc_q_tmp : 15 ,I:reg0x11b4=0x27232913.   Q:reg0x11f0=0x291d1f27.
vga case:14 pass.
RX0 vga case:14 ,absolute value dc_i_tmp : 15 , value dc_q_tmp : 15 ,I:reg0x11b8=0x1f27290f.   Q:reg0x11f4=0x211f1d2b.
rx1 vga calibration begin
rx1 vga case:1 pass.
RX1 vga case:1 ,absolute value dc_i_tmp : 5 , value dc_q_tmp : 1 ,I:reg0x11fc=0x1d1f2919. Q:reg0x1238=0x19131715.
rx1 vga case:2 pass.
RX1 vga case:2 ,absolute value dc_i_tmp : 6 , value dc_q_tmp : 2 ,I:reg0x1200=0x1d1f2919. Q:reg0x123c=0x17131715.
rx1 vga case:3 pass.
RX1 vga case:3 ,absolute value dc_i_tmp : 6 , value dc_q_tmp : 1 ,I:reg0x1204=0x1d1f2919. Q:reg0x1240=0x1b111915.
rx1 vga case:4 pass.
RX1 vga case:4 ,absolute value dc_i_tmp : 6 , value dc_q_tmp : 1 ,I:reg0x1208=0x1b212517. Q:reg0x1244=0x19151715.
rx1 vga case:5 pass.
RX1 vga case:5 ,absolute value dc_i_tmp : 6 , value dc_q_tmp : 1 ,I:reg0x120c=0x1b212517. Q:reg0x1248=0x19151715.
rx1 vga case:6 pass.
RX1 vga case:6 ,absolute value dc_i_tmp : 6 , value dc_q_tmp : 1 ,I:reg0x1210=0x1d232517. Q:reg0x124c=0x17151917.
rx1 vga case:7 pass.
RX1 vga case:7 ,absolute value dc_i_tmp : 6 , value dc_q_tmp : 1 ,I:reg0x1214=0x1b232517. Q:reg0x1250=0x17171715.
rx1 vga case:8 pass.
RX1 vga case:8 ,absolute value dc_i_tmp : 6 , value dc_q_tmp : 1 ,I:reg0x1218=0x1b232917. Q:reg0x1254=0x1d111915.
rx1 vga case:9 pass.
RX1 vga case:9 ,absolute value dc_i_tmp : 6 , value dc_q_tmp : 0 ,I:reg0x121c=0x1d232b13. Q:reg0x1258=0x19131915.
rx1 vga case:10 pass.
RX1 vga case:10 ,absolute value dc_i_tmp : 6 , value dc_q_tmp : 0 ,I:reg0x1220=0x211d3111. Q:reg0x125c=0x1d0f1b15.
rx1 vga case:11 pass.
RX1 vga case:11 ,absolute value dc_i_tmp : 6 , value dc_q_tmp : 0 ,I:reg0x1224=0x1f21330b. Q:reg0x1260=0x1b151913.
rx1 vga case:12 pass.
RX1 vga case:12 ,absolute value dc_i_tmp : 4 , value dc_q_tmp : 0 ,I:reg0x1228=0x1d233707. Q:reg0x1264=0x1b111b13.
rx1 vga case:13 pass.
RX1 vga case:13 ,absolute value dc_i_tmp : 5 , value dc_q_tmp : 0 ,I:reg0x122c=0x211f3f01. Q:reg0x1268=0x1b0f1d13.
rx1 vga case:14 pass.
RX1 vga case:14 ,absolute value dc_i_tmp : 2 , value dc_q_tmp : 0 ,I:reg0x1230=0x13f3f01. Q:reg0x126c=0x190d1f11.
reg0x1120=0x3c0100.
vga calibration end!
RX0: 0x103c : e000c000 ,0x1040 : 30001102 
RX1: 0x1054 : e000c000 ,0x1058 : 30001100 
THIS CASE J: 0 M: 3 
adc calibration begin
calibration begin
RX0 cali pre ,absolute value dc_i_tmp : 15 , value dc_q_tmp : 15 ,
reg0x1180=0x21272119.
reg0x11bc=0x1d1f2523.
RX1 cali pre ,absolute value dc_i_tmp : 15 , value dc_q_tmp : 10 ,reg0x11f8=0x1d211d23.
reg0x1234=0x19131517.
rx0 tia cali begin:
####:reg0x1270=0x463b4639.
tia_cnt_i : 70 ,
tia_cnt_q : 1 ,
I:reg0x1150=0x21272119.
Q:reg0x1154=0x1d1f2523.
RX0 tia case :0,absolute value dc_i : -16 , value dc_q : -16 
####:reg0x1270=0x3c007f.
####:reg0x1274=0x443b443b.
tia_cnt_i : 68 ,
tia_cnt_q : 1 ,
I:reg0x1150=0x21272119.
Q:reg0x1154=0x1d1f2523.
RX0 tia case :1,absolute value dc_i : -16 , value dc_q : -16 
####:reg0x1274=0x3c007f.
####:reg0x1278=0x443b463b.
tia_cnt_i : 68 ,
tia_cnt_q : 68 ,
I:reg0x1150=0x21272119.
Q:reg0x1154=0x1d1f2523.
RX0 tia case :2,absolute value dc_i : -16 , value dc_q : -16 
####:reg0x1278=0x27f027f.
####:reg0x127c=0x3e41423d.
tia_cnt_i : 66 ,
tia_cnt_q : 1 ,
I:reg0x1150=0x21272119.
Q:reg0x1154=0x1d1f2523.
RX0 tia case :3,absolute value dc_i : -16 , value dc_q : -16 
####:reg0x127c=0x42007f.
####:reg0x1280=0x38453a47.
tia_cnt_i : 56 ,
tia_cnt_q : 58 ,
I:reg0x1150=0x21272119.
Q:reg0x1154=0x1d1f2523.
RX0 tia case :4,absolute value dc_i : -16 , value dc_q : -16 
####:reg0x1280=0x27f027f.
####:reg0x1284=0x3a453a47.
tia_cnt_i : 56 ,
tia_cnt_q : 58 ,
I:reg0x1150=0x21272119.
Q:reg0x1154=0x1d1f2523.
RX0 tia case :5,absolute value dc_i : -16 , value dc_q : -16 
####:reg0x1284=0x27f027f.
####:reg0x1288=0x38453649.
tia_cnt_i : 54 ,
tia_cnt_q : 1 ,
I:reg0x1150=0x21272119.
Q:reg0x1154=0x1d1f2523.
RX0 tia case :6,absolute value dc_i : -16 , value dc_q : -16 
####:reg0x1288=0x46007f.
####:reg0x128c=0x36493649.
tia_cnt_i : 54 ,
tia_cnt_q : 1 ,
I:reg0x1150=0x21272119.
Q:reg0x1154=0x1d1f2523.
RX0 tia case :7,absolute value dc_i : -16 , value dc_q : -16 
####:reg0x128c=0x4a007f.
####:reg0x1290=0x36493649.
tia_cnt_i : 54 ,
tia_cnt_q : 1 ,
I:reg0x1150=0x21272119.
Q:reg0x1154=0x1d1f2523.
RX0 tia case :8,absolute value dc_i : -16 , value dc_q : -16 
####:reg0x1290=0x4a007f.
####:reg0x1294=0x3649364b.
tia_cnt_i : 52 ,
tia_cnt_q : 54 ,
I:reg0x1150=0x21272119.
Q:reg0x1154=0x1d1f2523.
RX0 tia case :9,absolute value dc_i : -16 , value dc_q : -16 
####:reg0x1294=0x27f027f.
####:reg0x1298=0x3649364b.
tia_cnt_i : 52 ,
tia_cnt_q : 54 ,
I:reg0x1150=0x21272119.
Q:reg0x1154=0x1d1f2523.
RX0 tia case :10,absolute value dc_i : -16 , value dc_q : -16 
####:reg0x1298=0x27f027f.
####:reg0x129c=0x3649364b.
tia_cnt_i : 52 ,
tia_cnt_q : 54 ,
I:reg0x1150=0x21272119.
Q:reg0x1154=0x1d1f2523.
RX0 tia case :11,absolute value dc_i : -16 , value dc_q : -16 
####:reg0x129c=0x27f027f.
####:reg0x12a0=0x36493649.
tia_cnt_i : 54 ,
tia_cnt_q : 1 ,
I:reg0x1150=0x21272119.
Q:reg0x1154=0x1d1f2523.
RX0 tia case :12,absolute value dc_i : -16 , value dc_q : -16 
####:reg0x12a0=0x4a007f.
rx1 tia cali begin:
Q:reg0x12b0=0x5c23621d.
 RX1 :reg0x1130=0x621d5c23.
tia_cnt_i : 98 ,
tia_cnt_q : 1 ,
RX1 tia case :0,absolute value dc_i : -16 , value dc_q : -6 
RX1:reg0x12b0=0x24007f.
Q:reg0x12b4=0x5c23601f.
 RX1 :reg0x1130=0x601f5c23.
tia_cnt_i : 96 ,
tia_cnt_q : 1 ,
RX1 tia case :1,absolute value dc_i : -16 , value dc_q : -5 
RX1:reg0x12b4=0x24007f.
Q:reg0x12b8=0x58255e23.
 RX1 :reg0x1130=0x5e235825.
tia_cnt_i : 92 ,
tia_cnt_q : 90 ,
RX1 tia case :2,absolute value dc_i : -16 , value dc_q : -5 
RX1:reg0x12b8=0x27f027f.
Q:reg0x12bc=0x56295a25.
 RX1 :reg0x1130=0x5a255629.
tia_cnt_i : 90 ,
tia_cnt_q : 1 ,
RX1 tia case :3,absolute value dc_i : -16 , value dc_q : -6 
RX1:reg0x12bc=0x2a007f.
Q:reg0x12c0=0x56295827.
 RX1 :reg0x1130=0x58275629.
tia_cnt_i : 88 ,
tia_cnt_q : 1 ,
RX1 tia case :4,absolute value dc_i : -16 , value dc_q : -7 
RX1:reg0x12c0=0x2a007f.
Q:reg0x12c4=0x542b5629.
 RX1 :reg0x1130=0x5629542b.
tia_cnt_i : 86 ,
tia_cnt_q : 1 ,
RX1 tia case :5,absolute value dc_i : -16 , value dc_q : -6 
RX1:reg0x12c4=0x2c007f.
Q:reg0x12c8=0x502d5429.
 RX1 :reg0x1130=0x5429502d.
tia_cnt_i : 84 ,
tia_cnt_q : 1 ,
RX1 tia case :6,absolute value dc_i : -16 , value dc_q : -7 
RX1:reg0x12c8=0x2e007d.
Q:reg0x12cc=0x4e315429.
 RX1 :reg0x1130=0x54294e31.
tia_cnt_i : 84 ,
tia_cnt_q : 1 ,
RX1 tia case :7,absolute value dc_i : -16 , value dc_q : -6 
RX1:reg0x12cc=0x32007d.
Q:reg0x12d0=0x4e31522d.
 RX1 :reg0x1130=0x522d4e31.
tia_cnt_i : 82 ,
tia_cnt_q : 1 ,
RX1 tia case :8,absolute value dc_i : -16 , value dc_q : -6 
RX1:reg0x12d0=0x32007f.
Q:reg0x12d4=0x4e31542b.
 RX1 :reg0x1130=0x542b4e31.
tia_cnt_i : 84 ,
tia_cnt_q : 1 ,
RX1 tia case :9,absolute value dc_i : -16 , value dc_q : -6 
RX1:reg0x12d4=0x32007f.
Q:reg0x12d8=0x4c31542b.
 RX1 :reg0x1130=0x542b4c31.
tia_cnt_i : 84 ,
tia_cnt_q : 1 ,
RX1 tia case :10,absolute value dc_i : -16 , value dc_q : -6 
RX1:reg0x12d8=0x32007f.
Q:reg0x12dc=0x4e31542b.
 RX1 :reg0x1130=0x542b4e31.
tia_cnt_i : 84 ,
tia_cnt_q : 1 ,
RX1 tia case :11,absolute value dc_i : -16 , value dc_q : -7 
RX1:reg0x12dc=0x32007f.
Q:reg0x12e0=0x4e31542b.
 RX1 :reg0x1130=0x542b4e31.
tia_cnt_i : 84 ,
tia_cnt_q : 1 ,
RX1 tia case :12,absolute value dc_i : -16 , value dc_q : -6 
RX1:reg0x12e0=0x32007f.
tia calibration end!
rx0 vga calibration begin
reg0x1120=0x3fc100.
vga case:1 pass.
RX0 vga case:1 ,absolute value dc_i_tmp : 15 , value dc_q_tmp : 15 ,I:reg0x1184=0x1f272117.   Q:reg0x11c0=0x1b212323.
vga case:2 pass.
RX0 vga case:2 ,absolute value dc_i_tmp : 15 , value dc_q_tmp : 15 ,I:reg0x1188=0x1f272117.   Q:reg0x11c4=0x1b212323.
vga case:3 pass.
RX0 vga case:3 ,absolute value dc_i_tmp : 15 , value dc_q_tmp : 15 ,I:reg0x118c=0x1f272117.   Q:reg0x11c8=0x1d212323.
vga case:4 pass.
RX0 vga case:4 ,absolute value dc_i_tmp : 15 , value dc_q_tmp : 15 ,I:reg0x1190=0x1f272117.   Q:reg0x11cc=0x1d212323.
vga case:5 pass.
RX0 vga case:5 ,absolute value dc_i_tmp : 15 , value dc_q_tmp : 15 ,I:reg0x1194=0x1f272117.   Q:reg0x11d0=0x1b212323.
vga case:6 pass.
RX0 vga case:6 ,absolute value dc_i_tmp : 15 , value dc_q_tmp : 15 ,I:reg0x1198=0x1f272117.   Q:reg0x11d4=0x1b212323.
vga case:7 pass.
RX0 vga case:7 ,absolute value dc_i_tmp : 15 , value dc_q_tmp : 15 ,I:reg0x119c=0x1d272117.   Q:reg0x11d8=0x1d232323.
vga case:8 pass.
RX0 vga case:8 ,absolute value dc_i_tmp : 15 , value dc_q_tmp : 15 ,I:reg0x11a0=0x23252317.   Q:reg0x11dc=0x1f1f2323.
vga case:9 pass.
RX0 vga case:9 ,absolute value dc_i_tmp : 15 , value dc_q_tmp : 15 ,I:reg0x11a4=0x1f292317.   Q:reg0x11e0=0x231d2525.
vga case:10 pass.
RX0 vga case:10 ,absolute value dc_i_tmp : 15 , value dc_q_tmp : 15 ,I:reg0x11a8=0x23272315.   Q:reg0x11e4=0x231f2325.
vga case:11 pass.
RX0 vga case:11 ,absolute value dc_i_tmp : 15 , value dc_q_tmp : 15 ,I:reg0x11ac=0x23272313.   Q:reg0x11e8=0x1d1f2327.
vga case:12 pass.
RX0 vga case:12 ,absolute value dc_i_tmp : 15 , value dc_q_tmp : 15 ,I:reg0x11b0=0x21252513.   Q:reg0x11ec=0x191f1f27.
vga case:13 pass.
RX0 vga case:13 ,absolute value dc_i_tmp : 15 , value dc_q_tmp : 15 ,I:reg0x11b4=0x27232913.   Q:reg0x11f0=0x291d1f27.
vga case:14 pass.
RX0 vga case:14 ,absolute value dc_i_tmp : 15 , value dc_q_tmp : 15 ,I:reg0x11b8=0x1f27290f.   Q:reg0x11f4=0x211f1d2b.
rx1 vga calibration begin
rx1 vga case:1 pass.
RX1 vga case:1 ,absolute value dc_i_tmp : 15 , value dc_q_tmp : 10 ,I:reg0x11fc=0x1d1f2919. Q:reg0x1238=0x19131913.
rx1 vga case:2 pass.
RX1 vga case:2 ,absolute value dc_i_tmp : 15 , value dc_q_tmp : 9 ,I:reg0x1200=0x1d1f2919. Q:reg0x123c=0x19131913.
rx1 vga case:3 pass.
RX1 vga case:3 ,absolute value dc_i_tmp : 15 , value dc_q_tmp : 11 ,I:reg0x1204=0x1d1f2919. Q:reg0x1240=0x17131913.
rx1 vga case:4 pass.
RX1 vga case:4 ,absolute value dc_i_tmp : 15 , value dc_q_tmp : 9 ,I:reg0x1208=0x1b212517. Q:reg0x1244=0x17131913.
rx1 vga case:5 pass.
RX1 vga case:5 ,absolute value dc_i_tmp : 15 , value dc_q_tmp : 9 ,I:reg0x120c=0x1b212517. Q:reg0x1248=0x19151913.
rx1 vga case:6 pass.
RX1 vga case:6 ,absolute value dc_i_tmp : 15 , value dc_q_tmp : 10 ,I:reg0x1210=0x1d232517. Q:reg0x124c=0x17151913.
rx1 vga case:7 pass.
RX1 vga case:7 ,absolute value dc_i_tmp : 15 , value dc_q_tmp : 9 ,I:reg0x1214=0x1b232517. Q:reg0x1250=0x17151913.
rx1 vga case:8 pass.
RX1 vga case:8 ,absolute value dc_i_tmp : 15 , value dc_q_tmp : 9 ,I:reg0x1218=0x1b232917. Q:reg0x1254=0x19131b13.
rx1 vga case:9 pass.
RX1 vga case:9 ,absolute value dc_i_tmp : 15 , value dc_q_tmp : 9 ,I:reg0x121c=0x1d232b13. Q:reg0x1258=0x19151d13.
rx1 vga case:10 pass.
RX1 vga case:10 ,absolute value dc_i_tmp : 15 , value dc_q_tmp : 9 ,I:reg0x1220=0x211d3111. Q:reg0x125c=0x17171d11.
rx1 vga case:11 pass.
RX1 vga case:11 ,absolute value dc_i_tmp : 15 , value dc_q_tmp : 9 ,I:reg0x1224=0x1f21330b. Q:reg0x1260=0x1d0f210f.
rx1 vga case:12 pass.
RX1 vga case:12 ,absolute value dc_i_tmp : 15 , value dc_q_tmp : 9 ,I:reg0x1228=0x1d233707. Q:reg0x1264=0x1915210d.
rx1 vga case:13 pass.
RX1 vga case:13 ,absolute value dc_i_tmp : 15 , value dc_q_tmp : 9 ,I:reg0x122c=0x211f3f01. Q:reg0x1268=0x1d11250b.
rx1 vga case:14 pass.
RX1 vga case:14 ,absolute value dc_i_tmp : 15 , value dc_q_tmp : 8 ,I:reg0x1230=0x13f3f01. Q:reg0x126c=0x17112905.
reg0x1120=0x3c0100.
vga calibration end!
RX0: 0x103c : e0010000 ,0x1040 : 40001102 
RX1: 0x1054 : e0010000 ,0x1058 : 40001100 
THIS CASE J: 0 M: 4 
adc calibration begin
calibration begin
RX0 cali pre ,absolute value dc_i_tmp : 1 , value dc_q_tmp : 0 ,
reg0x1180=0x21272117.
reg0x11bc=0x1b1f2323.
RX1 cali pre ,absolute value dc_i_tmp : 8 , value dc_q_tmp : 2 ,reg0x11f8=0x1f23151b.
reg0x1234=0x19131719.
rx0 tia cali begin:
####:reg0x1270=0x463b463b.
tia_cnt_i : 0 ,
tia_cnt_q : 0 ,
I:reg0x1150=0x21272117.
Q:reg0x1154=0x1b1f2323.
RX0 tia case :0,absolute value dc_i : -1 , value dc_q : -1 
####:reg0x1270=0x463b463b.
####:reg0x1274=0x463b4639.
tia_cnt_i : 5 ,
tia_cnt_q : 0 ,
I:reg0x1150=0x21272117.
Q:reg0x1154=0x1b1f2323.
RX0 tia case :1,absolute value dc_i : -1 , value dc_q : 1 
####:reg0x1274=0x463b413e.
####:reg0x1278=0x463b423d.
tia_cnt_i : 14 ,
tia_cnt_q : 23 ,
I:reg0x1150=0x21272117.
Q:reg0x1154=0x1b1f2323.
RX0 tia case :2,absolute value dc_i : -1 , value dc_q : 1 
####:reg0x1278=0x3424344b.
####:reg0x127c=0x443b3e41.
tia_cnt_i : 27 ,
tia_cnt_q : 51 ,
I:reg0x1150=0x21272117.
Q:reg0x1154=0x1b1f2323.
RX0 tia case :3,absolute value dc_i : -1 , value dc_q : 1 
####:reg0x127c=0x2308235c.
####:reg0x1280=0x3a453845.
tia_cnt_i : 53 ,
tia_cnt_q : 69 ,
I:reg0x1150=0x21272117.
Q:reg0x1154=0x1b1f2323.
RX0 tia case :4,absolute value dc_i : -1 , value dc_q : 2 
####:reg0x1280=0x300037a.
####:reg0x1284=0x3a453a45.
tia_cnt_i : 56 ,
tia_cnt_q : 69 ,
I:reg0x1150=0x21272117.
Q:reg0x1154=0x1b1f2323.
RX0 tia case :5,absolute value dc_i : -1 , value dc_q : 2 
####:reg0x1284=0x200027d.
####:reg0x1288=0x3a473847.
tia_cnt_i : 56 ,
tia_cnt_q : 71 ,
I:reg0x1150=0x21272117.
Q:reg0x1154=0x1b1f2323.
RX0 tia case :6,absolute value dc_i : -2 , value dc_q : 2 
####:reg0x1288=0x7f.
####:reg0x128c=0x38473649.
tia_cnt_i : 53 ,
tia_cnt_q : 71 ,
I:reg0x1150=0x21272117.
Q:reg0x1154=0x1b1f2323.
RX0 tia case :7,absolute value dc_i : -1 , value dc_q : 2 
####:reg0x128c=0x100017e.
####:reg0x1290=0x38473649.
tia_cnt_i : 51 ,
tia_cnt_q : 71 ,
I:reg0x1150=0x21272117.
Q:reg0x1154=0x1b1f2323.
RX0 tia case :8,absolute value dc_i : -1 , value dc_q : 2 
####:reg0x1290=0x300037c.
####:reg0x1294=0x36493449.
tia_cnt_i : 48 ,
tia_cnt_q : 73 ,
I:reg0x1150=0x21272117.
Q:reg0x1154=0x1b1f2323.
RX0 tia case :9,absolute value dc_i : -1 , value dc_q : 2 
####:reg0x1294=0x4000479.
####:reg0x1298=0x3449364b.
tia_cnt_i : 52 ,
tia_cnt_q : 73 ,
I:reg0x1150=0x21272117.
Q:reg0x1154=0x1b1f2323.
RX0 tia case :10,absolute value dc_i : -2 , value dc_q : 2 
####:reg0x1298=0x200027f.
####:reg0x129c=0x3649344b.
tia_cnt_i : 47 ,
tia_cnt_q : 73 ,
I:reg0x1150=0x21272117.
Q:reg0x1154=0x1b1f2323.
RX0 tia case :11,absolute value dc_i : -1 , value dc_q : 2 
####:reg0x129c=0x500057a.
####:reg0x12a0=0x3649364b.
tia_cnt_i : 51 ,
tia_cnt_q : 73 ,
I:reg0x1150=0x21272117.
Q:reg0x1154=0x1b1f2323.
RX0 tia case :12,absolute value dc_i : -1 , value dc_q : 2 
####:reg0x12a0=0x300037e.
rx1 tia cali begin:
Q:reg0x12b0=0x5c23601f.
 RX1 :reg0x1130=0x601f5c23.
tia_cnt_i : 96 ,
tia_cnt_q : 37 ,
RX1 tia case :0,absolute value dc_i : -5 , value dc_q : 2 
RX1:reg0x12b0=0x7f.
Q:reg0x12b4=0x5a275e21.
 RX1 :reg0x1130=0x5e215a27.
tia_cnt_i : 94 ,
tia_cnt_q : 31 ,
RX1 tia case :1,absolute value dc_i : -5 , value dc_q : 1 
RX1:reg0x12b4=0xa007f.
Q:reg0x12b8=0x58275e23.
 RX1 :reg0x1130=0x5e235827.
tia_cnt_i : 92 ,
tia_cnt_q : 0 ,
RX1 tia case :2,absolute value dc_i : -6 , value dc_q : 0 
RX1:reg0x12b8=0x5827027f.
Q:reg0x12bc=0x58275a25.
 RX1 :reg0x1130=0x5a255827.
tia_cnt_i : 90 ,
tia_cnt_q : 0 ,
RX1 tia case :3,absolute value dc_i : -6 , value dc_q : 0 
RX1:reg0x12bc=0x5827007f.
Q:reg0x12c0=0x56295629.
 RX1 :reg0x1130=0x56295629.
tia_cnt_i : 86 ,
tia_cnt_q : 0 ,
RX1 tia case :4,absolute value dc_i : -6 , value dc_q : 0 
RX1:reg0x12c0=0x5629007f.
Q:reg0x12c4=0x522d5629.
 RX1 :reg0x1130=0x5629522d.
tia_cnt_i : 86 ,
tia_cnt_q : 0 ,
RX1 tia case :5,absolute value dc_i : -6 , value dc_q : 0 
RX1:reg0x12c4=0x522d007f.
Q:reg0x12c8=0x522f5629.
 RX1 :reg0x1130=0x5629522f.
tia_cnt_i : 86 ,
tia_cnt_q : 0 ,
RX1 tia case :6,absolute value dc_i : -6 , value dc_q : 0 
RX1:reg0x12c8=0x522f007f.
Q:reg0x12cc=0x4e31562b.
 RX1 :reg0x1130=0x562b4e31.
tia_cnt_i : 84 ,
tia_cnt_q : 0 ,
RX1 tia case :7,absolute value dc_i : -6 , value dc_q : 0 
RX1:reg0x12cc=0x4e31027f.
Q:reg0x12d0=0x4e31522d.
 RX1 :reg0x1130=0x522d4e31.
tia_cnt_i : 82 ,
tia_cnt_q : 0 ,
RX1 tia case :8,absolute value dc_i : -6 , value dc_q : 0 
RX1:reg0x12d0=0x4e31007f.
Q:reg0x12d4=0x4e33542b.
 RX1 :reg0x1130=0x542b4e33.
tia_cnt_i : 84 ,
tia_cnt_q : 0 ,
RX1 tia case :9,absolute value dc_i : -6 , value dc_q : 0 
RX1:reg0x12d4=0x4e33007f.
Q:reg0x12d8=0x4e31542b.
 RX1 :reg0x1130=0x542b4e31.
tia_cnt_i : 84 ,
tia_cnt_q : 0 ,
RX1 tia case :10,absolute value dc_i : -6 , value dc_q : 0 
RX1:reg0x12d8=0x4e31007f.
Q:reg0x12dc=0x4c31542b.
 RX1 :reg0x1130=0x542b4c31.
tia_cnt_i : 84 ,
tia_cnt_q : 0 ,
RX1 tia case :11,absolute value dc_i : -6 , value dc_q : 0 
RX1:reg0x12dc=0x4c31007f.
Q:reg0x12e0=0x4e31522d.
 RX1 :reg0x1130=0x522d4e31.
tia_cnt_i : 82 ,
tia_cnt_q : 0 ,
RX1 tia case :12,absolute value dc_i : -6 , value dc_q : 0 
RX1:reg0x12e0=0x4e31007f.
tia calibration end!
rx0 vga calibration begin
reg0x1120=0x3fc100.
vga case:1 pass.
RX0 vga case:1 ,absolute value dc_i_tmp : 1 , value dc_q_tmp : 1 ,I:reg0x1184=0x21272117.   Q:reg0x11c0=0x1b212323.
vga case:2 pass.
RX0 vga case:2 ,absolute value dc_i_tmp : 1 , value dc_q_tmp : 1 ,I:reg0x1188=0x21272117.   Q:reg0x11c4=0x1b212323.
vga case:3 pass.
RX0 vga case:3 ,absolute value dc_i_tmp : 1 , value dc_q_tmp : 0 ,I:reg0x118c=0x21272117.   Q:reg0x11c8=0x1d212323.
vga case:4 pass.
RX0 vga case:4 ,absolute value dc_i_tmp : 1 , value dc_q_tmp : 0 ,I:reg0x1190=0x21272117.   Q:reg0x11cc=0x1d212323.
vga case:5 pass.
RX0 vga case:5 ,absolute value dc_i_tmp : 1 , value dc_q_tmp : 1 ,I:reg0x1194=0x21272117.   Q:reg0x11d0=0x191f2323.
vga case:6 pass.
RX0 vga case:6 ,absolute value dc_i_tmp : 1 , value dc_q_tmp : 1 ,I:reg0x1198=0x21272117.   Q:reg0x11d4=0x191f2323.
vga case:7 pass.
RX0 vga case:7 ,absolute value dc_i_tmp : 1 , value dc_q_tmp : 0 ,I:reg0x119c=0x21272117.   Q:reg0x11d8=0x1b1f2323.
vga case:8 pass.
RX0 vga case:8 ,absolute value dc_i_tmp : 0 , value dc_q_tmp : 0 ,I:reg0x11a0=0x25232317.   Q:reg0x11dc=0x1d1d2525.
vga case:9 pass.
RX0 vga case:9 ,absolute value dc_i_tmp : 1 , value dc_q_tmp : 0 ,I:reg0x11a4=0x21272317.   Q:reg0x11e0=0x1b212325.
vga case:10 pass.
RX0 vga case:10 ,absolute value dc_i_tmp : 1 , value dc_q_tmp : 1 ,I:reg0x11a8=0x23232517.   Q:reg0x11e4=0x1f1d2527.
vga case:11 pass.
RX0 vga case:11 ,absolute value dc_i_tmp : 0 , value dc_q_tmp : 1 ,I:reg0x11ac=0x1f272315.   Q:reg0x11e8=0x1d1d2327.
vga case:12 pass.
RX0 vga case:12 ,absolute value dc_i_tmp : 0 , value dc_q_tmp : 1 ,I:reg0x11b0=0x251f2513.   Q:reg0x11ec=0x171f1f27.
vga case:13 pass.
RX0 vga case:13 ,absolute value dc_i_tmp : 1 , value dc_q_tmp : 1 ,I:reg0x11b4=0x2f1b2913.   Q:reg0x11f0=0x1f1f1d27.
vga case:14 pass.
RX0 vga case:14 ,absolute value dc_i_tmp : 1 , value dc_q_tmp : 1 ,I:reg0x11b8=0x391f290f.   Q:reg0x11f4=0x1f0f1f2d.
rx1 vga calibration begin
rx1 vga case:1 pass.
RX1 vga case:1 ,absolute value dc_i_tmp : 8 , value dc_q_tmp : 1 ,I:reg0x11fc=0x1f212919. Q:reg0x1238=0x19131715.
rx1 vga case:2 pass.
RX1 vga case:2 ,absolute value dc_i_tmp : 8 , value dc_q_tmp : 1 ,I:reg0x1200=0x1d1f2717. Q:reg0x123c=0x19131917.
rx1 vga case:3 pass.
RX1 vga case:3 ,absolute value dc_i_tmp : 8 , value dc_q_tmp : 2 ,I:reg0x1204=0x1f212919. Q:reg0x1240=0x1b111b17.
rx1 vga case:4 pass.
RX1 vga case:4 ,absolute value dc_i_tmp : 8 , value dc_q_tmp : 2 ,I:reg0x1208=0x1f1f2717. Q:reg0x1244=0x19151917.
rx1 vga case:5 pass.
RX1 vga case:5 ,absolute value dc_i_tmp : 8 , value dc_q_tmp : 1 ,I:reg0x120c=0x1d1f2919. Q:reg0x1248=0x1d111b17.
rx1 vga case:6 pass.
RX1 vga case:6 ,absolute value dc_i_tmp : 8 , value dc_q_tmp : 1 ,I:reg0x1210=0x1d1f2919. Q:reg0x124c=0x19151917.
rx1 vga case:7 pass.
RX1 vga case:7 ,absolute value dc_i_tmp : 8 , value dc_q_tmp : 1 ,I:reg0x1214=0x1d1f2919. Q:reg0x1250=0x1d0f1b17.
rx1 vga case:8 pass.
RX1 vga case:8 ,absolute value dc_i_tmp : 8 , value dc_q_tmp : 1 ,I:reg0x1218=0x211f2b17. Q:reg0x1254=0x1d111915.
rx1 vga case:9 pass.
RX1 vga case:9 ,absolute value dc_i_tmp : 8 , value dc_q_tmp : 1 ,I:reg0x121c=0x211d2d13. Q:reg0x1258=0x19131915.
rx1 vga case:10 pass.
RX1 vga case:10 ,absolute value dc_i_tmp : 8 , value dc_q_tmp : 0 ,I:reg0x1220=0x1d1f2f0f. Q:reg0x125c=0x1f111b15.
rx1 vga case:11 pass.
RX1 vga case:11 ,absolute value dc_i_tmp : 8 , value dc_q_tmp : 0 ,I:reg0x1224=0x211d350b. Q:reg0x1260=0x19151b15.
rx1 vga case:12 pass.
RX1 vga case:12 ,absolute value dc_i_tmp : 7 , value dc_q_tmp : 0 ,I:reg0x1228=0x1f213907. Q:reg0x1264=0x1b111b13.
rx1 vga case:13 pass.
RX1 vga case:13 ,absolute value dc_i_tmp : 7 , value dc_q_tmp : 0 ,I:reg0x122c=0x1d253f01. Q:reg0x1268=0x190f1d13.
rx1 vga case:14 pass.
RX1 vga case:14 ,absolute value dc_i_tmp : 1 , value dc_q_tmp : 1 ,I:reg0x1230=0x13f3f01. Q:reg0x126c=0x1b111f11.
reg0x1120=0x3c0100.
vga calibration end!
RX0: 0x103c : e0014000 ,0x1040 : 50001102 
RX1: 0x1054 : e0014000 ,0x1058 : 50001100 
THIS CASE J: 0 M: 5 
adc calibration begin
calibration begin
RX0 cali pre ,absolute value dc_i_tmp : 3 , value dc_q_tmp : 0 ,
reg0x1180=0x21272319.
reg0x11bc=0x1d212323.
RX1 cali pre ,absolute value dc_i_tmp : 1 , value dc_q_tmp : 3 ,reg0x11f8=0x1f21171b.
reg0x1234=0x19131719.
rx0 tia cali begin:
####:reg0x1270=0x463b4639.
tia_cnt_i : 10 ,
tia_cnt_q : 0 ,
I:reg0x1150=0x21272319.
Q:reg0x1154=0x1d212323.
RX0 tia case :0,absolute value dc_i : -1 , value dc_q : -1 
####:reg0x1270=0x463b3c43.
####:reg0x1274=0x463b443b.
tia_cnt_i : 14 ,
tia_cnt_q : 0 ,
I:reg0x1150=0x21272319.
Q:reg0x1154=0x1d212323.
RX0 tia case :1,absolute value dc_i : -1 , value dc_q : 0 
####:reg0x1274=0x463b3649.
####:reg0x1278=0x443b443b.
tia_cnt_i : 32 ,
tia_cnt_q : 0 ,
I:reg0x1150=0x21272319.
Q:reg0x1154=0x1d212323.
RX0 tia case :2,absolute value dc_i : -1 , value dc_q : 1 
####:reg0x1278=0x443b245b.
####:reg0x127c=0x3e41423d.
tia_cnt_i : 58 ,
tia_cnt_q : 0 ,
I:reg0x1150=0x21272319.
Q:reg0x1154=0x1d212323.
RX0 tia case :3,absolute value dc_i : -1 , value dc_q : 1 
####:reg0x127c=0x3e410877.
####:reg0x1280=0x38453845.
tia_cnt_i : 56 ,
tia_cnt_q : 0 ,
I:reg0x1150=0x21272319.
Q:reg0x1154=0x1d212323.
RX0 tia case :4,absolute value dc_i : -5 , value dc_q : 1 
####:reg0x1280=0x3845007d.
####:reg0x1284=0x3a453a47.
tia_cnt_i : 56 ,
tia_cnt_q : 0 ,
I:reg0x1150=0x21272319.
Q:reg0x1154=0x1d212323.
RX0 tia case :5,absolute value dc_i : -5 , value dc_q : 1 
####:reg0x1284=0x3a45027f.
####:reg0x1288=0x3a473847.
tia_cnt_i : 56 ,
tia_cnt_q : 0 ,
I:reg0x1150=0x21272319.
Q:reg0x1154=0x1d212323.
RX0 tia case :6,absolute value dc_i : -5 , value dc_q : 1 
####:reg0x1288=0x3a47007f.
####:reg0x128c=0x36493649.
tia_cnt_i : 54 ,
tia_cnt_q : 0 ,
I:reg0x1150=0x21272319.
Q:reg0x1154=0x1d212323.
RX0 tia case :7,absolute value dc_i : -5 , value dc_q : 1 
####:reg0x128c=0x3649007f.
####:reg0x1290=0x36493649.
tia_cnt_i : 54 ,
tia_cnt_q : 0 ,
I:reg0x1150=0x21272319.
Q:reg0x1154=0x1d212323.
RX0 tia case :8,absolute value dc_i : -5 , value dc_q : 1 
####:reg0x1290=0x3649007f.
####:reg0x1294=0x3649344b.
tia_cnt_i : 52 ,
tia_cnt_q : 0 ,
I:reg0x1150=0x21272319.
Q:reg0x1154=0x1d212323.
RX0 tia case :9,absolute value dc_i : -5 , value dc_q : 1 
####:reg0x1294=0x3649007f.
####:reg0x1298=0x36493449.
tia_cnt_i : 52 ,
tia_cnt_q : 0 ,
I:reg0x1150=0x21272319.
Q:reg0x1154=0x1d212323.
RX0 tia case :10,absolute value dc_i : -5 , value dc_q : 1 
####:reg0x1298=0x3649007d.
####:reg0x129c=0x3649344b.
tia_cnt_i : 52 ,
tia_cnt_q : 0 ,
I:reg0x1150=0x21272319.
Q:reg0x1154=0x1d212323.
RX0 tia case :11,absolute value dc_i : -5 , value dc_q : 1 
####:reg0x129c=0x3649007f.
####:reg0x12a0=0x3649364b.
tia_cnt_i : 52 ,
tia_cnt_q : 0 ,
I:reg0x1150=0x21272319.
Q:reg0x1154=0x1d212323.
RX0 tia case :12,absolute value dc_i : -5 , value dc_q : 1 
####:reg0x12a0=0x3649027f.
rx1 tia cali begin:
Q:reg0x12b0=0x5c23601d.
 RX1 :reg0x1130=0x601d5c23.
tia_cnt_i : 29 ,
tia_cnt_q : 73 ,
RX1 tia case :0,absolute value dc_i : 5 , value dc_q : -1 
RX1:reg0x12b0=0x7d6c7d00.
Q:reg0x12b4=0x5825601f.
 RX1 :reg0x1130=0x601f5825.
tia_cnt_i : 31 ,
tia_cnt_q : 76 ,
RX1 tia case :1,absolute value dc_i : 4 , value dc_q : -1 
RX1:reg0x12b4=0x7f717f00.
Q:reg0x12b8=0x58255c21.
 RX1 :reg0x1130=0x5c215825.
tia_cnt_i : 33 ,
tia_cnt_q : 80 ,
RX1 tia case :2,absolute value dc_i : 4 , value dc_q : 0 
RX1:reg0x12b8=0x7d757d00.
Q:reg0x12bc=0x58275a25.
 RX1 :reg0x1130=0x5a255827.
tia_cnt_i : 37 ,
tia_cnt_q : 75 ,
RX1 tia case :3,absolute value dc_i : 3 , value dc_q : -1 
RX1:reg0x12bc=0x7f727f00.
Q:reg0x12c0=0x56295629.
 RX1 :reg0x1130=0x56295629.
tia_cnt_i : 41 ,
tia_cnt_q : 86 ,
RX1 tia case :4,absolute value dc_i : 3 , value dc_q : -2 
RX1:reg0x12c0=0x7f7f7f00.
Q:reg0x12c4=0x522d5629.
 RX1 :reg0x1130=0x5629522d.
tia_cnt_i : 41 ,
tia_cnt_q : 82 ,
RX1 tia case :5,absolute value dc_i : 3 , value dc_q : -2 
RX1:reg0x12c4=0x7f7f7f00.
Q:reg0x12c8=0x522d562b.
 RX1 :reg0x1130=0x562b522d.
tia_cnt_i : 41 ,
tia_cnt_q : 82 ,
RX1 tia case :6,absolute value dc_i : 3 , value dc_q : -3 
RX1:reg0x12c8=0x7f7f7f02.
Q:reg0x12cc=0x522d5429.
 RX1 :reg0x1130=0x5429522d.
tia_cnt_i : 41 ,
tia_cnt_q : 82 ,
RX1 tia case :7,absolute value dc_i : 3 , value dc_q : -3 
RX1:reg0x12cc=0x7d7f7d00.
Q:reg0x12d0=0x502f522d.
 RX1 :reg0x1130=0x522d502f.
tia_cnt_i : 45 ,
tia_cnt_q : 80 ,
RX1 tia case :8,absolute value dc_i : 3 , value dc_q : -3 
RX1:reg0x12d0=0x7f7f7f00.
Q:reg0x12d4=0x4e31542b.
 RX1 :reg0x1130=0x542b4e31.
tia_cnt_i : 43 ,
tia_cnt_q : 6 ,
RX1 tia case :9,absolute value dc_i : 3 , value dc_q : -1 
RX1:reg0x12d4=0x7f377f00.
Q:reg0x12d8=0x4e31542b.
 RX1 :reg0x1130=0x542b4e31.
tia_cnt_i : 43 ,
tia_cnt_q : 78 ,
RX1 tia case :10,absolute value dc_i : 3 , value dc_q : -3 
RX1:reg0x12d8=0x7f7f7f00.
Q:reg0x12dc=0x502f542b.
 RX1 :reg0x1130=0x542b502f.
tia_cnt_i : 43 ,
tia_cnt_q : 42 ,
RX1 tia case :11,absolute value dc_i : 3 , value dc_q : -1 
RX1:reg0x12dc=0x7f597f00.
Q:reg0x12e0=0x4e31542b.
 RX1 :reg0x1130=0x542b4e31.
tia_cnt_i : 43 ,
tia_cnt_q : 74 ,
RX1 tia case :12,absolute value dc_i : 3 , value dc_q : -1 
RX1:reg0x12e0=0x7f7b7f00.
tia calibration end!
rx0 vga calibration begin
reg0x1120=0x3fc100.
vga case:1 pass.
RX0 vga case:1 ,absolute value dc_i_tmp : 4 , value dc_q_tmp : 1 ,I:reg0x1184=0x21272317.   Q:reg0x11c0=0x1d212323.
vga case:2 pass.
RX0 vga case:2 ,absolute value dc_i_tmp : 4 , value dc_q_tmp : 1 ,I:reg0x1188=0x21272317.   Q:reg0x11c4=0x1d212323.
vga case:3 pass.
RX0 vga case:3 ,absolute value dc_i_tmp : 5 , value dc_q_tmp : 1 ,I:reg0x118c=0x1f272317.   Q:reg0x11c8=0x1d212323.
vga case:4 pass.
RX0 vga case:4 ,absolute value dc_i_tmp : 4 , value dc_q_tmp : 1 ,I:reg0x1190=0x1f272317.   Q:reg0x11cc=0x1d212323.
vga case:5 pass.
RX0 vga case:5 ,absolute value dc_i_tmp : 5 , value dc_q_tmp : 1 ,I:reg0x1194=0x1f272317.   Q:reg0x11d0=0x1b1f2323.
vga case:6 pass.
RX0 vga case:6 ,absolute value dc_i_tmp : 4 , value dc_q_tmp : 0 ,I:reg0x1198=0x1f272317.   Q:reg0x11d4=0x1d1f2323.
vga case:7 pass.
RX0 vga case:7 ,absolute value dc_i_tmp : 4 , value dc_q_tmp : 1 ,I:reg0x119c=0x1f272317.   Q:reg0x11d8=0x1d1f2323.
vga case:8 pass.
RX0 vga case:8 ,absolute value dc_i_tmp : 4 , value dc_q_tmp : 0 ,I:reg0x11a0=0x23232315.   Q:reg0x11dc=0x231f2525.
vga case:9 pass.
RX0 vga case:9 ,absolute value dc_i_tmp : 2 , value dc_q_tmp : 0 ,I:reg0x11a4=0x1f292315.   Q:reg0x11e0=0x1d1f2325.
vga case:10 pass.
RX0 vga case:10 ,absolute value dc_i_tmp : 3 , value dc_q_tmp : 0 ,I:reg0x11a8=0x27232513.   Q:reg0x11e4=0x251d2527.
vga case:11 pass.
RX0 vga case:11 ,absolute value dc_i_tmp : 3 , value dc_q_tmp : 0 ,I:reg0x11ac=0x23252713.   Q:reg0x11e8=0x1f252127.
vga case:12 pass.
RX0 vga case:12 ,absolute value dc_i_tmp : 3 , value dc_q_tmp : 0 ,I:reg0x11b0=0x2127250f.   Q:reg0x11ec=0x1f1f1f27.
vga case:13 pass.
RX0 vga case:13 ,absolute value dc_i_tmp : 2 , value dc_q_tmp : 0 ,I:reg0x11b4=0x2527290f.   Q:reg0x11f0=0x271f1d27.
vga case:14 pass.
RX0 vga case:14 ,absolute value dc_i_tmp : 2 , value dc_q_tmp : 1 ,I:reg0x11b8=0x251f310d.   Q:reg0x11f4=0x211f1d2d.
rx1 vga calibration begin
rx1 vga case:1 pass.
RX1 vga case:1 ,absolute value dc_i_tmp : 0 , value dc_q_tmp : 3 ,I:reg0x11fc=0x1f211925. Q:reg0x1238=0x19131715.
rx1 vga case:2 pass.
RX1 vga case:2 ,absolute value dc_i_tmp : 0 , value dc_q_tmp : 3 ,I:reg0x1200=0x1f211925. Q:reg0x123c=0x19131917.
rx1 vga case:3 pass.
RX1 vga case:3 ,absolute value dc_i_tmp : 0 , value dc_q_tmp : 3 ,I:reg0x1204=0x1d1f1925. Q:reg0x1240=0x19131917.
rx1 vga case:4 pass.
RX1 vga case:4 ,absolute value dc_i_tmp : 0 , value dc_q_tmp : 3 ,I:reg0x1208=0x1d1f1b27. Q:reg0x1244=0x19131917.
rx1 vga case:5 pass.
RX1 vga case:5 ,absolute value dc_i_tmp : 0 , value dc_q_tmp : 3 ,I:reg0x120c=0x1f1f1925. Q:reg0x1248=0x19131917.
rx1 vga case:6 pass.
RX1 vga case:6 ,absolute value dc_i_tmp : 0 , value dc_q_tmp : 3 ,I:reg0x1210=0x1f1f1925. Q:reg0x124c=0x17131715.
rx1 vga case:7 pass.
RX1 vga case:7 ,absolute value dc_i_tmp : 0 , value dc_q_tmp : 3 ,I:reg0x1214=0x211f1925. Q:reg0x1250=0x17131917.
rx1 vga case:8 pass.
RX1 vga case:8 ,absolute value dc_i_tmp : 0 , value dc_q_tmp : 3 ,I:reg0x1218=0x211d1927. Q:reg0x1254=0x15151917.
rx1 vga case:9 pass.
RX1 vga case:9 ,absolute value dc_i_tmp : 0 , value dc_q_tmp : 3 ,I:reg0x121c=0x1f1f1729. Q:reg0x1258=0x1b111915.
rx1 vga case:10 pass.
RX1 vga case:10 ,absolute value dc_i_tmp : 0 , value dc_q_tmp : 2 ,I:reg0x1220=0x1f1d152b. Q:reg0x125c=0x19131915.
rx1 vga case:11 pass.
RX1 vga case:11 ,absolute value dc_i_tmp : 0 , value dc_q_tmp : 2 ,I:reg0x1224=0x1d1d112d. Q:reg0x1260=0x1b0f1b15.
rx1 vga case:12 pass.
RX1 vga case:12 ,absolute value dc_i_tmp : 0 , value dc_q_tmp : 3 ,I:reg0x1228=0x1f1f0f31. Q:reg0x1264=0x17131b15.
rx1 vga case:13 pass.
RX1 vga case:13 ,absolute value dc_i_tmp : 0 , value dc_q_tmp : 1 ,I:reg0x122c=0x211d0b35. Q:reg0x1268=0x1d111b13.
rx1 vga case:14 pass.
RX1 vga case:14 ,absolute value dc_i_tmp : 0 , value dc_q_tmp : 1 ,I:reg0x1230=0x211f013d. Q:reg0x126c=0x230f1d11.
reg0x1120=0x3c0100.
vga calibration end!
RX0: 0x103c : e0018000 ,0x1040 : 60001102 
RX1: 0x1054 : e0018000 ,0x1058 : 60001100 
THIS CASE J: 0 M: 6 
adc calibration begin
calibration begin
RX0 cali pre ,absolute value dc_i_tmp : 3 , value dc_q_tmp : 1 ,
reg0x1180=0x21272117.
reg0x11bc=0x1d212525.
RX1 cali pre ,absolute value dc_i_tmp : 1 , value dc_q_tmp : 3 ,reg0x11f8=0x1d211d23.
reg0x1234=0x19131719.
rx0 tia cali begin:
####:reg0x1270=0x46394439.
tia_cnt_i : 7 ,
tia_cnt_q : 0 ,
I:reg0x1150=0x21272117.
Q:reg0x1154=0x1d212525.
RX0 tia case :0,absolute value dc_i : -1 , value dc_q : -1 
####:reg0x1270=0x46393d40.
####:reg0x1274=0x423d4639.
tia_cnt_i : 17 ,
tia_cnt_q : 0 ,
I:reg0x1150=0x21272117.
Q:reg0x1154=0x1d212525.
RX0 tia case :1,absolute value dc_i : -1 , value dc_q : 1 
####:reg0x1274=0x423d354a.
####:reg0x1278=0x423d4439.
tia_cnt_i : 29 ,
tia_cnt_q : 0 ,
I:reg0x1150=0x21272117.
Q:reg0x1154=0x1d212525.
RX0 tia case :2,absolute value dc_i : -1 , value dc_q : 1 
####:reg0x1278=0x423d2756.
####:reg0x127c=0x3e41423d.
tia_cnt_i : 54 ,
tia_cnt_q : 0 ,
I:reg0x1150=0x21272117.
Q:reg0x1154=0x1d212525.
RX0 tia case :3,absolute value dc_i : -1 , value dc_q : 1 
####:reg0x127c=0x3e410c73.
####:reg0x1280=0x38453a45.
tia_cnt_i : 58 ,
tia_cnt_q : 0 ,
I:reg0x1150=0x21272117.
Q:reg0x1154=0x1d212525.
RX0 tia case :4,absolute value dc_i : -4 , value dc_q : 1 
####:reg0x1280=0x3845007f.
####:reg0x1284=0x3a453847.
tia_cnt_i : 56 ,
tia_cnt_q : 0 ,
I:reg0x1150=0x21272117.
Q:reg0x1154=0x1d212525.
RX0 tia case :5,absolute value dc_i : -4 , value dc_q : 1 
####:reg0x1284=0x3a45007f.
####:reg0x1288=0x3a473649.
tia_cnt_i : 54 ,
tia_cnt_q : 0 ,
I:reg0x1150=0x21272117.
Q:reg0x1154=0x1d212525.
RX0 tia case :6,absolute value dc_i : -4 , value dc_q : 1 
####:reg0x1288=0x3a47007f.
####:reg0x128c=0x36493649.
tia_cnt_i : 54 ,
tia_cnt_q : 0 ,
I:reg0x1150=0x21272117.
Q:reg0x1154=0x1d212525.
RX0 tia case :7,absolute value dc_i : -4 , value dc_q : 1 
####:reg0x128c=0x3649007f.
####:reg0x1290=0x36493649.
tia_cnt_i : 54 ,
tia_cnt_q : 0 ,
I:reg0x1150=0x21272117.
Q:reg0x1154=0x1d212525.
RX0 tia case :8,absolute value dc_i : -4 , value dc_q : 1 
####:reg0x1290=0x3649007f.
####:reg0x1294=0x3649344b.
tia_cnt_i : 52 ,
tia_cnt_q : 0 ,
I:reg0x1150=0x21272117.
Q:reg0x1154=0x1d212525.
RX0 tia case :9,absolute value dc_i : -4 , value dc_q : 1 
####:reg0x1294=0x3649007f.
####:reg0x1298=0x36493449.
tia_cnt_i : 52 ,
tia_cnt_q : 0 ,
I:reg0x1150=0x21272117.
Q:reg0x1154=0x1d212525.
RX0 tia case :10,absolute value dc_i : -4 , value dc_q : 1 
####:reg0x1298=0x3649007d.
####:reg0x129c=0x36493449.
tia_cnt_i : 52 ,
tia_cnt_q : 0 ,
I:reg0x1150=0x21272117.
Q:reg0x1154=0x1d212525.
RX0 tia case :11,absolute value dc_i : -4 , value dc_q : 1 
####:reg0x129c=0x3649007d.
####:reg0x12a0=0x3649364b.
tia_cnt_i : 52 ,
tia_cnt_q : 0 ,
I:reg0x1150=0x21272117.
Q:reg0x1154=0x1d212525.
RX0 tia case :12,absolute value dc_i : -4 , value dc_q : 1 
####:reg0x12a0=0x3649027f.
rx1 tia cali begin:
Q:reg0x12b0=0x5e23621f.
 RX1 :reg0x1130=0x621f5e23.
tia_cnt_i : 29 ,
tia_cnt_q : 69 ,
RX1 tia case :0,absolute value dc_i : 4 , value dc_q : -1 
RX1:reg0x12b0=0x7f687f02.
Q:reg0x12b4=0x5c235e21.
 RX1 :reg0x1130=0x5e215c23.
tia_cnt_i : 33 ,
tia_cnt_q : 78 ,
RX1 tia case :1,absolute value dc_i : 4 , value dc_q : -1 
RX1:reg0x12b4=0x7f717f00.
Q:reg0x12b8=0x5a275e21.
 RX1 :reg0x1130=0x5e215a27.
tia_cnt_i : 33 ,
tia_cnt_q : 79 ,
RX1 tia case :2,absolute value dc_i : 3 , value dc_q : -1 
RX1:reg0x12b8=0x7f767f00.
Q:reg0x12bc=0x5a275c23.
 RX1 :reg0x1130=0x5c235a27.
tia_cnt_i : 35 ,
tia_cnt_q : 4 ,
RX1 tia case :3,absolute value dc_i : 3 , value dc_q : -1 
RX1:reg0x12bc=0x7f2b7f00.
Q:reg0x12c0=0x542b5a27.
 RX1 :reg0x1130=0x5a27542b.
tia_cnt_i : 37 ,
tia_cnt_q : 76 ,
RX1 tia case :4,absolute value dc_i : 2 , value dc_q : -1 
RX1:reg0x12c0=0x7f777f02.
Q:reg0x12c4=0x542b5629.
 RX1 :reg0x1130=0x5629542b.
tia_cnt_i : 41 ,
tia_cnt_q : 81 ,
RX1 tia case :5,absolute value dc_i : 3 , value dc_q : -1 
RX1:reg0x12c4=0x7f7c7f00.
Q:reg0x12c8=0x522f5429.
 RX1 :reg0x1130=0x5429522f.
tia_cnt_i : 41 ,
tia_cnt_q : 14 ,
RX1 tia case :6,absolute value dc_i : 3 , value dc_q : -1 
RX1:reg0x12c8=0x7d3d7d00.
Q:reg0x12cc=0x4e315429.
 RX1 :reg0x1130=0x54294e31.
tia_cnt_i : 41 ,
tia_cnt_q : 78 ,
RX1 tia case :7,absolute value dc_i : 3 , value dc_q : -3 
RX1:reg0x12cc=0x7d7f7d00.
Q:reg0x12d0=0x502f542b.
 RX1 :reg0x1130=0x542b502f.
tia_cnt_i : 43 ,
tia_cnt_q : 44 ,
RX1 tia case :8,absolute value dc_i : 2 , value dc_q : -1 
RX1:reg0x12d0=0x7f5b7f00.
Q:reg0x12d4=0x4c31542b.
 RX1 :reg0x1130=0x542b4c31.
tia_cnt_i : 43 ,
tia_cnt_q : 67 ,
RX1 tia case :9,absolute value dc_i : 2 , value dc_q : -1 
RX1:reg0x12d4=0x7f747f00.
Q:reg0x12d8=0x4e31542b.
 RX1 :reg0x1130=0x542b4e31.
tia_cnt_i : 43 ,
tia_cnt_q : 57 ,
RX1 tia case :10,absolute value dc_i : 2 , value dc_q : -1 
RX1:reg0x12d8=0x7f6a7f00.
Q:reg0x12dc=0x4e31542b.
 RX1 :reg0x1130=0x542b4e31.
tia_cnt_i : 43 ,
tia_cnt_q : 7 ,
RX1 tia case :11,absolute value dc_i : 3 , value dc_q : -1 
RX1:reg0x12dc=0x7f387f00.
Q:reg0x12e0=0x4e31542b.
 RX1 :reg0x1130=0x542b4e31.
tia_cnt_i : 43 ,
tia_cnt_q : 78 ,
RX1 tia case :12,absolute value dc_i : 2 , value dc_q : -3 
RX1:reg0x12e0=0x7f7f7f00.
tia calibration end!
rx0 vga calibration begin
reg0x1120=0x3fc100.
vga case:1 pass.
RX0 vga case:1 ,absolute value dc_i_tmp : 4 , value dc_q_tmp : 1 ,I:reg0x1184=0x21272317.   Q:reg0x11c0=0x1d212323.
vga case:2 pass.
RX0 vga case:2 ,absolute value dc_i_tmp : 4 , value dc_q_tmp : 1 ,I:reg0x1188=0x21272317.   Q:reg0x11c4=0x1d212525.
vga case:3 pass.
RX0 vga case:3 ,absolute value dc_i_tmp : 4 , value dc_q_tmp : 1 ,I:reg0x118c=0x21272317.   Q:reg0x11c8=0x1d1f2323.
vga case:4 pass.
RX0 vga case:4 ,absolute value dc_i_tmp : 3 , value dc_q_tmp : 1 ,I:reg0x1190=0x21252317.   Q:reg0x11cc=0x1d212525.
vga case:5 pass.
RX0 vga case:5 ,absolute value dc_i_tmp : 3 , value dc_q_tmp : 0 ,I:reg0x1194=0x21252317.   Q:reg0x11d0=0x1d1f2323.
vga case:6 pass.
RX0 vga case:6 ,absolute value dc_i_tmp : 4 , value dc_q_tmp : 2 ,I:reg0x1198=0x21252317.   Q:reg0x11d4=0x1d1f2323.
vga case:7 pass.
RX0 vga case:7 ,absolute value dc_i_tmp : 4 , value dc_q_tmp : 0 ,I:reg0x119c=0x23252317.   Q:reg0x11d8=0x1f1f2323.
vga case:8 pass.
RX0 vga case:8 ,absolute value dc_i_tmp : 3 , value dc_q_tmp : 2 ,I:reg0x11a0=0x1f292317.   Q:reg0x11dc=0x1f1d2525.
vga case:9 pass.
RX0 vga case:9 ,absolute value dc_i_tmp : 3 , value dc_q_tmp : 0 ,I:reg0x11a4=0x21272315.   Q:reg0x11e0=0x211f2325.
vga case:10 pass.
RX0 vga case:10 ,absolute value dc_i_tmp : 2 , value dc_q_tmp : 0 ,I:reg0x11a8=0x23252515.   Q:reg0x11e4=0x1d1f2327.
vga case:11 pass.
RX0 vga case:11 ,absolute value dc_i_tmp : 3 , value dc_q_tmp : 0 ,I:reg0x11ac=0x21292513.   Q:reg0x11e8=0x1d1f2127.
vga case:12 pass.
RX0 vga case:12 ,absolute value dc_i_tmp : 1 , value dc_q_tmp : 0 ,I:reg0x11b0=0x29212711.   Q:reg0x11ec=0x1f1f1f27.
vga case:13 pass.
RX0 vga case:13 ,absolute value dc_i_tmp : 2 , value dc_q_tmp : 1 ,I:reg0x11b4=0x2d1f290f.   Q:reg0x11f0=0x1f17212b.
vga case:14 pass.
RX0 vga case:14 ,absolute value dc_i_tmp : 1 , value dc_q_tmp : 1 ,I:reg0x11b8=0x271f2d0d.   Q:reg0x11f4=0x1f1f1b2d.
rx1 vga calibration begin
rx1 vga case:1 pass.
RX1 vga case:1 ,absolute value dc_i_tmp : 0 , value dc_q_tmp : 4 ,I:reg0x11fc=0x1f211925. Q:reg0x1238=0x19131917.
rx1 vga case:2 pass.
RX1 vga case:2 ,absolute value dc_i_tmp : 0 , value dc_q_tmp : 3 ,I:reg0x1200=0x1d1f1925. Q:reg0x123c=0x19111917.
rx1 vga case:3 pass.
RX1 vga case:3 ,absolute value dc_i_tmp : 1 , value dc_q_tmp : 3 ,I:reg0x1204=0x1d1f1925. Q:reg0x1240=0x1b131917.
rx1 vga case:4 pass.
RX1 vga case:4 ,absolute value dc_i_tmp : 0 , value dc_q_tmp : 3 ,I:reg0x1208=0x1f1f1925. Q:reg0x1244=0x1b131917.
rx1 vga case:5 pass.
RX1 vga case:5 ,absolute value dc_i_tmp : 0 , value dc_q_tmp : 2 ,I:reg0x120c=0x1f1f1925. Q:reg0x1248=0x1b131917.
rx1 vga case:6 pass.
RX1 vga case:6 ,absolute value dc_i_tmp : 0 , value dc_q_tmp : 4 ,I:reg0x1210=0x1f1f1925. Q:reg0x124c=0x1b131917.
rx1 vga case:7 pass.
RX1 vga case:7 ,absolute value dc_i_tmp : 0 , value dc_q_tmp : 3 ,I:reg0x1214=0x1f1d1925. Q:reg0x1250=0x1b131917.
rx1 vga case:8 pass.
RX1 vga case:8 ,absolute value dc_i_tmp : 0 , value dc_q_tmp : 2 ,I:reg0x1218=0x211b1927. Q:reg0x1254=0x19131917.
rx1 vga case:9 pass.
RX1 vga case:9 ,absolute value dc_i_tmp : 0 , value dc_q_tmp : 3 ,I:reg0x121c=0x211f1729. Q:reg0x1258=0x19151715.
rx1 vga case:10 pass.
RX1 vga case:10 ,absolute value dc_i_tmp : 0 , value dc_q_tmp : 3 ,I:reg0x1220=0x211d152b. Q:reg0x125c=0x1b0f1915.
rx1 vga case:11 pass.
RX1 vga case:11 ,absolute value dc_i_tmp : 0 , value dc_q_tmp : 3 ,I:reg0x1224=0x211d112d. Q:reg0x1260=0x19111915.
rx1 vga case:12 pass.
RX1 vga case:12 ,absolute value dc_i_tmp : 0 , value dc_q_tmp : 1 ,I:reg0x1228=0x1f1d0f31. Q:reg0x1264=0x17151915.
rx1 vga case:13 pass.
RX1 vga case:13 ,absolute value dc_i_tmp : 0 , value dc_q_tmp : 2 ,I:reg0x122c=0x1b230935. Q:reg0x1268=0x1d111b15.
rx1 vga case:14 pass.
RX1 vga case:14 ,absolute value dc_i_tmp : 0 , value dc_q_tmp : 1 ,I:reg0x1230=0x231d013d. Q:reg0x126c=0x1d111b13.
reg0x1120=0x3c0100.
vga calibration end!
RX0: 0x103c : e001c000 ,0x1040 : 70001102 
RX1: 0x1054 : e001c000 ,0x1058 : 70001100 
THIS CASE J: 0 M: 7 
adc calibration begin
calibration begin
RX0 cali pre ,absolute value dc_i_tmp : 15 , value dc_q_tmp : 15 ,
reg0x1180=0x21272117.
reg0x11bc=0x1d212525.
RX1 cali pre ,absolute value dc_i_tmp : 4 , value dc_q_tmp : 1 ,reg0x11f8=0x1f211d23.
reg0x1234=0x19131719.
rx0 tia cali begin:
####:reg0x1270=0x48374639.
tia_cnt_i : 70 ,
tia_cnt_q : 1 ,
I:reg0x1150=0x21272117.
Q:reg0x1154=0x1d212525.
RX0 tia case :0,absolute value dc_i : -16 , value dc_q : -16 
####:reg0x1270=0x38007f.
####:reg0x1274=0x463b4837.
tia_cnt_i : 72 ,
tia_cnt_q : 1 ,
I:reg0x1150=0x21272117.
Q:reg0x1154=0x1d212525.
RX0 tia case :1,absolute value dc_i : -16 , value dc_q : -16 
####:reg0x1274=0x3c007f.
####:reg0x1278=0x463b4639.
tia_cnt_i : 70 ,
tia_cnt_q : 1 ,
I:reg0x1150=0x21272117.
Q:reg0x1154=0x1d212525.
RX0 tia case :2,absolute value dc_i : -16 , value dc_q : -16 
####:reg0x1278=0x3c007f.
####:reg0x127c=0x3e41423d.
tia_cnt_i : 66 ,
tia_cnt_q : 1 ,
I:reg0x1150=0x21272117.
Q:reg0x1154=0x1d212525.
RX0 tia case :3,absolute value dc_i : -16 , value dc_q : -16 
####:reg0x127c=0x42007f.
####:reg0x1280=0x3a453a45.
tia_cnt_i : 58 ,
tia_cnt_q : 1 ,
I:reg0x1150=0x21272117.
Q:reg0x1154=0x1d212525.
RX0 tia case :4,absolute value dc_i : -16 , value dc_q : -16 
####:reg0x1280=0x46007f.
####:reg0x1284=0x3a473a45.
tia_cnt_i : 58 ,
tia_cnt_q : 1 ,
I:reg0x1150=0x21272117.
Q:reg0x1154=0x1d212525.
RX0 tia case :5,absolute value dc_i : -16 , value dc_q : -16 
####:reg0x1284=0x48007f.
####:reg0x1288=0x38473449.
tia_cnt_i : 52 ,
tia_cnt_q : 1 ,
I:reg0x1150=0x21272117.
Q:reg0x1154=0x1d212525.
RX0 tia case :6,absolute value dc_i : -16 , value dc_q : -16 
####:reg0x1288=0x48007d.
####:reg0x128c=0x36493649.
tia_cnt_i : 54 ,
tia_cnt_q : 1 ,
I:reg0x1150=0x21272117.
Q:reg0x1154=0x1d212525.
RX0 tia case :7,absolute value dc_i : -16 , value dc_q : -16 
####:reg0x128c=0x4a007f.
####:reg0x1290=0x36493649.
tia_cnt_i : 54 ,
tia_cnt_q : 1 ,
I:reg0x1150=0x21272117.
Q:reg0x1154=0x1d212525.
RX0 tia case :8,absolute value dc_i : -16 , value dc_q : -16 
####:reg0x1290=0x4a007f.
####:reg0x1294=0x36493449.
tia_cnt_i : 52 ,
tia_cnt_q : 1 ,
I:reg0x1150=0x21272117.
Q:reg0x1154=0x1d212525.
RX0 tia case :9,absolute value dc_i : -16 , value dc_q : -16 
####:reg0x1294=0x4a007d.
####:reg0x1298=0x36493449.
tia_cnt_i : 52 ,
tia_cnt_q : 1 ,
I:reg0x1150=0x21272117.
Q:reg0x1154=0x1d212525.
RX0 tia case :10,absolute value dc_i : -16 , value dc_q : -16 
####:reg0x1298=0x4a007d.
####:reg0x129c=0x3649364b.
tia_cnt_i : 52 ,
tia_cnt_q : 54 ,
I:reg0x1150=0x21272117.
Q:reg0x1154=0x1d212525.
RX0 tia case :11,absolute value dc_i : -16 , value dc_q : -16 
####:reg0x129c=0x27f027f.
####:reg0x12a0=0x34493649.
tia_cnt_i : 54 ,
tia_cnt_q : 1 ,
I:reg0x1150=0x21272117.
Q:reg0x1154=0x1d212525.
RX0 tia case :12,absolute value dc_i : -16 , value dc_q : -16 
####:reg0x12a0=0x4a007f.
rx1 tia cali begin:
Q:reg0x12b0=0x5c23601f.
 RX1 :reg0x1130=0x601f5c23.
tia_cnt_i : 0 ,
tia_cnt_q : 10 ,
RX1 tia case :0,absolute value dc_i : -1 , value dc_q : -1 
RX1:reg0x12b0=0x602d601f.
Q:reg0x12b4=0x5a25601f.
 RX1 :reg0x1130=0x601f5a25.
tia_cnt_i : 0 ,
tia_cnt_q : 0 ,
RX1 tia case :1,absolute value dc_i : -1 , value dc_q : 0 
RX1:reg0x12b4=0x5a25601f.
Q:reg0x12b8=0x5a255e21.
 RX1 :reg0x1130=0x5e215a25.
tia_cnt_i : 0 ,
tia_cnt_q : 0 ,
RX1 tia case :2,absolute value dc_i : 0 , value dc_q : 0 
RX1:reg0x12b8=0x5a255e21.
Q:reg0x12bc=0x58275a25.
 RX1 :reg0x1130=0x5a255827.
tia_cnt_i : 0 ,
tia_cnt_q : 0 ,
RX1 tia case :3,absolute value dc_i : -1 , value dc_q : 0 
RX1:reg0x12bc=0x58275a25.
Q:reg0x12c0=0x56295827.
 RX1 :reg0x1130=0x58275629.
tia_cnt_i : 0 ,
tia_cnt_q : 0 ,
RX1 tia case :4,absolute value dc_i : -1 , value dc_q : 0 
RX1:reg0x12c0=0x56295827.
Q:reg0x12c4=0x542b5827.
 RX1 :reg0x1130=0x5827542b.
tia_cnt_i : 0 ,
tia_cnt_q : 0 ,
RX1 tia case :5,absolute value dc_i : -1 , value dc_q : 0 
RX1:reg0x12c4=0x542b5827.
Q:reg0x12c8=0x522d5629.
 RX1 :reg0x1130=0x5629522d.
tia_cnt_i : 0 ,
tia_cnt_q : 0 ,
RX1 tia case :6,absolute value dc_i : -1 , value dc_q : 0 
RX1:reg0x12c8=0x522d5629.
Q:reg0x12cc=0x4e315629.
 RX1 :reg0x1130=0x56294e31.
tia_cnt_i : 2 ,
tia_cnt_q : 0 ,
RX1 tia case :7,absolute value dc_i : -1 , value dc_q : 0 
RX1:reg0x12cc=0x4e31542b.
Q:reg0x12d0=0x502f522d.
 RX1 :reg0x1130=0x522d502f.
tia_cnt_i : 0 ,
tia_cnt_q : 0 ,
RX1 tia case :8,absolute value dc_i : -1 , value dc_q : 0 
RX1:reg0x12d0=0x502f522d.
Q:reg0x12d4=0x4e31542b.
 RX1 :reg0x1130=0x542b4e31.
tia_cnt_i : 1 ,
tia_cnt_q : 0 ,
RX1 tia case :9,absolute value dc_i : -1 , value dc_q : 0 
RX1:reg0x12d4=0x4e31532c.
Q:reg0x12d8=0x4e31542b.
 RX1 :reg0x1130=0x542b4e31.
tia_cnt_i : 0 ,
tia_cnt_q : 0 ,
RX1 tia case :10,absolute value dc_i : -1 , value dc_q : 0 
RX1:reg0x12d8=0x4e31542b.
Q:reg0x12dc=0x4e31522d.
 RX1 :reg0x1130=0x522d4e31.
tia_cnt_i : 0 ,
tia_cnt_q : 0 ,
RX1 tia case :11,absolute value dc_i : -1 , value dc_q : 0 
RX1:reg0x12dc=0x4e31522d.
Q:reg0x12e0=0x4e31562b.
 RX1 :reg0x1130=0x562b4e31.
tia_cnt_i : 4 ,
tia_cnt_q : 0 ,
RX1 tia case :12,absolute value dc_i : -1 , value dc_q : 0 
RX1:reg0x12e0=0x4e31522f.
tia calibration end!
rx0 vga calibration begin
reg0x1120=0x3fc100.
vga case:1 pass.
RX0 vga case:1 ,absolute value dc_i_tmp : 15 , value dc_q_tmp : 15 ,I:reg0x1184=0x21272317.   Q:reg0x11c0=0x1d212323.
vga case:2 pass.
RX0 vga case:2 ,absolute value dc_i_tmp : 15 , value dc_q_tmp : 15 ,I:reg0x1188=0x21272317.   Q:reg0x11c4=0x1d212525.
vga case:3 pass.
RX0 vga case:3 ,absolute value dc_i_tmp : 15 , value dc_q_tmp : 15 ,I:reg0x118c=0x21272317.   Q:reg0x11c8=0x1d1f2323.
vga case:4 pass.
RX0 vga case:4 ,absolute value dc_i_tmp : 15 , value dc_q_tmp : 15 ,I:reg0x1190=0x21252317.   Q:reg0x11cc=0x1d212525.
vga case:5 pass.
RX0 vga case:5 ,absolute value dc_i_tmp : 15 , value dc_q_tmp : 15 ,I:reg0x1194=0x21252317.   Q:reg0x11d0=0x1d1f2323.
vga case:6 pass.
RX0 vga case:6 ,absolute value dc_i_tmp : 15 , value dc_q_tmp : 15 ,I:reg0x1198=0x21252317.   Q:reg0x11d4=0x1d1f2323.
vga case:7 pass.
RX0 vga case:7 ,absolute value dc_i_tmp : 15 , value dc_q_tmp : 15 ,I:reg0x119c=0x23252317.   Q:reg0x11d8=0x1f1f2323.
vga case:8 pass.
RX0 vga case:8 ,absolute value dc_i_tmp : 15 , value dc_q_tmp : 15 ,I:reg0x11a0=0x1f292317.   Q:reg0x11dc=0x1f1d2525.
vga case:9 pass.
RX0 vga case:9 ,absolute value dc_i_tmp : 15 , value dc_q_tmp : 15 ,I:reg0x11a4=0x21272315.   Q:reg0x11e0=0x211f2325.
vga case:10 pass.
RX0 vga case:10 ,absolute value dc_i_tmp : 15 , value dc_q_tmp : 15 ,I:reg0x11a8=0x23252515.   Q:reg0x11e4=0x1d1f2327.
vga case:11 pass.
RX0 vga case:11 ,absolute value dc_i_tmp : 15 , value dc_q_tmp : 15 ,I:reg0x11ac=0x21292513.   Q:reg0x11e8=0x1d1f2127.
vga case:12 pass.
RX0 vga case:12 ,absolute value dc_i_tmp : 15 , value dc_q_tmp : 15 ,I:reg0x11b0=0x29212711.   Q:reg0x11ec=0x1f1f1f27.
vga case:13 pass.
RX0 vga case:13 ,absolute value dc_i_tmp : 15 , value dc_q_tmp : 15 ,I:reg0x11b4=0x2d1f290f.   Q:reg0x11f0=0x1f17212b.
vga case:14 pass.
RX0 vga case:14 ,absolute value dc_i_tmp : 15 , value dc_q_tmp : 15 ,I:reg0x11b8=0x271f2d0d.   Q:reg0x11f4=0x1f1f1b2d.
rx1 vga calibration begin
rx1 vga case:1 pass.
RX1 vga case:1 ,absolute value dc_i_tmp : 5 , value dc_q_tmp : 1 ,I:reg0x11fc=0x1f211d23. Q:reg0x1238=0x19131517.
rx1 vga case:2 pass.
RX1 vga case:2 ,absolute value dc_i_tmp : 5 , value dc_q_tmp : 1 ,I:reg0x1200=0x1f211d23. Q:reg0x123c=0x19131719.
rx1 vga case:3 pass.
RX1 vga case:3 ,absolute value dc_i_tmp : 5 , value dc_q_tmp : 1 ,I:reg0x1204=0x1f211d23. Q:reg0x1240=0x19131719.
rx1 vga case:4 pass.
RX1 vga case:4 ,absolute value dc_i_tmp : 5 , value dc_q_tmp : 2 ,I:reg0x1208=0x1d1f1d23. Q:reg0x1244=0x17131517.
rx1 vga case:5 pass.
RX1 vga case:5 ,absolute value dc_i_tmp : 5 , value dc_q_tmp : 1 ,I:reg0x120c=0x1d1f1d23. Q:reg0x1248=0x17131719.
rx1 vga case:6 pass.
RX1 vga case:6 ,absolute value dc_i_tmp : 5 , value dc_q_tmp : 1 ,I:reg0x1210=0x1f1f1d23. Q:reg0x124c=0x17131719.
rx1 vga case:7 pass.
RX1 vga case:7 ,absolute value dc_i_tmp : 6 , value dc_q_tmp : 1 ,I:reg0x1214=0x1f1f1d23. Q:reg0x1250=0x19171719.
rx1 vga case:8 pass.
RX1 vga case:8 ,absolute value dc_i_tmp : 4 , value dc_q_tmp : 0 ,I:reg0x1218=0x1d231b23. Q:reg0x1254=0x19131719.
rx1 vga case:9 pass.
RX1 vga case:9 ,absolute value dc_i_tmp : 5 , value dc_q_tmp : 1 ,I:reg0x121c=0x1d231b25. Q:reg0x1258=0x1b111719.
rx1 vga case:10 pass.
RX1 vga case:10 ,absolute value dc_i_tmp : 5 , value dc_q_tmp : 0 ,I:reg0x1220=0x1b231925. Q:reg0x125c=0x19151519.
rx1 vga case:11 pass.
RX1 vga case:11 ,absolute value dc_i_tmp : 5 , value dc_q_tmp : 1 ,I:reg0x1224=0x1f231927. Q:reg0x1260=0x1b111519.
rx1 vga case:12 pass.
RX1 vga case:12 ,absolute value dc_i_tmp : 5 , value dc_q_tmp : 0 ,I:reg0x1228=0x1f1f1727. Q:reg0x1264=0x1913151b.
rx1 vga case:13 pass.
RX1 vga case:13 ,absolute value dc_i_tmp : 4 , value dc_q_tmp : 0 ,I:reg0x122c=0x1f231529. Q:reg0x1268=0x1f0f151b.
rx1 vga case:14 pass.
RX1 vga case:14 ,absolute value dc_i_tmp : 5 , value dc_q_tmp : 0 ,I:reg0x1230=0x1d23112d. Q:reg0x126c=0x1d11131d.
reg0x1120=0x3c0100.
vga calibration end!
RX0: 0x103c : e0020000 ,0x1040 : 80001102 
RX1: 0x1054 : e0020000 ,0x1058 : 80001100 
THIS CASE J: 0 M: 8 
adc calibration begin
calibration begin
RX0 cali pre ,absolute value dc_i_tmp : 1 , value dc_q_tmp : 0 ,
reg0x1180=0x21272319.
reg0x11bc=0x1b1f2323.
RX1 cali pre ,absolute value dc_i_tmp : 8 , value dc_q_tmp : 2 ,reg0x11f8=0x1d211d23.
reg0x1234=0x19131719.
rx0 tia cali begin:
####:reg0x1270=0x48374837.
tia_cnt_i : 1 ,
tia_cnt_q : 0 ,
I:reg0x1150=0x21272319.
Q:reg0x1154=0x1b1f2323.
RX0 tia case :0,absolute value dc_i : -1 , value dc_q : -1 
####:reg0x1270=0x48374738.
####:reg0x1274=0x463b4439.
tia_cnt_i : 4 ,
tia_cnt_q : 0 ,
I:reg0x1150=0x21272319.
Q:reg0x1154=0x1b1f2323.
RX0 tia case :1,absolute value dc_i : -1 , value dc_q : 1 
####:reg0x1274=0x463b403d.
####:reg0x1278=0x463b463b.
tia_cnt_i : 16 ,
tia_cnt_q : 17 ,
I:reg0x1150=0x21272319.
Q:reg0x1154=0x1b1f2323.
RX0 tia case :2,absolute value dc_i : -1 , value dc_q : 1 
####:reg0x1278=0x362a364b.
####:reg0x127c=0x3e41443b.
tia_cnt_i : 34 ,
tia_cnt_q : 57 ,
I:reg0x1150=0x21272319.
Q:reg0x1154=0x1b1f2323.
RX0 tia case :3,absolute value dc_i : -1 , value dc_q : 1 
####:reg0x127c=0x2208225d.
####:reg0x1280=0x3a453845.
tia_cnt_i : 50 ,
tia_cnt_q : 69 ,
I:reg0x1150=0x21272319.
Q:reg0x1154=0x1b1f2323.
RX0 tia case :4,absolute value dc_i : -1 , value dc_q : 2 
####:reg0x1280=0x6000677.
####:reg0x1284=0x38453845.
tia_cnt_i : 51 ,
tia_cnt_q : 69 ,
I:reg0x1150=0x21272319.
Q:reg0x1154=0x1b1f2323.
RX0 tia case :5,absolute value dc_i : -1 , value dc_q : 2 
####:reg0x1284=0x5000578.
####:reg0x1288=0x3a473847.
tia_cnt_i : 50 ,
tia_cnt_q : 71 ,
I:reg0x1150=0x21272319.
Q:reg0x1154=0x1b1f2323.
RX0 tia case :6,absolute value dc_i : -1 , value dc_q : 2 
####:reg0x1288=0x6000679.
####:reg0x128c=0x36493847.
tia_cnt_i : 50 ,
tia_cnt_q : 73 ,
I:reg0x1150=0x21272319.
Q:reg0x1154=0x1b1f2323.
RX0 tia case :7,absolute value dc_i : -1 , value dc_q : 2 
####:reg0x128c=0x6000679.
####:reg0x1290=0x36493649.
tia_cnt_i : 50 ,
tia_cnt_q : 73 ,
I:reg0x1150=0x21272319.
Q:reg0x1154=0x1b1f2323.
RX0 tia case :8,absolute value dc_i : -1 , value dc_q : 2 
####:reg0x1290=0x400047b.
####:reg0x1294=0x3649344b.
tia_cnt_i : 49 ,
tia_cnt_q : 73 ,
I:reg0x1150=0x21272319.
Q:reg0x1154=0x1b1f2323.
RX0 tia case :9,absolute value dc_i : -1 , value dc_q : 2 
####:reg0x1294=0x300037c.
####:reg0x1298=0x36493449.
tia_cnt_i : 48 ,
tia_cnt_q : 73 ,
I:reg0x1150=0x21272319.
Q:reg0x1154=0x1b1f2323.
RX0 tia case :10,absolute value dc_i : -1 , value dc_q : 2 
####:reg0x1298=0x4000479.
####:reg0x129c=0x3449364b.
tia_cnt_i : 49 ,
tia_cnt_q : 73 ,
I:reg0x1150=0x21272319.
Q:reg0x1154=0x1b1f2323.
RX0 tia case :11,absolute value dc_i : -1 , value dc_q : 2 
####:reg0x129c=0x500057c.
####:reg0x12a0=0x3649364b.
tia_cnt_i : 44 ,
tia_cnt_q : 73 ,
I:reg0x1150=0x21272319.
Q:reg0x1154=0x1b1f2323.
RX0 tia case :12,absolute value dc_i : -1 , value dc_q : 2 
####:reg0x12a0=0xa000a77.
rx1 tia cali begin:
Q:reg0x12b0=0x5c21621f.
 RX1 :reg0x1130=0x621f5c21.
tia_cnt_i : 96 ,
tia_cnt_q : 35 ,
RX1 tia case :0,absolute value dc_i : -5 , value dc_q : 2 
RX1:reg0x12b0=0x200027f.
Q:reg0x12b4=0x5a255e21.
 RX1 :reg0x1130=0x5e215a25.
tia_cnt_i : 94 ,
tia_cnt_q : 27 ,
RX1 tia case :1,absolute value dc_i : -6 , value dc_q : 1 
RX1:reg0x12b4=0xc007f.
Q:reg0x12b8=0x58255e23.
 RX1 :reg0x1130=0x5e235825.
tia_cnt_i : 92 ,
tia_cnt_q : 0 ,
RX1 tia case :2,absolute value dc_i : -6 , value dc_q : 0 
RX1:reg0x12b8=0x5825027f.
Q:reg0x12bc=0x58275c23.
 RX1 :reg0x1130=0x5c235827.
tia_cnt_i : 92 ,
tia_cnt_q : 0 ,
RX1 tia case :3,absolute value dc_i : -7 , value dc_q : 0 
RX1:reg0x12bc=0x5827007f.
Q:reg0x12c0=0x58275629.
 RX1 :reg0x1130=0x56295827.
tia_cnt_i : 86 ,
tia_cnt_q : 0 ,
RX1 tia case :4,absolute value dc_i : -7 , value dc_q : 0 
RX1:reg0x12c0=0x5827007f.
Q:reg0x12c4=0x522d5629.
 RX1 :reg0x1130=0x5629522d.
tia_cnt_i : 86 ,
tia_cnt_q : 0 ,
RX1 tia case :5,absolute value dc_i : -7 , value dc_q : 0 
RX1:reg0x12c4=0x522d007f.
Q:reg0x12c8=0x502d562b.
 RX1 :reg0x1130=0x562b502d.
tia_cnt_i : 84 ,
tia_cnt_q : 0 ,
RX1 tia case :6,absolute value dc_i : -7 , value dc_q : 0 
RX1:reg0x12c8=0x502d027f.
Q:reg0x12cc=0x502f542b.
 RX1 :reg0x1130=0x542b502f.
tia_cnt_i : 84 ,
tia_cnt_q : 0 ,
RX1 tia case :7,absolute value dc_i : -7 , value dc_q : 0 
RX1:reg0x12cc=0x502f007f.
Q:reg0x12d0=0x4e31522d.
 RX1 :reg0x1130=0x522d4e31.
tia_cnt_i : 82 ,
tia_cnt_q : 0 ,
RX1 tia case :8,absolute value dc_i : -7 , value dc_q : 0 
RX1:reg0x12d0=0x4e31007f.
Q:reg0x12d4=0x4e31542b.
 RX1 :reg0x1130=0x542b4e31.
tia_cnt_i : 84 ,
tia_cnt_q : 0 ,
RX1 tia case :9,absolute value dc_i : -7 , value dc_q : 0 
RX1:reg0x12d4=0x4e31007f.
Q:reg0x12d8=0x4e31522d.
 RX1 :reg0x1130=0x522d4e31.
tia_cnt_i : 82 ,
tia_cnt_q : 0 ,
RX1 tia case :10,absolute value dc_i : -7 , value dc_q : 0 
RX1:reg0x12d8=0x4e31007f.
Q:reg0x12dc=0x4c31522d.
 RX1 :reg0x1130=0x522d4c31.
tia_cnt_i : 82 ,
tia_cnt_q : 0 ,
RX1 tia case :11,absolute value dc_i : -7 , value dc_q : 0 
RX1:reg0x12dc=0x4c31007f.
Q:reg0x12e0=0x4e31522d.
 RX1 :reg0x1130=0x522d4e31.
tia_cnt_i : 82 ,
tia_cnt_q : 0 ,
RX1 tia case :12,absolute value dc_i : -7 , value dc_q : 0 
RX1:reg0x12e0=0x4e31007f.
tia calibration end!
rx0 vga calibration begin
reg0x1120=0x3fc100.
vga case:1 pass.
RX0 vga case:1 ,absolute value dc_i_tmp : 1 , value dc_q_tmp : 1 ,I:reg0x1184=0x1f252319.   Q:reg0x11c0=0x1b1f2323.
vga case:2 pass.
RX0 vga case:2 ,absolute value dc_i_tmp : 1 , value dc_q_tmp : 0 ,I:reg0x1188=0x21272319.   Q:reg0x11c4=0x1b1f2525.
vga case:3 pass.
RX0 vga case:3 ,absolute value dc_i_tmp : 1 , value dc_q_tmp : 1 ,I:reg0x118c=0x21252117.   Q:reg0x11c8=0x1b1f2525.
vga case:4 pass.
RX0 vga case:4 ,absolute value dc_i_tmp : 0 , value dc_q_tmp : 0 ,I:reg0x1190=0x23272117.   Q:reg0x11cc=0x1d1f2525.
vga case:5 pass.
RX0 vga case:5 ,absolute value dc_i_tmp : 1 , value dc_q_tmp : 1 ,I:reg0x1194=0x21252319.   Q:reg0x11d0=0x1b1f2525.
vga case:6 pass.
RX0 vga case:6 ,absolute value dc_i_tmp : 1 , value dc_q_tmp : 0 ,I:reg0x1198=0x21252117.   Q:reg0x11d4=0x1d1f2323.
vga case:7 pass.
RX0 vga case:7 ,absolute value dc_i_tmp : 1 , value dc_q_tmp : 0 ,I:reg0x119c=0x23252117.   Q:reg0x11d8=0x1f1f2323.
vga case:8 pass.
RX0 vga case:8 ,absolute value dc_i_tmp : 1 , value dc_q_tmp : 1 ,I:reg0x11a0=0x21272117.   Q:reg0x11dc=0x211d2525.
vga case:9 pass.
RX0 vga case:9 ,absolute value dc_i_tmp : 1 , value dc_q_tmp : 1 ,I:reg0x11a4=0x25232317.   Q:reg0x11e0=0x211f2527.
vga case:10 pass.
RX0 vga case:10 ,absolute value dc_i_tmp : 0 , value dc_q_tmp : 1 ,I:reg0x11a8=0x21272317.   Q:reg0x11e4=0x211f2327.
vga case:11 pass.
RX0 vga case:11 ,absolute value dc_i_tmp : 0 , value dc_q_tmp : 1 ,I:reg0x11ac=0x27252517.   Q:reg0x11e8=0x1f1f2127.
vga case:12 pass.
RX0 vga case:12 ,absolute value dc_i_tmp : 1 , value dc_q_tmp : 0 ,I:reg0x11b0=0x291f2515.   Q:reg0x11ec=0x211b1f27.
vga case:13 pass.
RX0 vga case:13 ,absolute value dc_i_tmp : 1 , value dc_q_tmp : 1 ,I:reg0x11b4=0x2b1f2513.   Q:reg0x11f0=0x191f1f2b.
vga case:14 pass.
RX0 vga case:14 ,absolute value dc_i_tmp : 0 , value dc_q_tmp : 1 ,I:reg0x11b8=0x2d1d250f.   Q:reg0x11f4=0x1f0f1f2f.
rx1 vga calibration begin
rx1 vga case:1 pass.
RX1 vga case:1 ,absolute value dc_i_tmp : 8 , value dc_q_tmp : 2 ,I:reg0x11fc=0x1f212919. Q:reg0x1238=0x19131917.
rx1 vga case:2 pass.
RX1 vga case:2 ,absolute value dc_i_tmp : 8 , value dc_q_tmp : 1 ,I:reg0x1200=0x1f212919. Q:reg0x123c=0x19131715.
rx1 vga case:3 pass.
RX1 vga case:3 ,absolute value dc_i_tmp : 8 , value dc_q_tmp : 3 ,I:reg0x1204=0x1d1f2919. Q:reg0x1240=0x17131917.
rx1 vga case:4 pass.
RX1 vga case:4 ,absolute value dc_i_tmp : 8 , value dc_q_tmp : 2 ,I:reg0x1208=0x1d1f2919. Q:reg0x1244=0x19151917.
rx1 vga case:5 pass.
RX1 vga case:5 ,absolute value dc_i_tmp : 8 , value dc_q_tmp : 1 ,I:reg0x120c=0x1d1f2919. Q:reg0x1248=0x19151917.
rx1 vga case:6 pass.
RX1 vga case:6 ,absolute value dc_i_tmp : 8 , value dc_q_tmp : 1 ,I:reg0x1210=0x1f1f2919. Q:reg0x124c=0x19151917.
rx1 vga case:7 pass.
RX1 vga case:7 ,absolute value dc_i_tmp : 7 , value dc_q_tmp : 1 ,I:reg0x1214=0x211f2919. Q:reg0x1250=0x19171917.
rx1 vga case:8 pass.
RX1 vga case:8 ,absolute value dc_i_tmp : 8 , value dc_q_tmp : 1 ,I:reg0x1218=0x211d2b17. Q:reg0x1254=0x1b0f1915.
rx1 vga case:9 pass.
RX1 vga case:9 ,absolute value dc_i_tmp : 8 , value dc_q_tmp : 0 ,I:reg0x121c=0x231d2d13. Q:reg0x1258=0x1b131915.
rx1 vga case:10 pass.
RX1 vga case:10 ,absolute value dc_i_tmp : 8 , value dc_q_tmp : 1 ,I:reg0x1220=0x1f1f3111. Q:reg0x125c=0x1d0f1b15.
rx1 vga case:11 pass.
RX1 vga case:11 ,absolute value dc_i_tmp : 7 , value dc_q_tmp : 1 ,I:reg0x1224=0x1d1f350d. Q:reg0x1260=0x1b151b15.
rx1 vga case:12 pass.
RX1 vga case:12 ,absolute value dc_i_tmp : 8 , value dc_q_tmp : 0 ,I:reg0x1228=0x1f1f3907. Q:reg0x1264=0x21111b13.
rx1 vga case:13 pass.
RX1 vga case:13 ,absolute value dc_i_tmp : 8 , value dc_q_tmp : 0 ,I:reg0x122c=0x1d213f01. Q:reg0x1268=0x210f1d13.
rx1 vga case:14 pass.
RX1 vga case:14 ,absolute value dc_i_tmp : 1 , value dc_q_tmp : 1 ,I:reg0x1230=0x13f3f01. Q:reg0x126c=0x1d151d11.
reg0x1120=0x3c0100.
vga calibration end!
RX0: 0x103c : e0024000 ,0x1040 : 90001102 
RX1: 0x1054 : e0024000 ,0x1058 : 90001100 
THIS CASE J: 0 M: 9 
adc calibration begin
calibration begin
RX0 cali pre ,absolute value dc_i_tmp : 2 , value dc_q_tmp : 0 ,
reg0x1180=0x21272117.
reg0x11bc=0x1d212323.
RX1 cali pre ,absolute value dc_i_tmp : 0 , value dc_q_tmp : 3 ,reg0x11f8=0x1f211d23.
reg0x1234=0x19131517.
rx0 tia cali begin:
####:reg0x1270=0x44394439.
tia_cnt_i : 4 ,
tia_cnt_q : 0 ,
I:reg0x1150=0x21272117.
Q:reg0x1154=0x1d212323.
RX0 tia case :0,absolute value dc_i : -1 , value dc_q : -1 
####:reg0x1270=0x4439403d.
####:reg0x1274=0x423d4837.
tia_cnt_i : 15 ,
tia_cnt_q : 0 ,
I:reg0x1150=0x21272117.
Q:reg0x1154=0x1d212323.
RX0 tia case :1,absolute value dc_i : -1 , value dc_q : 0 
####:reg0x1274=0x423d3946.
####:reg0x1278=0x463b463b.
tia_cnt_i : 25 ,
tia_cnt_q : 0 ,
I:reg0x1150=0x21272117.
Q:reg0x1154=0x1d212323.
RX0 tia case :2,absolute value dc_i : -1 , value dc_q : 1 
####:reg0x1278=0x463b2d54.
####:reg0x127c=0x3e413e41.
tia_cnt_i : 46 ,
tia_cnt_q : 0 ,
I:reg0x1150=0x21272117.
Q:reg0x1154=0x1d212323.
RX0 tia case :3,absolute value dc_i : -1 , value dc_q : 1 
####:reg0x127c=0x3e41106f.
####:reg0x1280=0x3a453845.
tia_cnt_i : 56 ,
tia_cnt_q : 0 ,
I:reg0x1150=0x21272117.
Q:reg0x1154=0x1d212323.
RX0 tia case :4,absolute value dc_i : -4 , value dc_q : 1 
####:reg0x1280=0x3a45007d.
####:reg0x1284=0x38453847.
tia_cnt_i : 56 ,
tia_cnt_q : 0 ,
I:reg0x1150=0x21272117.
Q:reg0x1154=0x1d212323.
RX0 tia case :5,absolute value dc_i : -4 , value dc_q : 1 
####:reg0x1284=0x3845007f.
####:reg0x1288=0x38473649.
tia_cnt_i : 54 ,
tia_cnt_q : 0 ,
I:reg0x1150=0x21272117.
Q:reg0x1154=0x1d212323.
RX0 tia case :6,absolute value dc_i : -4 , value dc_q : 1 
####:reg0x1288=0x3847007f.
####:reg0x128c=0x38473649.
tia_cnt_i : 54 ,
tia_cnt_q : 0 ,
I:reg0x1150=0x21272117.
Q:reg0x1154=0x1d212323.
RX0 tia case :7,absolute value dc_i : -4 , value dc_q : 1 
####:reg0x128c=0x3847007f.
####:reg0x1290=0x36493649.
tia_cnt_i : 54 ,
tia_cnt_q : 0 ,
I:reg0x1150=0x21272117.
Q:reg0x1154=0x1d212323.
RX0 tia case :8,absolute value dc_i : -4 , value dc_q : 1 
####:reg0x1290=0x3649007f.
####:reg0x1294=0x3847364b.
tia_cnt_i : 52 ,
tia_cnt_q : 0 ,
I:reg0x1150=0x21272117.
Q:reg0x1154=0x1d212323.
RX0 tia case :9,absolute value dc_i : -4 , value dc_q : 1 
####:reg0x1294=0x3847027f.
####:reg0x1298=0x3649364b.
tia_cnt_i : 52 ,
tia_cnt_q : 0 ,
I:reg0x1150=0x21272117.
Q:reg0x1154=0x1d212323.
RX0 tia case :10,absolute value dc_i : -4 , value dc_q : 1 
####:reg0x1298=0x3649027f.
####:reg0x129c=0x3649364b.
tia_cnt_i : 52 ,
tia_cnt_q : 0 ,
I:reg0x1150=0x21272117.
Q:reg0x1154=0x1d212323.
RX0 tia case :11,absolute value dc_i : -4 , value dc_q : 1 
####:reg0x129c=0x3649027f.
####:reg0x12a0=0x3649364b.
tia_cnt_i : 52 ,
tia_cnt_q : 0 ,
I:reg0x1150=0x21272117.
Q:reg0x1154=0x1d212323.
RX0 tia case :12,absolute value dc_i : -4 , value dc_q : 1 
####:reg0x12a0=0x3649027f.
rx1 tia cali begin:
Q:reg0x12b0=0x5e23601d.
 RX1 :reg0x1130=0x601d5e23.
tia_cnt_i : 29 ,
tia_cnt_q : 65 ,
RX1 tia case :0,absolute value dc_i : 6 , value dc_q : -1 
RX1:reg0x12b0=0x7d647d00.
Q:reg0x12b4=0x5a25601f.
 RX1 :reg0x1130=0x601f5a25.
tia_cnt_i : 31 ,
tia_cnt_q : 0 ,
RX1 tia case :1,absolute value dc_i : 5 , value dc_q : -1 
RX1:reg0x12b4=0x5a257f00.
Q:reg0x12b8=0x5a255c21.
 RX1 :reg0x1130=0x5c215a25.
tia_cnt_i : 33 ,
tia_cnt_q : 61 ,
RX1 tia case :2,absolute value dc_i : 4 , value dc_q : -1 
RX1:reg0x12b8=0x7d627d00.
Q:reg0x12bc=0x58275a25.
 RX1 :reg0x1130=0x5a255827.
tia_cnt_i : 37 ,
tia_cnt_q : 58 ,
RX1 tia case :3,absolute value dc_i : 4 , value dc_q : -1 
RX1:reg0x12bc=0x7f617f00.
Q:reg0x12c0=0x54295629.
 RX1 :reg0x1130=0x56295429.
tia_cnt_i : 41 ,
tia_cnt_q : 68 ,
RX1 tia case :4,absolute value dc_i : 4 , value dc_q : -1 
RX1:reg0x12c0=0x7f6d7f00.
Q:reg0x12c4=0x502d5629.
 RX1 :reg0x1130=0x5629502d.
tia_cnt_i : 41 ,
tia_cnt_q : 68 ,
RX1 tia case :5,absolute value dc_i : 4 , value dc_q : -1 
RX1:reg0x12c4=0x7f717f00.
Q:reg0x12c8=0x502d5429.
 RX1 :reg0x1130=0x5429502d.
tia_cnt_i : 41 ,
tia_cnt_q : 55 ,
RX1 tia case :6,absolute value dc_i : 4 , value dc_q : -1 
RX1:reg0x12c8=0x7d647d00.
Q:reg0x12cc=0x4e31562b.
 RX1 :reg0x1130=0x562b4e31.
tia_cnt_i : 41 ,
tia_cnt_q : 64 ,
RX1 tia case :7,absolute value dc_i : 4 , value dc_q : -1 
RX1:reg0x12cc=0x7f717f02.
Q:reg0x12d0=0x502f542b.
 RX1 :reg0x1130=0x542b502f.
tia_cnt_i : 43 ,
tia_cnt_q : 4 ,
RX1 tia case :8,absolute value dc_i : 4 , value dc_q : -1 
RX1:reg0x12d0=0x7f337f00.
Q:reg0x12d4=0x4e31542b.
 RX1 :reg0x1130=0x542b4e31.
tia_cnt_i : 43 ,
tia_cnt_q : 74 ,
RX1 tia case :9,absolute value dc_i : 4 , value dc_q : -1 
RX1:reg0x12d4=0x7f7b7f00.
Q:reg0x12d8=0x4e31542b.
 RX1 :reg0x1130=0x542b4e31.
tia_cnt_i : 43 ,
tia_cnt_q : 24 ,
RX1 tia case :10,absolute value dc_i : 4 , value dc_q : -1 
RX1:reg0x12d8=0x7f497f00.
Q:reg0x12dc=0x4e31542b.
 RX1 :reg0x1130=0x542b4e31.
tia_cnt_i : 43 ,
tia_cnt_q : 2 ,
RX1 tia case :11,absolute value dc_i : 4 , value dc_q : -1 
RX1:reg0x12dc=0x7f337f00.
Q:reg0x12e0=0x4e31542b.
 RX1 :reg0x1130=0x542b4e31.
tia_cnt_i : 43 ,
tia_cnt_q : 4 ,
RX1 tia case :12,absolute value dc_i : 4 , value dc_q : -1 
RX1:reg0x12e0=0x7f357f00.
tia calibration end!
rx0 vga calibration begin
reg0x1120=0x3fc100.
vga case:1 pass.
RX0 vga case:1 ,absolute value dc_i_tmp : 4 , value dc_q_tmp : 1 ,I:reg0x1184=0x21272317.   Q:reg0x11c0=0x1d212323.
vga case:2 pass.
RX0 vga case:2 ,absolute value dc_i_tmp : 4 , value dc_q_tmp : 0 ,I:reg0x1188=0x21272317.   Q:reg0x11c4=0x1d212525.
vga case:3 pass.
RX0 vga case:3 ,absolute value dc_i_tmp : 3 , value dc_q_tmp : 1 ,I:reg0x118c=0x21252317.   Q:reg0x11c8=0x1d212323.
vga case:4 pass.
RX0 vga case:4 ,absolute value dc_i_tmp : 3 , value dc_q_tmp : 1 ,I:reg0x1190=0x23272317.   Q:reg0x11cc=0x1d212323.
vga case:5 pass.
RX0 vga case:5 ,absolute value dc_i_tmp : 3 , value dc_q_tmp : 1 ,I:reg0x1194=0x21252317.   Q:reg0x11d0=0x1d212323.
vga case:6 pass.
RX0 vga case:6 ,absolute value dc_i_tmp : 3 , value dc_q_tmp : 1 ,I:reg0x1198=0x23252317.   Q:reg0x11d4=0x1b212323.
vga case:7 pass.
RX0 vga case:7 ,absolute value dc_i_tmp : 3 , value dc_q_tmp : 0 ,I:reg0x119c=0x23252317.   Q:reg0x11d8=0x1b1f2323.
vga case:8 pass.
RX0 vga case:8 ,absolute value dc_i_tmp : 3 , value dc_q_tmp : 0 ,I:reg0x11a0=0x1f272317.   Q:reg0x11dc=0x211d2323.
vga case:9 pass.
RX0 vga case:9 ,absolute value dc_i_tmp : 3 , value dc_q_tmp : 1 ,I:reg0x11a4=0x23272315.   Q:reg0x11e0=0x1d212325.
vga case:10 pass.
RX0 vga case:10 ,absolute value dc_i_tmp : 2 , value dc_q_tmp : 1 ,I:reg0x11a8=0x25252515.   Q:reg0x11e4=0x231d2325.
vga case:11 pass.
RX0 vga case:11 ,absolute value dc_i_tmp : 2 , value dc_q_tmp : 0 ,I:reg0x11ac=0x25272513.   Q:reg0x11e8=0x211d2327.
vga case:12 pass.
RX0 vga case:12 ,absolute value dc_i_tmp : 2 , value dc_q_tmp : 0 ,I:reg0x11b0=0x271f2913.   Q:reg0x11ec=0x1d1f1f27.
vga case:13 pass.
RX0 vga case:13 ,absolute value dc_i_tmp : 1 , value dc_q_tmp : 1 ,I:reg0x11b4=0x311b290f.   Q:reg0x11f0=0x1d171d27.
vga case:14 pass.
RX0 vga case:14 ,absolute value dc_i_tmp : 2 , value dc_q_tmp : 1 ,I:reg0x11b8=0x1f232d0f.   Q:reg0x11f4=0x1f1f1d2d.
rx1 vga calibration begin
rx1 vga case:1 pass.
RX1 vga case:1 ,absolute value dc_i_tmp : 0 , value dc_q_tmp : 2 ,I:reg0x11fc=0x1f211925. Q:reg0x1238=0x1b131917.
rx1 vga case:2 pass.
RX1 vga case:2 ,absolute value dc_i_tmp : 0 , value dc_q_tmp : 3 ,I:reg0x1200=0x1d1f1925. Q:reg0x123c=0x1b131917.
rx1 vga case:3 pass.
RX1 vga case:3 ,absolute value dc_i_tmp : 0 , value dc_q_tmp : 3 ,I:reg0x1204=0x1d1f1925. Q:reg0x1240=0x1b131917.
rx1 vga case:4 pass.
RX1 vga case:4 ,absolute value dc_i_tmp : 1 , value dc_q_tmp : 4 ,I:reg0x1208=0x1d1f1925. Q:reg0x1244=0x19111917.
rx1 vga case:5 pass.
RX1 vga case:5 ,absolute value dc_i_tmp : 0 , value dc_q_tmp : 3 ,I:reg0x120c=0x1f1f1925. Q:reg0x1248=0x1b131917.
rx1 vga case:6 pass.
RX1 vga case:6 ,absolute value dc_i_tmp : 0 , value dc_q_tmp : 3 ,I:reg0x1210=0x1f1f1b27. Q:reg0x124c=0x1b131917.
rx1 vga case:7 pass.
RX1 vga case:7 ,absolute value dc_i_tmp : 0 , value dc_q_tmp : 2 ,I:reg0x1214=0x1f1d1b27. Q:reg0x1250=0x1b111917.
rx1 vga case:8 pass.
RX1 vga case:8 ,absolute value dc_i_tmp : 0 , value dc_q_tmp : 3 ,I:reg0x1218=0x211d1927. Q:reg0x1254=0x1b131917.
rx1 vga case:9 pass.
RX1 vga case:9 ,absolute value dc_i_tmp : 0 , value dc_q_tmp : 3 ,I:reg0x121c=0x1f1d1729. Q:reg0x1258=0x19151917.
rx1 vga case:10 pass.
RX1 vga case:10 ,absolute value dc_i_tmp : 0 , value dc_q_tmp : 3 ,I:reg0x1220=0x211d152b. Q:reg0x125c=0x17151715.
rx1 vga case:11 pass.
RX1 vga case:11 ,absolute value dc_i_tmp : 0 , value dc_q_tmp : 1 ,I:reg0x1224=0x1b250f2d. Q:reg0x1260=0x1d0f1915.
rx1 vga case:12 pass.
RX1 vga case:12 ,absolute value dc_i_tmp : 0 , value dc_q_tmp : 2 ,I:reg0x1228=0x211d0f31. Q:reg0x1264=0x1d131915.
rx1 vga case:13 pass.
RX1 vga case:13 ,absolute value dc_i_tmp : 0 , value dc_q_tmp : 2 ,I:reg0x122c=0x1b230935. Q:reg0x1268=0x19131915.
rx1 vga case:14 pass.
RX1 vga case:14 ,absolute value dc_i_tmp : 0 , value dc_q_tmp : 1 ,I:reg0x1230=0x231d013d. Q:reg0x126c=0x19111913.
reg0x1120=0x3c0100.
vga calibration end!
RX0: 0x103c : e0028000 ,0x1040 : a0001102 
RX1: 0x1054 : e0028000 ,0x1058 : a0001100 
THIS CASE J: 0 M:10 
adc calibration begin
calibration begin
RX0 cali pre ,absolute value dc_i_tmp : 3 , value dc_q_tmp : 2 ,
reg0x1180=0x21272319.
reg0x11bc=0x1d212525.
RX1 cali pre ,absolute value dc_i_tmp : 1 , value dc_q_tmp : 3 ,reg0x11f8=0x1d211d23.
reg0x1234=0x19131517.
rx0 tia cali begin:
####:reg0x1270=0x4837463b.
tia_cnt_i : 2 ,
tia_cnt_q : 1 ,
I:reg0x1150=0x21272319.
Q:reg0x1154=0x1d212525.
RX0 tia case :0,absolute value dc_i : -1 , value dc_q : -1 
####:reg0x1270=0x4438443d.
####:reg0x1274=0x443b4439.
tia_cnt_i : 11 ,
tia_cnt_q : 0 ,
I:reg0x1150=0x21272319.
Q:reg0x1154=0x1d212525.
RX0 tia case :1,absolute value dc_i : -1 , value dc_q : 0 
####:reg0x1274=0x443b3944.
####:reg0x1278=0x443b443b.
tia_cnt_i : 25 ,
tia_cnt_q : 0 ,
I:reg0x1150=0x21272319.
Q:reg0x1154=0x1d212525.
RX0 tia case :2,absolute value dc_i : -1 , value dc_q : 0 
####:reg0x1278=0x443b2b54.
####:reg0x127c=0x443b3e41.
tia_cnt_i : 39 ,
tia_cnt_q : 0 ,
I:reg0x1150=0x21272319.
Q:reg0x1154=0x1d212525.
RX0 tia case :3,absolute value dc_i : -1 , value dc_q : 1 
####:reg0x127c=0x443b1768.
####:reg0x1280=0x38453a47.
tia_cnt_i : 56 ,
tia_cnt_q : 0 ,
I:reg0x1150=0x21272319.
Q:reg0x1154=0x1d212525.
RX0 tia case :4,absolute value dc_i : -3 , value dc_q : 1 
####:reg0x1280=0x3845027f.
####:reg0x1284=0x3a453a47.
tia_cnt_i : 56 ,
tia_cnt_q : 0 ,
I:reg0x1150=0x21272319.
Q:reg0x1154=0x1d212525.
RX0 tia case :5,absolute value dc_i : -3 , value dc_q : 1 
####:reg0x1284=0x3a45027f.
####:reg0x1288=0x3a473649.
tia_cnt_i : 54 ,
tia_cnt_q : 0 ,
I:reg0x1150=0x21272319.
Q:reg0x1154=0x1d212525.
RX0 tia case :6,absolute value dc_i : -4 , value dc_q : 1 
####:reg0x1288=0x3a47007f.
####:reg0x128c=0x38473649.
tia_cnt_i : 54 ,
tia_cnt_q : 0 ,
I:reg0x1150=0x21272319.
Q:reg0x1154=0x1d212525.
RX0 tia case :7,absolute value dc_i : -4 , value dc_q : 1 
####:reg0x128c=0x3847007f.
####:reg0x1290=0x38473649.
tia_cnt_i : 54 ,
tia_cnt_q : 0 ,
I:reg0x1150=0x21272319.
Q:reg0x1154=0x1d212525.
RX0 tia case :8,absolute value dc_i : -4 , value dc_q : 1 
####:reg0x1290=0x3847007f.
####:reg0x1294=0x3649364b.
tia_cnt_i : 52 ,
tia_cnt_q : 0 ,
I:reg0x1150=0x21272319.
Q:reg0x1154=0x1d212525.
RX0 tia case :9,absolute value dc_i : -4 , value dc_q : 1 
####:reg0x1294=0x3649027f.
####:reg0x1298=0x36493449.
tia_cnt_i : 52 ,
tia_cnt_q : 0 ,
I:reg0x1150=0x21272319.
Q:reg0x1154=0x1d212525.
RX0 tia case :10,absolute value dc_i : -4 , value dc_q : 1 
####:reg0x1298=0x3649007d.
####:reg0x129c=0x3649344b.
tia_cnt_i : 52 ,
tia_cnt_q : 0 ,
I:reg0x1150=0x21272319.
Q:reg0x1154=0x1d212525.
RX0 tia case :11,absolute value dc_i : -4 , value dc_q : 0 
####:reg0x129c=0x3649007f.
####:reg0x12a0=0x3649364b.
tia_cnt_i : 52 ,
tia_cnt_q : 0 ,
I:reg0x1150=0x21272319.
Q:reg0x1154=0x1d212525.
RX0 tia case :12,absolute value dc_i : -4 , value dc_q : 1 
####:reg0x12a0=0x3649027f.
rx1 tia cali begin:
Q:reg0x12b0=0x5e23621d.
 RX1 :reg0x1130=0x621d5e23.
tia_cnt_i : 29 ,
tia_cnt_q : 72 ,
RX1 tia case :0,absolute value dc_i : 5 , value dc_q : -1 
RX1:reg0x12b0=0x7f6b7f00.
Q:reg0x12b4=0x5a255e21.
 RX1 :reg0x1130=0x5e215a25.
tia_cnt_i : 33 ,
tia_cnt_q : 69 ,
RX1 tia case :1,absolute value dc_i : 4 , value dc_q : -1 
RX1:reg0x12b4=0x7f6a7f00.
Q:reg0x12b8=0x5a255c21.
 RX1 :reg0x1130=0x5c215a25.
tia_cnt_i : 33 ,
tia_cnt_q : 62 ,
RX1 tia case :2,absolute value dc_i : 3 , value dc_q : -1 
RX1:reg0x12b8=0x7d637d00.
Q:reg0x12bc=0x56295825.
 RX1 :reg0x1130=0x58255629.
tia_cnt_i : 37 ,
tia_cnt_q : 78 ,
RX1 tia case :3,absolute value dc_i : 3 , value dc_q : -1 
RX1:reg0x12bc=0x7d777d00.
Q:reg0x12c0=0x562b5827.
 RX1 :reg0x1130=0x5827562b.
tia_cnt_i : 39 ,
tia_cnt_q : 84 ,
RX1 tia case :4,absolute value dc_i : 3 , value dc_q : -2 
RX1:reg0x12c0=0x7f7f7f00.
Q:reg0x12c4=0x522d562b.
 RX1 :reg0x1130=0x562b522d.
tia_cnt_i : 41 ,
tia_cnt_q : 78 ,
RX1 tia case :5,absolute value dc_i : 3 , value dc_q : -1 
RX1:reg0x12c4=0x7f7b7f02.
Q:reg0x12c8=0x502d562b.
 RX1 :reg0x1130=0x562b502d.
tia_cnt_i : 41 ,
tia_cnt_q : 82 ,
RX1 tia case :6,absolute value dc_i : 2 , value dc_q : -2 
RX1:reg0x12c8=0x7f7f7f02.
Q:reg0x12cc=0x502d562b.
 RX1 :reg0x1130=0x562b502d.
tia_cnt_i : 41 ,
tia_cnt_q : 76 ,
RX1 tia case :7,absolute value dc_i : 2 , value dc_q : -1 
RX1:reg0x12cc=0x7f797f02.
Q:reg0x12d0=0x4e31522d.
 RX1 :reg0x1130=0x522d4e31.
tia_cnt_i : 45 ,
tia_cnt_q : 14 ,
RX1 tia case :8,absolute value dc_i : 3 , value dc_q : -1 
RX1:reg0x12d0=0x7f3f7f00.
Q:reg0x12d4=0x4e31522d.
 RX1 :reg0x1130=0x522d4e31.
tia_cnt_i : 45 ,
tia_cnt_q : 22 ,
RX1 tia case :9,absolute value dc_i : 3 , value dc_q : -1 
RX1:reg0x12d4=0x7f477f00.
Q:reg0x12d8=0x4c31522d.
 RX1 :reg0x1130=0x522d4c31.
tia_cnt_i : 45 ,
tia_cnt_q : 0 ,
RX1 tia case :10,absolute value dc_i : 3 , value dc_q : -1 
RX1:reg0x12d8=0x4c317f00.
Q:reg0x12dc=0x4e31542b.
 RX1 :reg0x1130=0x542b4e31.
tia_cnt_i : 43 ,
tia_cnt_q : 69 ,
RX1 tia case :11,absolute value dc_i : 3 , value dc_q : -1 
RX1:reg0x12dc=0x7f767f00.
Q:reg0x12e0=0x4c31542b.
 RX1 :reg0x1130=0x542b4c31.
tia_cnt_i : 43 ,
tia_cnt_q : 54 ,
RX1 tia case :12,absolute value dc_i : 2 , value dc_q : -1 
RX1:reg0x12e0=0x7f677f00.
tia calibration end!
rx0 vga calibration begin
reg0x1120=0x3fc100.
vga case:1 pass.
RX0 vga case:1 ,absolute value dc_i_tmp : 3 , value dc_q_tmp : 1 ,I:reg0x1184=0x21252317.   Q:reg0x11c0=0x1d212323.
vga case:2 pass.
RX0 vga case:2 ,absolute value dc_i_tmp : 3 , value dc_q_tmp : 1 ,I:reg0x1188=0x23272317.   Q:reg0x11c4=0x1d212323.
vga case:3 pass.
RX0 vga case:3 ,absolute value dc_i_tmp : 3 , value dc_q_tmp : 1 ,I:reg0x118c=0x1f272117.   Q:reg0x11c8=0x1d212323.
vga case:4 pass.
RX0 vga case:4 ,absolute value dc_i_tmp : 2 , value dc_q_tmp : 2 ,I:reg0x1190=0x23252317.   Q:reg0x11cc=0x1d212323.
vga case:5 pass.
RX0 vga case:5 ,absolute value dc_i_tmp : 2 , value dc_q_tmp : 2 ,I:reg0x1194=0x1f272117.   Q:reg0x11d0=0x1d212323.
vga case:6 pass.
RX0 vga case:6 ,absolute value dc_i_tmp : 3 , value dc_q_tmp : 1 ,I:reg0x1198=0x1d272117.   Q:reg0x11d4=0x1d1f2323.
vga case:7 pass.
RX0 vga case:7 ,absolute value dc_i_tmp : 2 , value dc_q_tmp : 1 ,I:reg0x119c=0x25232317.   Q:reg0x11d8=0x1d1f2323.
vga case:8 pass.
RX0 vga case:8 ,absolute value dc_i_tmp : 2 , value dc_q_tmp : 2 ,I:reg0x11a0=0x21252317.   Q:reg0x11dc=0x211d2323.
vga case:9 pass.
RX0 vga case:9 ,absolute value dc_i_tmp : 2 , value dc_q_tmp : 1 ,I:reg0x11a4=0x25232517.   Q:reg0x11e0=0x1d1f2325.
vga case:10 pass.
RX0 vga case:10 ,absolute value dc_i_tmp : 1 , value dc_q_tmp : 1 ,I:reg0x11a8=0x21272315.   Q:reg0x11e4=0x1f252125.
vga case:11 pass.
RX0 vga case:11 ,absolute value dc_i_tmp : 1 , value dc_q_tmp : 0 ,I:reg0x11ac=0x271f2513.   Q:reg0x11e8=0x1f252127.
vga case:12 pass.
RX0 vga case:12 ,absolute value dc_i_tmp : 2 , value dc_q_tmp : 1 ,I:reg0x11b0=0x21272513.   Q:reg0x11ec=0x1f1f1f27.
vga case:13 pass.
RX0 vga case:13 ,absolute value dc_i_tmp : 3 , value dc_q_tmp : 1 ,I:reg0x11b4=0x232d2511.   Q:reg0x11f0=0x1f1f212b.
vga case:14 pass.
RX0 vga case:14 ,absolute value dc_i_tmp : 1 , value dc_q_tmp : 0 ,I:reg0x11b8=0x2127290f.   Q:reg0x11f4=0x19171d2d.
rx1 vga calibration begin
rx1 vga case:1 pass.
RX1 vga case:1 ,absolute value dc_i_tmp : 0 , value dc_q_tmp : 4 ,I:reg0x11fc=0x1d1f1925. Q:reg0x1238=0x19131917.
rx1 vga case:2 pass.
RX1 vga case:2 ,absolute value dc_i_tmp : 0 , value dc_q_tmp : 4 ,I:reg0x1200=0x1d1f1925. Q:reg0x123c=0x19131715.
rx1 vga case:3 pass.
RX1 vga case:3 ,absolute value dc_i_tmp : 0 , value dc_q_tmp : 4 ,I:reg0x1204=0x1d1f1b27. Q:reg0x1240=0x19131917.
rx1 vga case:4 pass.
RX1 vga case:4 ,absolute value dc_i_tmp : 1 , value dc_q_tmp : 3 ,I:reg0x1208=0x1d1f1925. Q:reg0x1244=0x19131917.
rx1 vga case:5 pass.
RX1 vga case:5 ,absolute value dc_i_tmp : 0 , value dc_q_tmp : 3 ,I:reg0x120c=0x1f1f1b27. Q:reg0x1248=0x19131917.
rx1 vga case:6 pass.
RX1 vga case:6 ,absolute value dc_i_tmp : 0 , value dc_q_tmp : 3 ,I:reg0x1210=0x1f1f1b27. Q:reg0x124c=0x19131917.
rx1 vga case:7 pass.
RX1 vga case:7 ,absolute value dc_i_tmp : 0 , value dc_q_tmp : 3 ,I:reg0x1214=0x211d1925. Q:reg0x1250=0x19131917.
rx1 vga case:8 pass.
RX1 vga case:8 ,absolute value dc_i_tmp : 1 , value dc_q_tmp : 2 ,I:reg0x1218=0x1b211727. Q:reg0x1254=0x19151917.
rx1 vga case:9 pass.
RX1 vga case:9 ,absolute value dc_i_tmp : 0 , value dc_q_tmp : 3 ,I:reg0x121c=0x211d1729. Q:reg0x1258=0x1d0f1915.
rx1 vga case:10 pass.
RX1 vga case:10 ,absolute value dc_i_tmp : 0 , value dc_q_tmp : 3 ,I:reg0x1220=0x1d25132b. Q:reg0x125c=0x1d131915.
rx1 vga case:11 pass.
RX1 vga case:11 ,absolute value dc_i_tmp : 0 , value dc_q_tmp : 2 ,I:reg0x1224=0x1b23112f. Q:reg0x1260=0x19151915.
rx1 vga case:12 pass.
RX1 vga case:12 ,absolute value dc_i_tmp : 0 , value dc_q_tmp : 2 ,I:reg0x1228=0x1b230d31. Q:reg0x1264=0x1d111b15.
rx1 vga case:13 pass.
RX1 vga case:13 ,absolute value dc_i_tmp : 0 , value dc_q_tmp : 2 ,I:reg0x122c=0x1d210935. Q:reg0x1268=0x19151b15.
rx1 vga case:14 pass.
RX1 vga case:14 ,absolute value dc_i_tmp : 0 , value dc_q_tmp : 2 ,I:reg0x1230=0x271b013d. Q:reg0x126c=0x190d1d13.
reg0x1120=0x3c0100.
vga calibration end!
RX0: 0x103c : e002c000 ,0x1040 : b0001102 
RX1: 0x1054 : e002c000 ,0x1058 : b0001100 
THIS CASE J: 0 M:11 
adc calibration begin
calibration begin
