
read pll state:0x77 
pll state:0x0000007F! 
RX0: 0x103c : e0000000 ,0x1040 :        0 
RX1: 0x1054 : e0000000 ,0x1058 : 0 
THIS CASE J: 0 M: 0 
adc calibration begin
calibration begin
RX0 cali pre ,absolute value dc_i_tmp : 1 , value dc_q_tmp : 1 ,
reg0x1180=0x27272323.
reg0x11bc=0x29272121.
RX1 cali pre ,absolute value dc_i_tmp : 9 , value dc_q_tmp : 1 ,reg0x11f8=0x292b2527.
reg0x1234=0x2725251d.
rx0 tia cali begin:
####:reg0x1270=0x5e216815.
tia_cnt_i : 20 ,
tia_cnt_q : 0 ,
I:reg0x1150=0x27272323.
Q:reg0x1154=0x29272121.
RX0 tia case :0,absolute value dc_i : -1 , value dc_q : -1 
####:reg0x1270=0x5e215429.
####:reg0x1274=0x5e216817.
tia_cnt_i : 17 ,
tia_cnt_q : 0 ,
I:reg0x1150=0x27272323.
Q:reg0x1154=0x29272121.
RX0 tia case :1,absolute value dc_i : -1 , value dc_q : 0 
####:reg0x1274=0x5e215728.
####:reg0x1278=0x5e236619.
tia_cnt_i : 11 ,
tia_cnt_q : 0 ,
I:reg0x1150=0x27272323.
Q:reg0x1154=0x29272121.
RX0 tia case :2,absolute value dc_i : -1 , value dc_q : 1 
####:reg0x1278=0x5e235b24.
####:reg0x127c=0x5827621d.
tia_cnt_i : 2 ,
tia_cnt_q : 0 ,
I:reg0x1150=0x27272323.
Q:reg0x1154=0x29272121.
RX0 tia case :3,absolute value dc_i : -1 , value dc_q : 1 
####:reg0x127c=0x5827601f.
####:reg0x1280=0x4c33542b.
tia_cnt_i : 0 ,
tia_cnt_q : 0 ,
I:reg0x1150=0x27272323.
Q:reg0x1154=0x29272121.
RX0 tia case :4,absolute value dc_i : 0 , value dc_q : 1 
####:reg0x1280=0x4c33542b.
####:reg0x1284=0x4a35522d.
tia_cnt_i : 0 ,
tia_cnt_q : 0 ,
I:reg0x1150=0x27272323.
Q:reg0x1154=0x29272121.
RX0 tia case :5,absolute value dc_i : 0 , value dc_q : 1 
####:reg0x1284=0x4a35522d.
####:reg0x1288=0x4a35502f.
tia_cnt_i : 0 ,
tia_cnt_q : 0 ,
I:reg0x1150=0x27272323.
Q:reg0x1154=0x29272121.
RX0 tia case :6,absolute value dc_i : 0 , value dc_q : 1 
####:reg0x1288=0x4a35502f.
####:reg0x128c=0x4a354e31.
tia_cnt_i : 0 ,
tia_cnt_q : 0 ,
I:reg0x1150=0x27272323.
Q:reg0x1154=0x29272121.
RX0 tia case :7,absolute value dc_i : 0 , value dc_q : 1 
####:reg0x128c=0x4a354e31.
####:reg0x1290=0x46394837.
tia_cnt_i : 0 ,
tia_cnt_q : 0 ,
I:reg0x1150=0x27272323.
Q:reg0x1154=0x29272121.
RX0 tia case :8,absolute value dc_i : 0 , value dc_q : 1 
####:reg0x1290=0x46394837.
####:reg0x1294=0x46394837.
tia_cnt_i : 0 ,
tia_cnt_q : 0 ,
I:reg0x1150=0x27272323.
Q:reg0x1154=0x29272121.
RX0 tia case :9,absolute value dc_i : 0 , value dc_q : 1 
####:reg0x1294=0x46394837.
####:reg0x1298=0x46394a37.
tia_cnt_i : 0 ,
tia_cnt_q : 0 ,
I:reg0x1150=0x27272323.
Q:reg0x1154=0x29272121.
RX0 tia case :10,absolute value dc_i : 0 , value dc_q : 1 
####:reg0x1298=0x46394a37.
####:reg0x129c=0x46394835.
tia_cnt_i : 0 ,
tia_cnt_q : 1 ,
I:reg0x1150=0x27272323.
Q:reg0x1154=0x29272121.
RX0 tia case :11,absolute value dc_i : 0 , value dc_q : 1 
####:reg0x129c=0x48384835.
####:reg0x12a0=0x46394837.
tia_cnt_i : 0 ,
tia_cnt_q : 0 ,
I:reg0x1150=0x27272323.
Q:reg0x1154=0x29272121.
RX0 tia case :12,absolute value dc_i : 0 , value dc_q : 1 
####:reg0x12a0=0x46394837.
rx1 tia cali begin:
Q:reg0x12b0=0x4a354a35.
 RX1 :reg0x1130=0x4a354a35.
tia_cnt_i : 74 ,
tia_cnt_q : 0 ,
RX1 tia case :0,absolute value dc_i : -9 , value dc_q : -1 
RX1:reg0x12b0=0x4a35007f.
Q:reg0x12b4=0x4a374835.
 RX1 :reg0x1130=0x48354a37.
tia_cnt_i : 72 ,
tia_cnt_q : 23 ,
RX1 tia case :1,absolute value dc_i : -9 , value dc_q : 1 
RX1:reg0x12b4=0x22007d.
Q:reg0x12b8=0x46394837.
 RX1 :reg0x1130=0x48374639.
tia_cnt_i : 72 ,
tia_cnt_q : 1 ,
RX1 tia case :2,absolute value dc_i : -9 , value dc_q : 1 
RX1:reg0x12b8=0x3a007f.
Q:reg0x12bc=0x46394639.
 RX1 :reg0x1130=0x46394639.
tia_cnt_i : 70 ,
tia_cnt_q : 1 ,
RX1 tia case :3,absolute value dc_i : -8 , value dc_q : 0 
RX1:reg0x12bc=0x3a007f.
Q:reg0x12c0=0x3e41463b.
 RX1 :reg0x1130=0x463b3e41.
tia_cnt_i : 68 ,
tia_cnt_q : 1 ,
RX1 tia case :4,absolute value dc_i : -8 , value dc_q : -1 
RX1:reg0x12c0=0x242027f.
Q:reg0x12c4=0x3c433e43.
 RX1 :reg0x1130=0x3e433c43.
tia_cnt_i : 60 ,
tia_cnt_q : 1 ,
RX1 tia case :5,absolute value dc_i : -8 , value dc_q : -1 
RX1:reg0x12c4=0x244027f.
Q:reg0x12c8=0x3e433c43.
 RX1 :reg0x1130=0x3c433e43.
tia_cnt_i : 60 ,
tia_cnt_q : 1 ,
RX1 tia case :6,absolute value dc_i : -8 , value dc_q : -1 
RX1:reg0x12c8=0x44007f.
Q:reg0x12cc=0x3c433a45.
 RX1 :reg0x1130=0x3a453c43.
tia_cnt_i : 58 ,
tia_cnt_q : 1 ,
RX1 tia case :7,absolute value dc_i : -9 , value dc_q : -1 
RX1:reg0x12cc=0x44007f.
Q:reg0x12d0=0x36493847.
 RX1 :reg0x1130=0x38473649.
tia_cnt_i : 56 ,
tia_cnt_q : 1 ,
RX1 tia case :8,absolute value dc_i : -8 , value dc_q : -1 
RX1:reg0x12d0=0x4a007f.
Q:reg0x12d4=0x38453845.
 RX1 :reg0x1130=0x38453845.
tia_cnt_i : 56 ,
tia_cnt_q : 1 ,
RX1 tia case :9,absolute value dc_i : -8 , value dc_q : -2 
RX1:reg0x12d4=0x46007d.
Q:reg0x12d8=0x38453a45.
 RX1 :reg0x1130=0x3a453845.
tia_cnt_i : 58 ,
tia_cnt_q : 1 ,
RX1 tia case :10,absolute value dc_i : -9 , value dc_q : -2 
RX1:reg0x12d8=0x46007f.
Q:reg0x12dc=0x38453847.
 RX1 :reg0x1130=0x38473845.
tia_cnt_i : 56 ,
tia_cnt_q : 1 ,
RX1 tia case :11,absolute value dc_i : -8 , value dc_q : -1 
RX1:reg0x12dc=0x46007f.
Q:reg0x12e0=0x38453847.
 RX1 :reg0x1130=0x38473845.
tia_cnt_i : 56 ,
tia_cnt_q : 1 ,
RX1 tia case :12,absolute value dc_i : -7 , value dc_q : -1 
RX1:reg0x12e0=0x46007f.
tia calibration end!
rx0 vga calibration begin
reg0x1120=0x3fc100.
vga case:1 pass.
RX0 vga case:1 ,absolute value dc_i_tmp : 0 , value dc_q_tmp : 1 ,I:reg0x1184=0x25272123.   Q:reg0x11c0=0x29271f21.
vga case:2 pass.
RX0 vga case:2 ,absolute value dc_i_tmp : 1 , value dc_q_tmp : 1 ,I:reg0x1188=0x27252323.   Q:reg0x11c4=0x29271f21.
vga case:3 pass.
RX0 vga case:3 ,absolute value dc_i_tmp : 1 , value dc_q_tmp : 1 ,I:reg0x118c=0x23272123.   Q:reg0x11c8=0x29271f21.
vga case:4 pass.
RX0 vga case:4 ,absolute value dc_i_tmp : 1 , value dc_q_tmp : 1 ,I:reg0x1190=0x27252323.   Q:reg0x11cc=0x29232121.
vga case:5 pass.
RX0 vga case:5 ,absolute value dc_i_tmp : 1 , value dc_q_tmp : 1 ,I:reg0x1194=0x21272123.   Q:reg0x11d0=0x29232121.
vga case:6 pass.
RX0 vga case:6 ,absolute value dc_i_tmp : 1 , value dc_q_tmp : 0 ,I:reg0x1198=0x23292123.   Q:reg0x11d4=0x2b232121.
vga case:7 pass.
RX0 vga case:7 ,absolute value dc_i_tmp : 1 , value dc_q_tmp : 1 ,I:reg0x119c=0x29232323.   Q:reg0x11d8=0x2d232121.
vga case:8 pass.
RX0 vga case:8 ,absolute value dc_i_tmp : 1 , value dc_q_tmp : 1 ,I:reg0x11a0=0x21272325.   Q:reg0x11dc=0x29252123.
vga case:9 pass.
RX0 vga case:9 ,absolute value dc_i_tmp : 1 , value dc_q_tmp : 1 ,I:reg0x11a4=0x25272325.   Q:reg0x11e0=0x29231f23.
vga case:10 pass.
RX0 vga case:10 ,absolute value dc_i_tmp : 0 , value dc_q_tmp : 0 ,I:reg0x11a8=0x29272325.   Q:reg0x11e4=0x29251d23.
vga case:11 pass.
RX0 vga case:11 ,absolute value dc_i_tmp : 1 , value dc_q_tmp : 1 ,I:reg0x11ac=0x27232325.   Q:reg0x11e8=0x2d251d25.
vga case:12 pass.
RX0 vga case:12 ,absolute value dc_i_tmp : 1 , value dc_q_tmp : 1 ,I:reg0x11b0=0x21272125.   Q:reg0x11ec=0x2b231d27.
vga case:13 pass.
RX0 vga case:13 ,absolute value dc_i_tmp : 0 , value dc_q_tmp : 1 ,I:reg0x11b4=0x25252125.   Q:reg0x11f0=0x2b231927.
vga case:14 pass.
RX0 vga case:14 ,absolute value dc_i_tmp : 1 , value dc_q_tmp : 1 ,I:reg0x11b8=0x27272127.   Q:reg0x11f4=0x2923172d.
rx1 vga calibration begin
rx1 vga case:1 pass.
RX1 vga case:1 ,absolute value dc_i_tmp : 9 , value dc_q_tmp : 2 ,I:reg0x11fc=0x27292d21. Q:reg0x1238=0x2525231d.
rx1 vga case:2 pass.
RX1 vga case:2 ,absolute value dc_i_tmp : 8 , value dc_q_tmp : 1 ,I:reg0x1200=0x292b2b1f. Q:reg0x123c=0x2323231d.
rx1 vga case:3 pass.
RX1 vga case:3 ,absolute value dc_i_tmp : 8 , value dc_q_tmp : 1 ,I:reg0x1204=0x27292b1f. Q:reg0x1240=0x2323231d.
rx1 vga case:4 pass.
RX1 vga case:4 ,absolute value dc_i_tmp : 8 , value dc_q_tmp : 0 ,I:reg0x1208=0x27292b1f. Q:reg0x1244=0x2523211b.
rx1 vga case:5 pass.
RX1 vga case:5 ,absolute value dc_i_tmp : 8 , value dc_q_tmp : 0 ,I:reg0x120c=0x27292b1f. Q:reg0x1248=0x2323231d.
rx1 vga case:6 pass.
RX1 vga case:6 ,absolute value dc_i_tmp : 8 , value dc_q_tmp : 0 ,I:reg0x1210=0x27292b1f. Q:reg0x124c=0x2323231d.
rx1 vga case:7 pass.
RX1 vga case:7 ,absolute value dc_i_tmp : 8 , value dc_q_tmp : 0 ,I:reg0x1214=0x292b2b1f. Q:reg0x1250=0x2525231d.
rx1 vga case:8 pass.
RX1 vga case:8 ,absolute value dc_i_tmp : 7 , value dc_q_tmp : 0 ,I:reg0x1218=0x29292d1d. Q:reg0x1254=0x2325231d.
rx1 vga case:9 pass.
RX1 vga case:9 ,absolute value dc_i_tmp : 8 , value dc_q_tmp : 0 ,I:reg0x121c=0x27292f1b. Q:reg0x1258=0x2527231d.
rx1 vga case:10 pass.
RX1 vga case:10 ,absolute value dc_i_tmp : 7 , value dc_q_tmp : 0 ,I:reg0x1220=0x29293319. Q:reg0x125c=0x2327231d.
rx1 vga case:11 pass.
RX1 vga case:11 ,absolute value dc_i_tmp : 7 , value dc_q_tmp : 0 ,I:reg0x1224=0x2b273715. Q:reg0x1260=0x2921231b.
rx1 vga case:12 pass.
RX1 vga case:12 ,absolute value dc_i_tmp : 7 , value dc_q_tmp : 0 ,I:reg0x1228=0x2d253b11. Q:reg0x1264=0x2721251d.
rx1 vga case:13 pass.
RX1 vga case:13 ,absolute value dc_i_tmp : 6 , value dc_q_tmp : 0 ,I:reg0x122c=0x232d3f0d. Q:reg0x1268=0x2523231b.
rx1 vga case:14 pass.
RX1 vga case:14 ,absolute value dc_i_tmp : 2 , value dc_q_tmp : 0 ,I:reg0x1230=0x13f3f01. Q:reg0x126c=0x2b1d251b.
reg0x1120=0x3c0100.
vga calibration end!
RX0: 0x103c : e0004000 ,0x1040 : 10001102 
RX1: 0x1054 : e0004000 ,0x1058 : 10001100 
THIS CASE J: 0 M: 1 
adc calibration begin
calibration begin
RX0 cali pre ,absolute value dc_i_tmp : 8 , value dc_q_tmp : 9 ,
reg0x1180=0x27271f25.
reg0x11bc=0x29252121.
RX1 cali pre ,absolute value dc_i_tmp : 15 , value dc_q_tmp : 2 ,reg0x11f8=0x292b2527.
reg0x1234=0x2725231b.
rx0 tia cali begin:
####:reg0x1270=0x621f6a15.
tia_cnt_i : 98 ,
tia_cnt_q : 96 ,
I:reg0x1150=0x27271f25.
Q:reg0x1154=0x29252121.
RX0 tia case :0,absolute value dc_i : -1 , value dc_q : -9 
####:reg0x1270=0x87f0877.
####:reg0x1274=0x5c21621d.
tia_cnt_i : 98 ,
tia_cnt_q : 1 ,
I:reg0x1150=0x27271f25.
Q:reg0x1154=0x29252121.
RX0 tia case :1,absolute value dc_i : -6 , value dc_q : -7 
####:reg0x1274=0x22007f.
####:reg0x1278=0x5a27621f.
tia_cnt_i : 96 ,
tia_cnt_q : 88 ,
I:reg0x1150=0x27271f25.
Q:reg0x1154=0x29252121.
RX0 tia case :2,absolute value dc_i : -6 , value dc_q : -7 
####:reg0x1278=0x27f027f.
####:reg0x127c=0x56295c23.
tia_cnt_i : 92 ,
tia_cnt_q : 1 ,
I:reg0x1150=0x27271f25.
Q:reg0x1154=0x29252121.
RX0 tia case :3,absolute value dc_i : -5 , value dc_q : -7 
####:reg0x127c=0x2a007f.
####:reg0x1280=0x4c33522f.
tia_cnt_i : 80 ,
tia_cnt_q : 76 ,
I:reg0x1150=0x27271f25.
Q:reg0x1154=0x29252121.
RX0 tia case :4,absolute value dc_i : -5 , value dc_q : -8 
####:reg0x1280=0x27f027f.
####:reg0x1284=0x4e33522d.
tia_cnt_i : 82 ,
tia_cnt_q : 1 ,
I:reg0x1150=0x27271f25.
Q:reg0x1154=0x29252121.
RX0 tia case :5,absolute value dc_i : -6 , value dc_q : -8 
####:reg0x1284=0x34007f.
####:reg0x1288=0x48354e31.
tia_cnt_i : 78 ,
tia_cnt_q : 1 ,
I:reg0x1150=0x27271f25.
Q:reg0x1154=0x29252121.
RX0 tia case :6,absolute value dc_i : -5 , value dc_q : -8 
####:reg0x1288=0x36007f.
####:reg0x128c=0x4a374e33.
tia_cnt_i : 76 ,
tia_cnt_q : 72 ,
I:reg0x1150=0x27271f25.
Q:reg0x1154=0x29252121.
RX0 tia case :7,absolute value dc_i : -5 , value dc_q : -8 
####:reg0x128c=0x27f027f.
####:reg0x1290=0x46394639.
tia_cnt_i : 70 ,
tia_cnt_q : 1 ,
I:reg0x1150=0x27271f25.
Q:reg0x1154=0x29252121.
RX0 tia case :8,absolute value dc_i : -5 , value dc_q : -7 
####:reg0x1290=0x3a007f.
####:reg0x1294=0x44394639.
tia_cnt_i : 70 ,
tia_cnt_q : 1 ,
I:reg0x1150=0x27271f25.
Q:reg0x1154=0x29252121.
RX0 tia case :9,absolute value dc_i : -5 , value dc_q : -8 
####:reg0x1294=0x3a007f.
####:reg0x1298=0x46394a37.
tia_cnt_i : 72 ,
tia_cnt_q : 70 ,
I:reg0x1150=0x27271f25.
Q:reg0x1154=0x29252121.
RX0 tia case :10,absolute value dc_i : -5 , value dc_q : -9 
####:reg0x1298=0x27f027f.
####:reg0x129c=0x46394837.
tia_cnt_i : 72 ,
tia_cnt_q : 1 ,
I:reg0x1150=0x27271f25.
Q:reg0x1154=0x29252121.
RX0 tia case :11,absolute value dc_i : -5 , value dc_q : -8 
####:reg0x129c=0x3a007f.
####:reg0x12a0=0x463b4639.
tia_cnt_i : 70 ,
tia_cnt_q : 1 ,
I:reg0x1150=0x27271f25.
Q:reg0x1154=0x29252121.
RX0 tia case :12,absolute value dc_i : -5 , value dc_q : -8 
####:reg0x12a0=0x3c007f.
rx1 tia cali begin:
Q:reg0x12b0=0x48354c33.
 RX1 :reg0x1130=0x4c334835.
tia_cnt_i : 76 ,
tia_cnt_q : 34 ,
RX1 tia case :0,absolute value dc_i : -16 , value dc_q : 1 
RX1:reg0x12b0=0x15007f.
Q:reg0x12b4=0x48374a37.
 RX1 :reg0x1130=0x4a374837.
tia_cnt_i : 72 ,
tia_cnt_q : 1 ,
RX1 tia case :1,absolute value dc_i : -16 , value dc_q : 1 
RX1:reg0x12b4=0x238027f.
Q:reg0x12b8=0x48374639.
 RX1 :reg0x1130=0x46394837.
tia_cnt_i : 70 ,
tia_cnt_q : 1 ,
RX1 tia case :2,absolute value dc_i : -16 , value dc_q : 0 
RX1:reg0x12b8=0x38007f.
Q:reg0x12bc=0x48374639.
 RX1 :reg0x1130=0x46394837.
tia_cnt_i : 70 ,
tia_cnt_q : 1 ,
RX1 tia case :3,absolute value dc_i : -16 , value dc_q : -1 
RX1:reg0x12bc=0x38007f.
Q:reg0x12c0=0x44393e41.
 RX1 :reg0x1130=0x3e414439.
tia_cnt_i : 62 ,
tia_cnt_q : 1 ,
RX1 tia case :4,absolute value dc_i : -16 , value dc_q : -2 
RX1:reg0x12c0=0x3a007f.
Q:reg0x12c4=0x3e433e43.
 RX1 :reg0x1130=0x3e433e43.
tia_cnt_i : 60 ,
tia_cnt_q : 16 ,
RX1 tia case :5,absolute value dc_i : -16 , value dc_q : -1 
RX1:reg0x12c4=0x253027f.
Q:reg0x12c8=0x3e433e43.
 RX1 :reg0x1130=0x3e433e43.
tia_cnt_i : 60 ,
tia_cnt_q : 33 ,
RX1 tia case :6,absolute value dc_i : -16 , value dc_q : -1 
RX1:reg0x12c8=0x264027f.
Q:reg0x12cc=0x3c433a45.
 RX1 :reg0x1130=0x3a453c43.
tia_cnt_i : 58 ,
tia_cnt_q : 1 ,
RX1 tia case :7,absolute value dc_i : -16 , value dc_q : -2 
RX1:reg0x12cc=0x44007f.
Q:reg0x12d0=0x36493845.
 RX1 :reg0x1130=0x38453649.
tia_cnt_i : 56 ,
tia_cnt_q : 1 ,
RX1 tia case :8,absolute value dc_i : -16 , value dc_q : -2 
RX1:reg0x12d0=0x4a007d.
Q:reg0x12d4=0x3a473845.
 RX1 :reg0x1130=0x38453a47.
tia_cnt_i : 56 ,
tia_cnt_q : 1 ,
RX1 tia case :9,absolute value dc_i : -16 , value dc_q : -2 
RX1:reg0x12d4=0x48007d.
Q:reg0x12d8=0x38453649.
 RX1 :reg0x1130=0x36493845.
tia_cnt_i : 54 ,
tia_cnt_q : 1 ,
RX1 tia case :10,absolute value dc_i : -16 , value dc_q : -2 
RX1:reg0x12d8=0x46007f.
Q:reg0x12dc=0x38453845.
 RX1 :reg0x1130=0x38453845.
tia_cnt_i : 56 ,
tia_cnt_q : 1 ,
RX1 tia case :11,absolute value dc_i : -16 , value dc_q : -2 
RX1:reg0x12dc=0x46007d.
Q:reg0x12e0=0x3a453a47.
 RX1 :reg0x1130=0x3a473a45.
tia_cnt_i : 56 ,
tia_cnt_q : 29 ,
RX1 tia case :12,absolute value dc_i : -16 , value dc_q : -1 
RX1:reg0x12e0=0x262027f.
tia calibration end!
rx0 vga calibration begin
reg0x1120=0x3fc100.
vga case:1 pass.
RX0 vga case:1 ,absolute value dc_i_tmp : 8 , value dc_q_tmp : 11 ,I:reg0x1184=0x27272d1b.   Q:reg0x11c0=0x29272b15.
vga case:2 pass.
RX0 vga case:2 ,absolute value dc_i_tmp : 7 , value dc_q_tmp : 12 ,I:reg0x1188=0x27252b19.   Q:reg0x11c4=0x29272b15.
vga case:3 pass.
RX0 vga case:3 ,absolute value dc_i_tmp : 9 , value dc_q_tmp : 12 ,I:reg0x118c=0x27252b19.   Q:reg0x11c8=0x29272d17.
vga case:4 pass.
RX0 vga case:4 ,absolute value dc_i_tmp : 8 , value dc_q_tmp : 12 ,I:reg0x1190=0x27252d1b.   Q:reg0x11cc=0x29272b15.
vga case:5 pass.
RX0 vga case:5 ,absolute value dc_i_tmp : 8 , value dc_q_tmp : 11 ,I:reg0x1194=0x27252d1b.   Q:reg0x11d0=0x29252d17.
vga case:6 pass.
RX0 vga case:6 ,absolute value dc_i_tmp : 8 , value dc_q_tmp : 11 ,I:reg0x1198=0x29252b19.   Q:reg0x11d4=0x29252d17.
vga case:7 pass.
RX0 vga case:7 ,absolute value dc_i_tmp : 8 , value dc_q_tmp : 11 ,I:reg0x119c=0x29232b19.   Q:reg0x11d8=0x29252d17.
vga case:8 pass.
RX0 vga case:8 ,absolute value dc_i_tmp : 7 , value dc_q_tmp : 10 ,I:reg0x11a0=0x29232f19.   Q:reg0x11dc=0x29272d13.
vga case:9 pass.
RX0 vga case:9 ,absolute value dc_i_tmp : 8 , value dc_q_tmp : 10 ,I:reg0x11a4=0x23292f15.   Q:reg0x11e0=0x2b273111.
vga case:10 pass.
RX0 vga case:10 ,absolute value dc_i_tmp : 7 , value dc_q_tmp : 11 ,I:reg0x11a8=0x23293111.   Q:reg0x11e4=0x2727350f.
vga case:11 pass.
RX0 vga case:11 ,absolute value dc_i_tmp : 7 , value dc_q_tmp : 10 ,I:reg0x11ac=0x252d370f.   Q:reg0x11e8=0x29233909.
vga case:12 pass.
RX0 vga case:12 ,absolute value dc_i_tmp : 7 , value dc_q_tmp : 10 ,I:reg0x11b0=0x27293b09.   Q:reg0x11ec=0x29253d03.
vga case:13 pass.
RX0 vga case:13 ,absolute value dc_i_tmp : 6 , value dc_q_tmp : 9 ,I:reg0x11b4=0x212f3f01.   Q:reg0x11f0=0x13f3f01.
vga case:14 pass.
RX0 vga case:14 ,absolute value dc_i_tmp : 2 , value dc_q_tmp : 3 ,I:reg0x11b8=0x13f3f01.   Q:reg0x11f4=0x13f3f01.
rx1 vga calibration begin
rx1 vga case:1 pass.
RX1 vga case:1 ,absolute value dc_i_tmp : 15 , value dc_q_tmp : 2 ,I:reg0x11fc=0x27292d21. Q:reg0x1238=0x2725271b.
rx1 vga case:2 pass.
RX1 vga case:2 ,absolute value dc_i_tmp : 15 , value dc_q_tmp : 2 ,I:reg0x1200=0x292b2b1f. Q:reg0x123c=0x2523271b.
rx1 vga case:3 pass.
RX1 vga case:3 ,absolute value dc_i_tmp : 15 , value dc_q_tmp : 2 ,I:reg0x1204=0x27292b1f. Q:reg0x1240=0x27232519.
rx1 vga case:4 pass.
RX1 vga case:4 ,absolute value dc_i_tmp : 15 , value dc_q_tmp : 1 ,I:reg0x1208=0x27292b1f. Q:reg0x1244=0x2723271b.
rx1 vga case:5 pass.
RX1 vga case:5 ,absolute value dc_i_tmp : 15 , value dc_q_tmp : 1 ,I:reg0x120c=0x27292b1f. Q:reg0x1248=0x27212519.
rx1 vga case:6 pass.
RX1 vga case:6 ,absolute value dc_i_tmp : 15 , value dc_q_tmp : 2 ,I:reg0x1210=0x27292b1f. Q:reg0x124c=0x27212519.
rx1 vga case:7 pass.
RX1 vga case:7 ,absolute value dc_i_tmp : 15 , value dc_q_tmp : 1 ,I:reg0x1214=0x292b2b1f. Q:reg0x1250=0x2923271b.
rx1 vga case:8 pass.
RX1 vga case:8 ,absolute value dc_i_tmp : 15 , value dc_q_tmp : 1 ,I:reg0x1218=0x29292d1d. Q:reg0x1254=0x25252519.
rx1 vga case:9 pass.
RX1 vga case:9 ,absolute value dc_i_tmp : 15 , value dc_q_tmp : 1 ,I:reg0x121c=0x27292f1b. Q:reg0x1258=0x27252719.
rx1 vga case:10 pass.
RX1 vga case:10 ,absolute value dc_i_tmp : 15 , value dc_q_tmp : 1 ,I:reg0x1220=0x29293319. Q:reg0x125c=0x25252717.
rx1 vga case:11 pass.
RX1 vga case:11 ,absolute value dc_i_tmp : 15 , value dc_q_tmp : 1 ,I:reg0x1224=0x2b273715. Q:reg0x1260=0x29212915.
rx1 vga case:12 pass.
RX1 vga case:12 ,absolute value dc_i_tmp : 15 , value dc_q_tmp : 0 ,I:reg0x1228=0x2d253b11. Q:reg0x1264=0x25232b15.
rx1 vga case:13 pass.
RX1 vga case:13 ,absolute value dc_i_tmp : 15 , value dc_q_tmp : 1 ,I:reg0x122c=0x232d3f0d. Q:reg0x1268=0x25252d13.
rx1 vga case:14 pass.
RX1 vga case:14 ,absolute value dc_i_tmp : 15 , value dc_q_tmp : 0 ,I:reg0x1230=0x13f3f01. Q:reg0x126c=0x2725310f.
reg0x1120=0x3c0100.
vga calibration end!
RX0: 0x103c : e0008000 ,0x1040 : 20001102 
RX1: 0x1054 : e0008000 ,0x1058 : 20001100 
THIS CASE J: 0 M: 2 
adc calibration begin
calibration begin
RX0 cali pre ,absolute value dc_i_tmp : 9 , value dc_q_tmp : 9 ,
reg0x1180=0x25272127.
reg0x11bc=0x29271f21.
RX1 cali pre ,absolute value dc_i_tmp : 15 , value dc_q_tmp : 2 ,reg0x11f8=0x292b2527.
reg0x1234=0x2725231b.
rx0 tia cali begin:
####:reg0x1270=0x601d6c13.
tia_cnt_i : 103 ,
tia_cnt_q : 98 ,
I:reg0x1150=0x25272127.
Q:reg0x1154=0x29271f21.
RX0 tia case :0,absolute value dc_i : -1 , value dc_q : -6 
####:reg0x1270=0x57f057a.
####:reg0x1274=0x5e236817.
tia_cnt_i : 104 ,
tia_cnt_q : 1 ,
I:reg0x1150=0x25272127.
Q:reg0x1154=0x29271f21.
RX0 tia case :1,absolute value dc_i : -6 , value dc_q : -5 
####:reg0x1274=0x24007f.
####:reg0x1278=0x5a25661b.
tia_cnt_i : 100 ,
tia_cnt_q : 90 ,
I:reg0x1150=0x25272127.
Q:reg0x1154=0x29271f21.
RX0 tia case :2,absolute value dc_i : -6 , value dc_q : -5 
####:reg0x1278=0x27f027f.
####:reg0x127c=0x58275e21.
tia_cnt_i : 94 ,
tia_cnt_q : 1 ,
I:reg0x1150=0x25272127.
Q:reg0x1154=0x29271f21.
RX0 tia case :3,absolute value dc_i : -5 , value dc_q : -5 
####:reg0x127c=0x28007f.
####:reg0x1280=0x4c31522d.
tia_cnt_i : 82 ,
tia_cnt_q : 1 ,
I:reg0x1150=0x25272127.
Q:reg0x1154=0x29271f21.
RX0 tia case :4,absolute value dc_i : -5 , value dc_q : -5 
####:reg0x1280=0x32007f.
####:reg0x1284=0x4a35542b.
tia_cnt_i : 84 ,
tia_cnt_q : 1 ,
I:reg0x1150=0x25272127.
Q:reg0x1154=0x29271f21.
RX0 tia case :5,absolute value dc_i : -5 , value dc_q : -5 
####:reg0x1284=0x36007f.
####:reg0x1288=0x4a354e31.
tia_cnt_i : 78 ,
tia_cnt_q : 1 ,
I:reg0x1150=0x25272127.
Q:reg0x1154=0x29271f21.
RX0 tia case :6,absolute value dc_i : -4 , value dc_q : -6 
####:reg0x1288=0x36007f.
####:reg0x128c=0x4a354c31.
tia_cnt_i : 76 ,
tia_cnt_q : 1 ,
I:reg0x1150=0x25272127.
Q:reg0x1154=0x29271f21.
RX0 tia case :7,absolute value dc_i : -5 , value dc_q : -6 
####:reg0x128c=0x36007d.
####:reg0x1290=0x463b4639.
tia_cnt_i : 70 ,
tia_cnt_q : 1 ,
I:reg0x1150=0x25272127.
Q:reg0x1154=0x29271f21.
RX0 tia case :8,absolute value dc_i : -5 , value dc_q : -6 
####:reg0x1290=0x3c007f.
####:reg0x1294=0x44394837.
tia_cnt_i : 72 ,
tia_cnt_q : 1 ,
I:reg0x1150=0x25272127.
Q:reg0x1154=0x29271f21.
RX0 tia case :9,absolute value dc_i : -5 , value dc_q : -7 
####:reg0x1294=0x3a007f.
####:reg0x1298=0x46394837.
tia_cnt_i : 72 ,
tia_cnt_q : 1 ,
I:reg0x1150=0x25272127.
Q:reg0x1154=0x29271f21.
RX0 tia case :10,absolute value dc_i : -5 , value dc_q : -6 
####:reg0x1298=0x3a007f.
####:reg0x129c=0x46394639.
tia_cnt_i : 70 ,
tia_cnt_q : 1 ,
I:reg0x1150=0x25272127.
Q:reg0x1154=0x29271f21.
RX0 tia case :11,absolute value dc_i : -5 , value dc_q : -6 
####:reg0x129c=0x3a007f.
####:reg0x12a0=0x44394837.
tia_cnt_i : 72 ,
tia_cnt_q : 1 ,
I:reg0x1150=0x25272127.
Q:reg0x1154=0x29271f21.
RX0 tia case :12,absolute value dc_i : -5 , value dc_q : -6 
####:reg0x12a0=0x3a007f.
rx1 tia cali begin:
Q:reg0x12b0=0x4a354835.
 RX1 :reg0x1130=0x48354a35.
tia_cnt_i : 72 ,
tia_cnt_q : 33 ,
RX1 tia case :0,absolute value dc_i : -16 , value dc_q : 1 
RX1:reg0x12b0=0x16007d.
Q:reg0x12b4=0x48374835.
 RX1 :reg0x1130=0x48354837.
tia_cnt_i : 72 ,
tia_cnt_q : 1 ,
RX1 tia case :1,absolute value dc_i : -16 , value dc_q : 1 
RX1:reg0x12b4=0x38007d.
Q:reg0x12b8=0x48374a37.
 RX1 :reg0x1130=0x4a374837.
tia_cnt_i : 72 ,
tia_cnt_q : 1 ,
RX1 tia case :2,absolute value dc_i : -16 , value dc_q : 0 
RX1:reg0x12b8=0x238027f.
Q:reg0x12bc=0x46394639.
 RX1 :reg0x1130=0x46394639.
tia_cnt_i : 70 ,
tia_cnt_q : 1 ,
RX1 tia case :3,absolute value dc_i : -16 , value dc_q : -1 
RX1:reg0x12bc=0x3a007f.
Q:reg0x12c0=0x443b4639.
 RX1 :reg0x1130=0x4639443b.
tia_cnt_i : 70 ,
tia_cnt_q : 1 ,
RX1 tia case :4,absolute value dc_i : -16 , value dc_q : -3 
RX1:reg0x12c0=0x3c007f.
Q:reg0x12c4=0x3c413c41.
 RX1 :reg0x1130=0x3c413c41.
tia_cnt_i : 60 ,
tia_cnt_q : 1 ,
RX1 tia case :5,absolute value dc_i : -16 , value dc_q : -2 
RX1:reg0x12c4=0x42007d.
Q:reg0x12c8=0x3c433c43.
 RX1 :reg0x1130=0x3c433c43.
tia_cnt_i : 60 ,
tia_cnt_q : 1 ,
RX1 tia case :6,absolute value dc_i : -16 , value dc_q : -2 
RX1:reg0x12c8=0x44007f.
Q:reg0x12cc=0x3e433c43.
 RX1 :reg0x1130=0x3c433e43.
tia_cnt_i : 60 ,
tia_cnt_q : 1 ,
RX1 tia case :7,absolute value dc_i : -16 , value dc_q : -3 
RX1:reg0x12cc=0x44007f.
Q:reg0x12d0=0x3a473847.
 RX1 :reg0x1130=0x38473a47.
tia_cnt_i : 56 ,
tia_cnt_q : 1 ,
RX1 tia case :8,absolute value dc_i : -16 , value dc_q : -2 
RX1:reg0x12d0=0x48007f.
Q:reg0x12d4=0x3a453a47.
 RX1 :reg0x1130=0x3a473a45.
tia_cnt_i : 56 ,
tia_cnt_q : 32 ,
RX1 tia case :9,absolute value dc_i : -16 , value dc_q : -1 
RX1:reg0x12d4=0x265027f.
Q:reg0x12d8=0x3a473845.
 RX1 :reg0x1130=0x38453a47.
tia_cnt_i : 56 ,
tia_cnt_q : 1 ,
RX1 tia case :10,absolute value dc_i : -16 , value dc_q : -2 
RX1:reg0x12d8=0x48007d.
Q:reg0x12dc=0x3a453845.
 RX1 :reg0x1130=0x38453a45.
tia_cnt_i : 56 ,
tia_cnt_q : 1 ,
RX1 tia case :11,absolute value dc_i : -16 , value dc_q : -2 
RX1:reg0x12dc=0x46007d.
Q:reg0x12e0=0x38453845.
 RX1 :reg0x1130=0x38453845.
tia_cnt_i : 56 ,
tia_cnt_q : 1 ,
RX1 tia case :12,absolute value dc_i : -16 , value dc_q : -2 
RX1:reg0x12e0=0x46007d.
tia calibration end!
rx0 vga calibration begin
reg0x1120=0x3fc100.
vga case:1 pass.
RX0 vga case:1 ,absolute value dc_i_tmp : 7 , value dc_q_tmp : 8 ,I:reg0x1184=0x27272b19.   Q:reg0x11c0=0x29252d15.
vga case:2 pass.
RX0 vga case:2 ,absolute value dc_i_tmp : 7 , value dc_q_tmp : 8 ,I:reg0x1188=0x27272b19.   Q:reg0x11c4=0x29272b15.
vga case:3 pass.
RX0 vga case:3 ,absolute value dc_i_tmp : 7 , value dc_q_tmp : 8 ,I:reg0x118c=0x27272b19.   Q:reg0x11c8=0x29272b15.
vga case:4 pass.
RX0 vga case:4 ,absolute value dc_i_tmp : 8 , value dc_q_tmp : 9 ,I:reg0x1190=0x27272b19.   Q:reg0x11cc=0x29272b15.
vga case:5 pass.
RX0 vga case:5 ,absolute value dc_i_tmp : 8 , value dc_q_tmp : 9 ,I:reg0x1194=0x27272b19.   Q:reg0x11d0=0x29272b15.
vga case:6 pass.
RX0 vga case:6 ,absolute value dc_i_tmp : 8 , value dc_q_tmp : 10 ,I:reg0x1198=0x27272b19.   Q:reg0x11d4=0x29272b15.
vga case:7 pass.
RX0 vga case:7 ,absolute value dc_i_tmp : 8 , value dc_q_tmp : 10 ,I:reg0x119c=0x27252b19.   Q:reg0x11d8=0x29272b15.
vga case:8 pass.
RX0 vga case:8 ,absolute value dc_i_tmp : 8 , value dc_q_tmp : 9 ,I:reg0x11a0=0x27272f19.   Q:reg0x11dc=0x27292d13.
vga case:9 pass.
RX0 vga case:9 ,absolute value dc_i_tmp : 8 , value dc_q_tmp : 9 ,I:reg0x11a4=0x29233115.   Q:reg0x11e0=0x2b252f0f.
vga case:10 pass.
RX0 vga case:10 ,absolute value dc_i_tmp : 7 , value dc_q_tmp : 9 ,I:reg0x11a8=0x27273311.   Q:reg0x11e4=0x2d23370f.
vga case:11 pass.
RX0 vga case:11 ,absolute value dc_i_tmp : 7 , value dc_q_tmp : 9 ,I:reg0x11ac=0x252b370d.   Q:reg0x11e8=0x25293909.
vga case:12 pass.
RX0 vga case:12 ,absolute value dc_i_tmp : 7 , value dc_q_tmp : 9 ,I:reg0x11b0=0x2b253d07.   Q:reg0x11ec=0x2d213f03.
vga case:13 pass.
RX0 vga case:13 ,absolute value dc_i_tmp : 7 , value dc_q_tmp : 7 ,I:reg0x11b4=0x19373f01.   Q:reg0x11f0=0x13f3f01.
vga case:14 pass.
RX0 vga case:14 ,absolute value dc_i_tmp : 1 , value dc_q_tmp : 0 ,I:reg0x11b8=0x13f3f01.   Q:reg0x11f4=0x13f3f01.
rx1 vga calibration begin
rx1 vga case:1 pass.
RX1 vga case:1 ,absolute value dc_i_tmp : 15 , value dc_q_tmp : 2 ,I:reg0x11fc=0x27292d21. Q:reg0x1238=0x2523271b.
rx1 vga case:2 pass.
RX1 vga case:2 ,absolute value dc_i_tmp : 15 , value dc_q_tmp : 2 ,I:reg0x1200=0x292b2b1f. Q:reg0x123c=0x25232519.
rx1 vga case:3 pass.
RX1 vga case:3 ,absolute value dc_i_tmp : 15 , value dc_q_tmp : 1 ,I:reg0x1204=0x27292b1f. Q:reg0x1240=0x27232519.
rx1 vga case:4 pass.
RX1 vga case:4 ,absolute value dc_i_tmp : 15 , value dc_q_tmp : 2 ,I:reg0x1208=0x27292b1f. Q:reg0x1244=0x2523271b.
rx1 vga case:5 pass.
RX1 vga case:5 ,absolute value dc_i_tmp : 15 , value dc_q_tmp : 2 ,I:reg0x120c=0x27292b1f. Q:reg0x1248=0x27232519.
rx1 vga case:6 pass.
RX1 vga case:6 ,absolute value dc_i_tmp : 15 , value dc_q_tmp : 1 ,I:reg0x1210=0x27292b1f. Q:reg0x124c=0x27212519.
rx1 vga case:7 pass.
RX1 vga case:7 ,absolute value dc_i_tmp : 15 , value dc_q_tmp : 1 ,I:reg0x1214=0x292b2b1f. Q:reg0x1250=0x29212519.
rx1 vga case:8 pass.
RX1 vga case:8 ,absolute value dc_i_tmp : 15 , value dc_q_tmp : 1 ,I:reg0x1218=0x29292d1d. Q:reg0x1254=0x25272519.
rx1 vga case:9 pass.
RX1 vga case:9 ,absolute value dc_i_tmp : 15 , value dc_q_tmp : 1 ,I:reg0x121c=0x27292f1b. Q:reg0x1258=0x25252517.
rx1 vga case:10 pass.
RX1 vga case:10 ,absolute value dc_i_tmp : 15 , value dc_q_tmp : 1 ,I:reg0x1220=0x29293319. Q:reg0x125c=0x2b212917.
rx1 vga case:11 pass.
RX1 vga case:11 ,absolute value dc_i_tmp : 15 , value dc_q_tmp : 0 ,I:reg0x1224=0x2b273715. Q:reg0x1260=0x27212915.
rx1 vga case:12 pass.
RX1 vga case:12 ,absolute value dc_i_tmp : 15 , value dc_q_tmp : 1 ,I:reg0x1228=0x2d253b11. Q:reg0x1264=0x23272b15.
rx1 vga case:13 pass.
RX1 vga case:13 ,absolute value dc_i_tmp : 15 , value dc_q_tmp : 0 ,I:reg0x122c=0x232d3f0d. Q:reg0x1268=0x29212f13.
rx1 vga case:14 pass.
RX1 vga case:14 ,absolute value dc_i_tmp : 15 , value dc_q_tmp : 0 ,I:reg0x1230=0x13f3f01. Q:reg0x126c=0x1b2b2f0d.
reg0x1120=0x3c0100.
vga calibration end!
RX0: 0x103c : e000c000 ,0x1040 : 30001102 
RX1: 0x1054 : e000c000 ,0x1058 : 30001100 
THIS CASE J: 0 M: 3 
adc calibration begin
calibration begin
RX0 cali pre ,absolute value dc_i_tmp : 15 , value dc_q_tmp : 15 ,
reg0x1180=0x25272127.
reg0x11bc=0x29271f21.
RX1 cali pre ,absolute value dc_i_tmp : 15 , value dc_q_tmp : 15 ,reg0x11f8=0x292b2527.
reg0x1234=0x2725231b.
rx0 tia cali begin:
####:reg0x1270=0x621f6e13.
tia_cnt_i : 108 ,
tia_cnt_q : 96 ,
I:reg0x1150=0x25272127.
Q:reg0x1154=0x29271f21.
RX0 tia case :0,absolute value dc_i : -16 , value dc_q : -16 
####:reg0x1270=0x27f027f.
####:reg0x1274=0x5c216619.
tia_cnt_i : 102 ,
tia_cnt_q : 1 ,
I:reg0x1150=0x25272127.
Q:reg0x1154=0x29271f21.
RX0 tia case :1,absolute value dc_i : -16 , value dc_q : -16 
####:reg0x1274=0x22007f.
####:reg0x1278=0x5a25641b.
tia_cnt_i : 100 ,
tia_cnt_q : 1 ,
I:reg0x1150=0x25272127.
Q:reg0x1154=0x29271f21.
RX0 tia case :2,absolute value dc_i : -16 , value dc_q : -16 
####:reg0x1278=0x26007f.
####:reg0x127c=0x58275e21.
tia_cnt_i : 94 ,
tia_cnt_q : 1 ,
I:reg0x1150=0x25272127.
Q:reg0x1154=0x29271f21.
RX0 tia case :3,absolute value dc_i : -16 , value dc_q : -16 
####:reg0x127c=0x28007f.
####:reg0x1280=0x4c33522d.
tia_cnt_i : 82 ,
tia_cnt_q : 1 ,
I:reg0x1150=0x25272127.
Q:reg0x1154=0x29271f21.
RX0 tia case :4,absolute value dc_i : -16 , value dc_q : -16 
####:reg0x1280=0x34007f.
####:reg0x1284=0x4c334e31.
tia_cnt_i : 78 ,
tia_cnt_q : 1 ,
I:reg0x1150=0x25272127.
Q:reg0x1154=0x29271f21.
RX0 tia case :5,absolute value dc_i : -16 , value dc_q : -16 
####:reg0x1284=0x34007f.
####:reg0x1288=0x4a354e31.
tia_cnt_i : 78 ,
tia_cnt_q : 1 ,
I:reg0x1150=0x25272127.
Q:reg0x1154=0x29271f21.
RX0 tia case :6,absolute value dc_i : -16 , value dc_q : -16 
####:reg0x1288=0x36007f.
####:reg0x128c=0x4a374c33.
tia_cnt_i : 76 ,
tia_cnt_q : 1 ,
I:reg0x1150=0x25272127.
Q:reg0x1154=0x29271f21.
RX0 tia case :7,absolute value dc_i : -16 , value dc_q : -16 
####:reg0x128c=0x38007f.
####:reg0x1290=0x463b4639.
tia_cnt_i : 70 ,
tia_cnt_q : 1 ,
I:reg0x1150=0x25272127.
Q:reg0x1154=0x29271f21.
RX0 tia case :8,absolute value dc_i : -16 , value dc_q : -16 
####:reg0x1290=0x3c007f.
####:reg0x1294=0x443b4639.
tia_cnt_i : 70 ,
tia_cnt_q : 1 ,
I:reg0x1150=0x25272127.
Q:reg0x1154=0x29271f21.
RX0 tia case :9,absolute value dc_i : -16 , value dc_q : -16 
####:reg0x1294=0x3c007f.
####:reg0x1298=0x463b4837.
tia_cnt_i : 72 ,
tia_cnt_q : 1 ,
I:reg0x1150=0x25272127.
Q:reg0x1154=0x29271f21.
RX0 tia case :10,absolute value dc_i : -16 , value dc_q : -16 
####:reg0x1298=0x3c007f.
####:reg0x129c=0x46394837.
tia_cnt_i : 72 ,
tia_cnt_q : 1 ,
I:reg0x1150=0x25272127.
Q:reg0x1154=0x29271f21.
RX0 tia case :11,absolute value dc_i : -16 , value dc_q : -16 
####:reg0x129c=0x3a007f.
####:reg0x12a0=0x463b4639.
tia_cnt_i : 70 ,
tia_cnt_q : 1 ,
I:reg0x1150=0x25272127.
Q:reg0x1154=0x29271f21.
RX0 tia case :12,absolute value dc_i : -16 , value dc_q : -16 
####:reg0x12a0=0x3c007f.
rx1 tia cali begin:
Q:reg0x12b0=0x48354835.
 RX1 :reg0x1130=0x48354835.
tia_cnt_i : 72 ,
tia_cnt_q : 1 ,
RX1 tia case :0,absolute value dc_i : -16 , value dc_q : -16 
RX1:reg0x12b0=0x36007d.
Q:reg0x12b4=0x4c334c33.
 RX1 :reg0x1130=0x4c334c33.
tia_cnt_i : 76 ,
tia_cnt_q : 1 ,
RX1 tia case :1,absolute value dc_i : -16 , value dc_q : -16 
RX1:reg0x12b4=0x34007f.
Q:reg0x12b8=0x4a354a35.
 RX1 :reg0x1130=0x4a354a35.
tia_cnt_i : 74 ,
tia_cnt_q : 1 ,
RX1 tia case :2,absolute value dc_i : -16 , value dc_q : -16 
RX1:reg0x12b8=0x36007f.
Q:reg0x12bc=0x48374a35.
 RX1 :reg0x1130=0x4a354837.
tia_cnt_i : 74 ,
tia_cnt_q : 1 ,
RX1 tia case :3,absolute value dc_i : -16 , value dc_q : -16 
RX1:reg0x12bc=0x38007f.
Q:reg0x12c0=0x463b4639.
 RX1 :reg0x1130=0x4639463b.
tia_cnt_i : 70 ,
tia_cnt_q : 1 ,
RX1 tia case :4,absolute value dc_i : -16 , value dc_q : -16 
RX1:reg0x12c0=0x3c007f.
Q:reg0x12c4=0x3c433e41.
 RX1 :reg0x1130=0x3e413c43.
tia_cnt_i : 62 ,
tia_cnt_q : 1 ,
RX1 tia case :5,absolute value dc_i : -16 , value dc_q : -16 
RX1:reg0x12c4=0x44007f.
Q:reg0x12c8=0x3e413e43.
 RX1 :reg0x1130=0x3e433e41.
tia_cnt_i : 60 ,
tia_cnt_q : 62 ,
RX1 tia case :6,absolute value dc_i : -16 , value dc_q : -16 
RX1:reg0x12c8=0x27f027f.
Q:reg0x12cc=0x3c433e43.
 RX1 :reg0x1130=0x3e433c43.
tia_cnt_i : 60 ,
tia_cnt_q : 60 ,
RX1 tia case :7,absolute value dc_i : -16 , value dc_q : -16 
RX1:reg0x12cc=0x27f027f.
Q:reg0x12d0=0x3a473847.
 RX1 :reg0x1130=0x38473a47.
tia_cnt_i : 56 ,
tia_cnt_q : 1 ,
RX1 tia case :8,absolute value dc_i : -16 , value dc_q : -16 
RX1:reg0x12d0=0x48007f.
Q:reg0x12d4=0x38453845.
 RX1 :reg0x1130=0x38453845.
tia_cnt_i : 56 ,
tia_cnt_q : 1 ,
RX1 tia case :9,absolute value dc_i : -16 , value dc_q : -16 
RX1:reg0x12d4=0x46007d.
Q:reg0x12d8=0x38453a47.
 RX1 :reg0x1130=0x3a473845.
tia_cnt_i : 56 ,
tia_cnt_q : 58 ,
RX1 tia case :10,absolute value dc_i : -16 , value dc_q : -16 
RX1:reg0x12d8=0x27f027f.
Q:reg0x12dc=0x38453845.
 RX1 :reg0x1130=0x38453845.
tia_cnt_i : 56 ,
tia_cnt_q : 1 ,
RX1 tia case :11,absolute value dc_i : -16 , value dc_q : -16 
RX1:reg0x12dc=0x46007d.
Q:reg0x12e0=0x38453845.
 RX1 :reg0x1130=0x38453845.
tia_cnt_i : 56 ,
tia_cnt_q : 1 ,
RX1 tia case :12,absolute value dc_i : -16 , value dc_q : -16 
RX1:reg0x12e0=0x46007d.
tia calibration end!
rx0 vga calibration begin
reg0x1120=0x3fc100.
vga case:1 pass.
RX0 vga case:1 ,absolute value dc_i_tmp : 15 , value dc_q_tmp : 15 ,I:reg0x1184=0x27272b19.   Q:reg0x11c0=0x29252d15.
vga case:2 pass.
RX0 vga case:2 ,absolute value dc_i_tmp : 15 , value dc_q_tmp : 15 ,I:reg0x1188=0x27272b19.   Q:reg0x11c4=0x29272b15.
vga case:3 pass.
RX0 vga case:3 ,absolute value dc_i_tmp : 15 , value dc_q_tmp : 15 ,I:reg0x118c=0x27272b19.   Q:reg0x11c8=0x29272b15.
vga case:4 pass.
RX0 vga case:4 ,absolute value dc_i_tmp : 15 , value dc_q_tmp : 15 ,I:reg0x1190=0x27272b19.   Q:reg0x11cc=0x29272b15.
vga case:5 pass.
RX0 vga case:5 ,absolute value dc_i_tmp : 15 , value dc_q_tmp : 15 ,I:reg0x1194=0x27272b19.   Q:reg0x11d0=0x29272b15.
vga case:6 pass.
RX0 vga case:6 ,absolute value dc_i_tmp : 15 , value dc_q_tmp : 15 ,I:reg0x1198=0x27272b19.   Q:reg0x11d4=0x29272b15.
vga case:7 pass.
RX0 vga case:7 ,absolute value dc_i_tmp : 15 , value dc_q_tmp : 15 ,I:reg0x119c=0x27252b19.   Q:reg0x11d8=0x29272b15.
vga case:8 pass.
RX0 vga case:8 ,absolute value dc_i_tmp : 15 , value dc_q_tmp : 15 ,I:reg0x11a0=0x27272f19.   Q:reg0x11dc=0x27292d13.
vga case:9 pass.
RX0 vga case:9 ,absolute value dc_i_tmp : 15 , value dc_q_tmp : 15 ,I:reg0x11a4=0x29233115.   Q:reg0x11e0=0x2b252f0f.
vga case:10 pass.
RX0 vga case:10 ,absolute value dc_i_tmp : 15 , value dc_q_tmp : 15 ,I:reg0x11a8=0x27273311.   Q:reg0x11e4=0x2d23370f.
vga case:11 pass.
RX0 vga case:11 ,absolute value dc_i_tmp : 15 , value dc_q_tmp : 15 ,I:reg0x11ac=0x252b370d.   Q:reg0x11e8=0x25293909.
vga case:12 pass.
RX0 vga case:12 ,absolute value dc_i_tmp : 15 , value dc_q_tmp : 15 ,I:reg0x11b0=0x2b253d07.   Q:reg0x11ec=0x2d213f03.
vga case:13 pass.
RX0 vga case:13 ,absolute value dc_i_tmp : 15 , value dc_q_tmp : 15 ,I:reg0x11b4=0x19373f01.   Q:reg0x11f0=0x13f3f01.
vga case:14 pass.
RX0 vga case:14 ,absolute value dc_i_tmp : 15 , value dc_q_tmp : 15 ,I:reg0x11b8=0x13f3f01.   Q:reg0x11f4=0x13f3f01.
rx1 vga calibration begin
rx1 vga case:1 pass.
RX1 vga case:1 ,absolute value dc_i_tmp : 15 , value dc_q_tmp : 15 ,I:reg0x11fc=0x27292d21. Q:reg0x1238=0x2523271b.
rx1 vga case:2 pass.
RX1 vga case:2 ,absolute value dc_i_tmp : 15 , value dc_q_tmp : 15 ,I:reg0x1200=0x292b2b1f. Q:reg0x123c=0x25232519.
rx1 vga case:3 pass.
RX1 vga case:3 ,absolute value dc_i_tmp : 15 , value dc_q_tmp : 15 ,I:reg0x1204=0x27292b1f. Q:reg0x1240=0x27232519.
rx1 vga case:4 pass.
RX1 vga case:4 ,absolute value dc_i_tmp : 15 , value dc_q_tmp : 15 ,I:reg0x1208=0x27292b1f. Q:reg0x1244=0x2523271b.
rx1 vga case:5 pass.
RX1 vga case:5 ,absolute value dc_i_tmp : 15 , value dc_q_tmp : 15 ,I:reg0x120c=0x27292b1f. Q:reg0x1248=0x27232519.
rx1 vga case:6 pass.
RX1 vga case:6 ,absolute value dc_i_tmp : 15 , value dc_q_tmp : 15 ,I:reg0x1210=0x27292b1f. Q:reg0x124c=0x27212519.
rx1 vga case:7 pass.
RX1 vga case:7 ,absolute value dc_i_tmp : 15 , value dc_q_tmp : 15 ,I:reg0x1214=0x292b2b1f. Q:reg0x1250=0x29212519.
rx1 vga case:8 pass.
RX1 vga case:8 ,absolute value dc_i_tmp : 15 , value dc_q_tmp : 15 ,I:reg0x1218=0x29292d1d. Q:reg0x1254=0x25272519.
rx1 vga case:9 pass.
RX1 vga case:9 ,absolute value dc_i_tmp : 15 , value dc_q_tmp : 15 ,I:reg0x121c=0x27292f1b. Q:reg0x1258=0x25252517.
rx1 vga case:10 pass.
RX1 vga case:10 ,absolute value dc_i_tmp : 15 , value dc_q_tmp : 15 ,I:reg0x1220=0x29293319. Q:reg0x125c=0x2b212917.
rx1 vga case:11 pass.
RX1 vga case:11 ,absolute value dc_i_tmp : 15 , value dc_q_tmp : 15 ,I:reg0x1224=0x2b273715. Q:reg0x1260=0x27212915.
rx1 vga case:12 pass.
RX1 vga case:12 ,absolute value dc_i_tmp : 15 , value dc_q_tmp : 15 ,I:reg0x1228=0x2d253b11. Q:reg0x1264=0x23272b15.
rx1 vga case:13 pass.
RX1 vga case:13 ,absolute value dc_i_tmp : 15 , value dc_q_tmp : 15 ,I:reg0x122c=0x232d3f0d. Q:reg0x1268=0x29212f13.
rx1 vga case:14 pass.
RX1 vga case:14 ,absolute value dc_i_tmp : 15 , value dc_q_tmp : 15 ,I:reg0x1230=0x13f3f01. Q:reg0x126c=0x1b2b2f0d.
reg0x1120=0x3c0100.
vga calibration end!
RX0: 0x103c : e0010000 ,0x1040 : 40001102 
RX1: 0x1054 : e0010000 ,0x1058 : 40001100 
THIS CASE J: 0 M: 4 
adc calibration begin
calibration begin
RX0 cali pre ,absolute value dc_i_tmp : 8 , value dc_q_tmp : 9 ,
reg0x1180=0x25272127.
reg0x11bc=0x29271f21.
RX1 cali pre ,absolute value dc_i_tmp : 1 , value dc_q_tmp : 3 ,reg0x11f8=0x29292327.
reg0x1234=0x2523231b.
rx0 tia cali begin:
####:reg0x1270=0x601d6c11.
tia_cnt_i : 83 ,
tia_cnt_q : 86 ,
I:reg0x1150=0x25272127.
Q:reg0x1154=0x29271f21.
RX0 tia case :0,absolute value dc_i : -1 , value dc_q : -1 
####:reg0x1270=0x19731964.
####:reg0x1274=0x5e236619.
tia_cnt_i : 102 ,
tia_cnt_q : 1 ,
I:reg0x1150=0x25272127.
Q:reg0x1154=0x29271f21.
RX0 tia case :1,absolute value dc_i : -2 , value dc_q : -6 
####:reg0x1274=0x24007f.
####:reg0x1278=0x5a27601d.
tia_cnt_i : 96 ,
tia_cnt_q : 1 ,
I:reg0x1150=0x25272127.
Q:reg0x1154=0x29271f21.
RX0 tia case :2,absolute value dc_i : -4 , value dc_q : -6 
####:reg0x1278=0x28007d.
####:reg0x127c=0x58275c21.
tia_cnt_i : 92 ,
tia_cnt_q : 1 ,
I:reg0x1150=0x25272127.
Q:reg0x1154=0x29271f21.
RX0 tia case :3,absolute value dc_i : -5 , value dc_q : -6 
####:reg0x127c=0x28007d.
####:reg0x1280=0x4c33542b.
tia_cnt_i : 84 ,
tia_cnt_q : 1 ,
I:reg0x1150=0x25272127.
Q:reg0x1154=0x29271f21.
RX0 tia case :4,absolute value dc_i : -6 , value dc_q : -7 
####:reg0x1280=0x34007f.
####:reg0x1284=0x4a35502d.
tia_cnt_i : 80 ,
tia_cnt_q : 1 ,
I:reg0x1150=0x25272127.
Q:reg0x1154=0x29271f21.
RX0 tia case :5,absolute value dc_i : -6 , value dc_q : -7 
####:reg0x1284=0x36007d.
####:reg0x1288=0x4a354e31.
tia_cnt_i : 78 ,
tia_cnt_q : 1 ,
I:reg0x1150=0x25272127.
Q:reg0x1154=0x29271f21.
RX0 tia case :6,absolute value dc_i : -6 , value dc_q : -7 
####:reg0x1288=0x36007f.
####:reg0x128c=0x48354c33.
tia_cnt_i : 76 ,
tia_cnt_q : 1 ,
I:reg0x1150=0x25272127.
Q:reg0x1154=0x29271f21.
RX0 tia case :7,absolute value dc_i : -6 , value dc_q : -7 
####:reg0x128c=0x36007f.
####:reg0x1290=0x44394639.
tia_cnt_i : 70 ,
tia_cnt_q : 1 ,
I:reg0x1150=0x25272127.
Q:reg0x1154=0x29271f21.
RX0 tia case :8,absolute value dc_i : -6 , value dc_q : -7 
####:reg0x1290=0x3a007f.
####:reg0x1294=0x44394837.
tia_cnt_i : 72 ,
tia_cnt_q : 1 ,
I:reg0x1150=0x25272127.
Q:reg0x1154=0x29271f21.
RX0 tia case :9,absolute value dc_i : -6 , value dc_q : -7 
####:reg0x1294=0x3a007f.
####:reg0x1298=0x44394837.
tia_cnt_i : 72 ,
tia_cnt_q : 1 ,
I:reg0x1150=0x25272127.
Q:reg0x1154=0x29271f21.
RX0 tia case :10,absolute value dc_i : -6 , value dc_q : -7 
####:reg0x1298=0x3a007f.
####:reg0x129c=0x44394837.
tia_cnt_i : 72 ,
tia_cnt_q : 1 ,
I:reg0x1150=0x25272127.
Q:reg0x1154=0x29271f21.
RX0 tia case :11,absolute value dc_i : -6 , value dc_q : -7 
####:reg0x129c=0x3a007f.
####:reg0x12a0=0x44394639.
tia_cnt_i : 70 ,
tia_cnt_q : 1 ,
I:reg0x1150=0x25272127.
Q:reg0x1154=0x29271f21.
RX0 tia case :12,absolute value dc_i : -6 , value dc_q : -7 
####:reg0x12a0=0x3a007f.
rx1 tia cali begin:
Q:reg0x12b0=0x4a354e33.
 RX1 :reg0x1130=0x4e334a35.
tia_cnt_i : 0 ,
tia_cnt_q : 9 ,
RX1 tia case :0,absolute value dc_i : 1 , value dc_q : -1 
RX1:reg0x12b0=0x4e3e4e33.
Q:reg0x12b4=0x4a354835.
 RX1 :reg0x1130=0x48354a35.
tia_cnt_i : 0 ,
tia_cnt_q : 19 ,
RX1 tia case :1,absolute value dc_i : 1 , value dc_q : -1 
RX1:reg0x12b4=0x48484835.
Q:reg0x12b8=0x48374a37.
 RX1 :reg0x1130=0x4a374837.
tia_cnt_i : 0 ,
tia_cnt_q : 37 ,
RX1 tia case :2,absolute value dc_i : 1 , value dc_q : -1 
RX1:reg0x12b8=0x4a5c4a37.
Q:reg0x12bc=0x46394639.
 RX1 :reg0x1130=0x46394639.
tia_cnt_i : 0 ,
tia_cnt_q : 52 ,
RX1 tia case :3,absolute value dc_i : 1 , value dc_q : -1 
RX1:reg0x12bc=0x466d4639.
Q:reg0x12c0=0x4439463b.
 RX1 :reg0x1130=0x463b4439.
tia_cnt_i : 0 ,
tia_cnt_q : 70 ,
RX1 tia case :4,absolute value dc_i : 1 , value dc_q : -3 
RX1:reg0x12c0=0x467f463b.
Q:reg0x12c4=0x3e433e43.
 RX1 :reg0x1130=0x3e433e43.
tia_cnt_i : 0 ,
tia_cnt_q : 60 ,
RX1 tia case :5,absolute value dc_i : 1 , value dc_q : -4 
RX1:reg0x12c4=0x3e7f3e43.
Q:reg0x12c8=0x3e413e43.
 RX1 :reg0x1130=0x3e433e41.
tia_cnt_i : 1 ,
tia_cnt_q : 62 ,
RX1 tia case :6,absolute value dc_i : 1 , value dc_q : -3 
RX1:reg0x12c8=0x3f7f3f42.
Q:reg0x12cc=0x3c413c43.
 RX1 :reg0x1130=0x3c433c41.
tia_cnt_i : 0 ,
tia_cnt_q : 62 ,
RX1 tia case :7,absolute value dc_i : 1 , value dc_q : -4 
RX1:reg0x12cc=0x3c7f3c43.
Q:reg0x12d0=0x3a453a47.
 RX1 :reg0x1130=0x3a473a45.
tia_cnt_i : 0 ,
tia_cnt_q : 58 ,
RX1 tia case :8,absolute value dc_i : 1 , value dc_q : -3 
RX1:reg0x12d0=0x3a7f3a47.
Q:reg0x12d4=0x3a453a47.
 RX1 :reg0x1130=0x3a473a45.
tia_cnt_i : 0 ,
tia_cnt_q : 58 ,
RX1 tia case :9,absolute value dc_i : 1 , value dc_q : -3 
RX1:reg0x12d4=0x3a7f3a47.
Q:reg0x12d8=0x38453a45.
 RX1 :reg0x1130=0x3a453845.
tia_cnt_i : 0 ,
tia_cnt_q : 58 ,
RX1 tia case :10,absolute value dc_i : 1 , value dc_q : -4 
RX1:reg0x12d8=0x3a7f3a45.
Q:reg0x12dc=0x3a453a45.
 RX1 :reg0x1130=0x3a453a45.
tia_cnt_i : 0 ,
tia_cnt_q : 58 ,
RX1 tia case :11,absolute value dc_i : 1 , value dc_q : -4 
RX1:reg0x12dc=0x3a7f3a45.
Q:reg0x12e0=0x38453a47.
 RX1 :reg0x1130=0x3a473845.
tia_cnt_i : 0 ,
tia_cnt_q : 58 ,
RX1 tia case :12,absolute value dc_i : 1 , value dc_q : -4 
RX1:reg0x12e0=0x3a7f3a47.
tia calibration end!
rx0 vga calibration begin
reg0x1120=0x3fc100.
vga case:1 pass.
RX0 vga case:1 ,absolute value dc_i_tmp : 9 , value dc_q_tmp : 8 ,I:reg0x1184=0x27272b1d.   Q:reg0x11c0=0x29272917.
vga case:2 pass.
RX0 vga case:2 ,absolute value dc_i_tmp : 8 , value dc_q_tmp : 8 ,I:reg0x1188=0x27252b1d.   Q:reg0x11c4=0x29272b19.
vga case:3 pass.
RX0 vga case:3 ,absolute value dc_i_tmp : 8 , value dc_q_tmp : 8 ,I:reg0x118c=0x27252b1d.   Q:reg0x11c8=0x29272b19.
vga case:4 pass.
RX0 vga case:4 ,absolute value dc_i_tmp : 8 , value dc_q_tmp : 8 ,I:reg0x1190=0x2327291d.   Q:reg0x11cc=0x29272b19.
vga case:5 pass.
RX0 vga case:5 ,absolute value dc_i_tmp : 8 , value dc_q_tmp : 9 ,I:reg0x1194=0x2529291d.   Q:reg0x11d0=0x27272917.
vga case:6 pass.
RX0 vga case:6 ,absolute value dc_i_tmp : 8 , value dc_q_tmp : 8 ,I:reg0x1198=0x2329291d.   Q:reg0x11d4=0x27272917.
vga case:7 pass.
RX0 vga case:7 ,absolute value dc_i_tmp : 8 , value dc_q_tmp : 8 ,I:reg0x119c=0x29232b1d.   Q:reg0x11d8=0x27272917.
vga case:8 pass.
RX0 vga case:8 ,absolute value dc_i_tmp : 8 , value dc_q_tmp : 9 ,I:reg0x11a0=0x23272b1b.   Q:reg0x11dc=0x27252b15.
vga case:9 pass.
RX0 vga case:9 ,absolute value dc_i_tmp : 7 , value dc_q_tmp : 8 ,I:reg0x11a4=0x25292d19.   Q:reg0x11e0=0x25272d13.
vga case:10 pass.
RX0 vga case:10 ,absolute value dc_i_tmp : 8 , value dc_q_tmp : 9 ,I:reg0x11a8=0x29233117.   Q:reg0x11e4=0x29252f0f.
vga case:11 pass.
RX0 vga case:11 ,absolute value dc_i_tmp : 7 , value dc_q_tmp : 8 ,I:reg0x11ac=0x27253313.   Q:reg0x11e8=0x2723350d.
vga case:12 pass.
RX0 vga case:12 ,absolute value dc_i_tmp : 7 , value dc_q_tmp : 8 ,I:reg0x11b0=0x2327350f.   Q:reg0x11ec=0x2b233909.
vga case:13 pass.
RX0 vga case:13 ,absolute value dc_i_tmp : 7 , value dc_q_tmp : 7 ,I:reg0x11b4=0x27293b0b.   Q:reg0x11f0=0x31213f03.
vga case:14 pass.
RX0 vga case:14 ,absolute value dc_i_tmp : 6 , value dc_q_tmp : 1 ,I:reg0x11b8=0x13f3f01.   Q:reg0x11f4=0x13f3f01.
rx1 vga calibration begin
rx1 vga case:1 pass.
RX1 vga case:1 ,absolute value dc_i_tmp : 1 , value dc_q_tmp : 3 ,I:reg0x11fc=0x27292329. Q:reg0x1238=0x2725231b.
rx1 vga case:2 pass.
RX1 vga case:2 ,absolute value dc_i_tmp : 1 , value dc_q_tmp : 3 ,I:reg0x1200=0x27292329. Q:reg0x123c=0x2523231b.
rx1 vga case:3 pass.
RX1 vga case:3 ,absolute value dc_i_tmp : 0 , value dc_q_tmp : 3 ,I:reg0x1204=0x292b2329. Q:reg0x1240=0x2523231b.
rx1 vga case:4 pass.
RX1 vga case:4 ,absolute value dc_i_tmp : 0 , value dc_q_tmp : 3 ,I:reg0x1208=0x292b2329. Q:reg0x1244=0x2323231b.
rx1 vga case:5 pass.
RX1 vga case:5 ,absolute value dc_i_tmp : 0 , value dc_q_tmp : 4 ,I:reg0x120c=0x27292329. Q:reg0x1248=0x2323231b.
rx1 vga case:6 pass.
RX1 vga case:6 ,absolute value dc_i_tmp : 1 , value dc_q_tmp : 3 ,I:reg0x1210=0x272b2329. Q:reg0x124c=0x2523231b.
rx1 vga case:7 pass.
RX1 vga case:7 ,absolute value dc_i_tmp : 0 , value dc_q_tmp : 3 ,I:reg0x1214=0x272b2329. Q:reg0x1250=0x2725231b.
rx1 vga case:8 pass.
RX1 vga case:8 ,absolute value dc_i_tmp : 0 , value dc_q_tmp : 3 ,I:reg0x1218=0x2b272329. Q:reg0x1254=0x2325231b.
rx1 vga case:9 pass.
RX1 vga case:9 ,absolute value dc_i_tmp : 0 , value dc_q_tmp : 3 ,I:reg0x121c=0x29292129. Q:reg0x1258=0x2921251b.
rx1 vga case:10 pass.
RX1 vga case:10 ,absolute value dc_i_tmp : 0 , value dc_q_tmp : 2 ,I:reg0x1220=0x2729212b. Q:reg0x125c=0x2523251b.
rx1 vga case:11 pass.
RX1 vga case:11 ,absolute value dc_i_tmp : 0 , value dc_q_tmp : 2 ,I:reg0x1224=0x2b291f2b. Q:reg0x1260=0x2921271b.
rx1 vga case:12 pass.
RX1 vga case:12 ,absolute value dc_i_tmp : 0 , value dc_q_tmp : 2 ,I:reg0x1228=0x2b271f2d. Q:reg0x1264=0x25232519.
rx1 vga case:13 pass.
RX1 vga case:13 ,absolute value dc_i_tmp : 0 , value dc_q_tmp : 2 ,I:reg0x122c=0x29291d2f. Q:reg0x1268=0x23212719.
rx1 vga case:14 pass.
RX1 vga case:14 ,absolute value dc_i_tmp : 0 , value dc_q_tmp : 3 ,I:reg0x1230=0x2d251931. Q:reg0x126c=0x25212917.
reg0x1120=0x3c0100.
vga calibration end!
RX0: 0x103c : e0014000 ,0x1040 : 50001102 
RX1: 0x1054 : e0014000 ,0x1058 : 50001100 
THIS CASE J: 0 M: 5 
adc calibration begin
calibration begin
RX0 cali pre ,absolute value dc_i_tmp : 0 , value dc_q_tmp : 1 ,
reg0x1180=0x25271921.
reg0x11bc=0x27251f21.
RX1 cali pre ,absolute value dc_i_tmp : 5 , value dc_q_tmp : 2 ,reg0x11f8=0x29292529.
reg0x1234=0x2525231b.
rx0 tia cali begin:
####:reg0x1270=0x601f6a15.
tia_cnt_i : 0 ,
tia_cnt_q : 0 ,
I:reg0x1150=0x25271921.
Q:reg0x1154=0x27251f21.
RX0 tia case :0,absolute value dc_i : 0 , value dc_q : -1 
####:reg0x1270=0x601f6a15.
####:reg0x1274=0x621f6a15.
tia_cnt_i : 5 ,
tia_cnt_q : 0 ,
I:reg0x1150=0x25271921.
Q:reg0x1154=0x27251f21.
RX0 tia case :1,absolute value dc_i : 1 , value dc_q : 0 
####:reg0x1274=0x621f6f10.
####:reg0x1278=0x5e216815.
tia_cnt_i : 21 ,
tia_cnt_q : 0 ,
I:reg0x1150=0x25271921.
Q:reg0x1154=0x27251f21.
RX0 tia case :2,absolute value dc_i : 2 , value dc_q : 1 
####:reg0x1278=0x5e217d00.
####:reg0x127c=0x5825641b.
tia_cnt_i : 27 ,
tia_cnt_q : 1 ,
I:reg0x1150=0x25271921.
Q:reg0x1154=0x27251f21.
RX0 tia case :3,absolute value dc_i : 3 , value dc_q : 1 
####:reg0x127c=0x7f247f00.
####:reg0x1280=0x4e33522d.
tia_cnt_i : 45 ,
tia_cnt_q : 1 ,
I:reg0x1150=0x25271921.
Q:reg0x1154=0x27251f21.
RX0 tia case :4,absolute value dc_i : 3 , value dc_q : 1 
####:reg0x1280=0x7f327f00.
####:reg0x1284=0x4c33542b.
tia_cnt_i : 43 ,
tia_cnt_q : 1 ,
I:reg0x1150=0x25271921.
Q:reg0x1154=0x27251f21.
RX0 tia case :5,absolute value dc_i : 3 , value dc_q : 1 
####:reg0x1284=0x7f327f00.
####:reg0x1288=0x4a35502d.
tia_cnt_i : 45 ,
tia_cnt_q : 1 ,
I:reg0x1150=0x25271921.
Q:reg0x1154=0x27251f21.
RX0 tia case :6,absolute value dc_i : 3 , value dc_q : 1 
####:reg0x1288=0x7d347d00.
####:reg0x128c=0x48354e33.
tia_cnt_i : 49 ,
tia_cnt_q : 1 ,
I:reg0x1150=0x25271921.
Q:reg0x1154=0x27251f21.
RX0 tia case :7,absolute value dc_i : 3 , value dc_q : 1 
####:reg0x128c=0x7f347f02.
####:reg0x1290=0x44394639.
tia_cnt_i : 57 ,
tia_cnt_q : 1 ,
I:reg0x1150=0x25271921.
Q:reg0x1154=0x27251f21.
RX0 tia case :8,absolute value dc_i : 3 , value dc_q : 1 
####:reg0x1290=0x7f387f00.
####:reg0x1294=0x44394837.
tia_cnt_i : 55 ,
tia_cnt_q : 1 ,
I:reg0x1150=0x25271921.
Q:reg0x1154=0x27251f21.
RX0 tia case :9,absolute value dc_i : 3 , value dc_q : 1 
####:reg0x1294=0x7f387f00.
####:reg0x1298=0x463b4837.
tia_cnt_i : 55 ,
tia_cnt_q : 1 ,
I:reg0x1150=0x25271921.
Q:reg0x1154=0x27251f21.
RX0 tia case :10,absolute value dc_i : 3 , value dc_q : 1 
####:reg0x1298=0x7f3a7f00.
####:reg0x129c=0x46394837.
tia_cnt_i : 55 ,
tia_cnt_q : 1 ,
I:reg0x1150=0x25271921.
Q:reg0x1154=0x27251f21.
RX0 tia case :11,absolute value dc_i : 3 , value dc_q : 1 
####:reg0x129c=0x7f387f00.
####:reg0x12a0=0x463b4639.
tia_cnt_i : 57 ,
tia_cnt_q : 1 ,
I:reg0x1150=0x25271921.
Q:reg0x1154=0x27251f21.
RX0 tia case :12,absolute value dc_i : 3 , value dc_q : 1 
####:reg0x12a0=0x7f3a7f00.
rx1 tia cali begin:
Q:reg0x12b0=0x4a354a37.
 RX1 :reg0x1130=0x4a374a35.
tia_cnt_i : 72 ,
tia_cnt_q : 37 ,
RX1 tia case :0,absolute value dc_i : -3 , value dc_q : 1 
RX1:reg0x12b0=0x212027f.
Q:reg0x12b4=0x4a354a35.
 RX1 :reg0x1130=0x4a354a35.
tia_cnt_i : 74 ,
tia_cnt_q : 1 ,
RX1 tia case :1,absolute value dc_i : -3 , value dc_q : 1 
RX1:reg0x12b4=0x36007f.
Q:reg0x12b8=0x4a354a35.
 RX1 :reg0x1130=0x4a354a35.
tia_cnt_i : 74 ,
tia_cnt_q : 1 ,
RX1 tia case :2,absolute value dc_i : -3 , value dc_q : 0 
RX1:reg0x12b8=0x36007f.
Q:reg0x12bc=0x48354835.
 RX1 :reg0x1130=0x48354835.
tia_cnt_i : 72 ,
tia_cnt_q : 1 ,
RX1 tia case :3,absolute value dc_i : -3 , value dc_q : -2 
RX1:reg0x12bc=0x36007d.
Q:reg0x12c0=0x44394639.
 RX1 :reg0x1130=0x46394439.
tia_cnt_i : 70 ,
tia_cnt_q : 1 ,
RX1 tia case :4,absolute value dc_i : -3 , value dc_q : -2 
RX1:reg0x12c0=0x3a007f.
Q:reg0x12c4=0x3c413c41.
 RX1 :reg0x1130=0x3c413c41.
tia_cnt_i : 60 ,
tia_cnt_q : 1 ,
RX1 tia case :5,absolute value dc_i : -3 , value dc_q : -3 
RX1:reg0x12c4=0x42007d.
Q:reg0x12c8=0x3e433e43.
 RX1 :reg0x1130=0x3e433e43.
tia_cnt_i : 60 ,
tia_cnt_q : 60 ,
RX1 tia case :6,absolute value dc_i : -3 , value dc_q : -2 
RX1:reg0x12c8=0x27f027f.
Q:reg0x12cc=0x3c413c43.
 RX1 :reg0x1130=0x3c433c41.
tia_cnt_i : 60 ,
tia_cnt_q : 1 ,
RX1 tia case :7,absolute value dc_i : -3 , value dc_q : -2 
RX1:reg0x12cc=0x42007f.
Q:reg0x12d0=0x3a453a45.
 RX1 :reg0x1130=0x3a453a45.
tia_cnt_i : 58 ,
tia_cnt_q : 1 ,
RX1 tia case :8,absolute value dc_i : -3 , value dc_q : -3 
RX1:reg0x12d0=0x46007f.
Q:reg0x12d4=0x3a453a47.
 RX1 :reg0x1130=0x3a473a45.
tia_cnt_i : 56 ,
tia_cnt_q : 58 ,
RX1 tia case :9,absolute value dc_i : -3 , value dc_q : -2 
RX1:reg0x12d4=0x27f027f.
Q:reg0x12d8=0x3a453845.
 RX1 :reg0x1130=0x38453a45.
tia_cnt_i : 56 ,
tia_cnt_q : 1 ,
RX1 tia case :10,absolute value dc_i : -3 , value dc_q : -3 
RX1:reg0x12d8=0x46007d.
Q:reg0x12dc=0x3a453845.
 RX1 :reg0x1130=0x38453a45.
tia_cnt_i : 56 ,
tia_cnt_q : 1 ,
RX1 tia case :11,absolute value dc_i : -3 , value dc_q : -2 
RX1:reg0x12dc=0x46007d.
Q:reg0x12e0=0x38453649.
 RX1 :reg0x1130=0x36493845.
tia_cnt_i : 54 ,
tia_cnt_q : 1 ,
RX1 tia case :12,absolute value dc_i : -3 , value dc_q : -2 
RX1:reg0x12e0=0x46007f.
tia calibration end!
rx0 vga calibration begin
reg0x1120=0x3fc100.
vga case:1 pass.
RX0 vga case:1 ,absolute value dc_i_tmp : 1 , value dc_q_tmp : 1 ,I:reg0x1184=0x27272125.   Q:reg0x11c0=0x29252121.
vga case:2 pass.
RX0 vga case:2 ,absolute value dc_i_tmp : 1 , value dc_q_tmp : 0 ,I:reg0x1188=0x27272125.   Q:reg0x11c4=0x29271f21.
vga case:3 pass.
RX0 vga case:3 ,absolute value dc_i_tmp : 1 , value dc_q_tmp : 1 ,I:reg0x118c=0x25252125.   Q:reg0x11c8=0x29271f21.
vga case:4 pass.
RX0 vga case:4 ,absolute value dc_i_tmp : 1 , value dc_q_tmp : 1 ,I:reg0x1190=0x27252125.   Q:reg0x11cc=0x29271f21.
vga case:5 pass.
RX0 vga case:5 ,absolute value dc_i_tmp : 1 , value dc_q_tmp : 0 ,I:reg0x1194=0x27252125.   Q:reg0x11d0=0x29251f21.
vga case:6 pass.
RX0 vga case:6 ,absolute value dc_i_tmp : 1 , value dc_q_tmp : 1 ,I:reg0x1198=0x27252125.   Q:reg0x11d4=0x2d232121.
vga case:7 pass.
RX0 vga case:7 ,absolute value dc_i_tmp : 1 , value dc_q_tmp : 1 ,I:reg0x119c=0x27232125.   Q:reg0x11d8=0x27271f21.
vga case:8 pass.
RX0 vga case:8 ,absolute value dc_i_tmp : 0 , value dc_q_tmp : 1 ,I:reg0x11a0=0x25272127.   Q:reg0x11dc=0x21271d21.
vga case:9 pass.
RX0 vga case:9 ,absolute value dc_i_tmp : 1 , value dc_q_tmp : 1 ,I:reg0x11a4=0x27231f27.   Q:reg0x11e0=0x29231f23.
vga case:10 pass.
RX0 vga case:10 ,absolute value dc_i_tmp : 1 , value dc_q_tmp : 1 ,I:reg0x11a8=0x1f291b27.   Q:reg0x11e4=0x27211d23.
vga case:11 pass.
RX0 vga case:11 ,absolute value dc_i_tmp : 0 , value dc_q_tmp : 0 ,I:reg0x11ac=0x21271b29.   Q:reg0x11e8=0x23251b25.
vga case:12 pass.
RX0 vga case:12 ,absolute value dc_i_tmp : 0 , value dc_q_tmp : 0 ,I:reg0x11b0=0x29271929.   Q:reg0x11ec=0x29231b27.
vga case:13 pass.
RX0 vga case:13 ,absolute value dc_i_tmp : 1 , value dc_q_tmp : 0 ,I:reg0x11b4=0x2127192d.   Q:reg0x11f0=0x25231929.
vga case:14 pass.
RX0 vga case:14 ,absolute value dc_i_tmp : 0 , value dc_q_tmp : 0 ,I:reg0x11b8=0x2b271731.   Q:reg0x11f4=0x2d27152d.
rx1 vga calibration begin
rx1 vga case:1 pass.
RX1 vga case:1 ,absolute value dc_i_tmp : 6 , value dc_q_tmp : 1 ,I:reg0x11fc=0x27272d1f. Q:reg0x1238=0x2525251b.
rx1 vga case:2 pass.
RX1 vga case:2 ,absolute value dc_i_tmp : 6 , value dc_q_tmp : 1 ,I:reg0x1200=0x27292b1f. Q:reg0x123c=0x25252319.
rx1 vga case:3 pass.
RX1 vga case:3 ,absolute value dc_i_tmp : 6 , value dc_q_tmp : 1 ,I:reg0x1204=0x27292b1f. Q:reg0x1240=0x2723271b.
rx1 vga case:4 pass.
RX1 vga case:4 ,absolute value dc_i_tmp : 5 , value dc_q_tmp : 1 ,I:reg0x1208=0x27292b1f. Q:reg0x1244=0x2723271b.
rx1 vga case:5 pass.
RX1 vga case:5 ,absolute value dc_i_tmp : 5 , value dc_q_tmp : 1 ,I:reg0x120c=0x27292b1f. Q:reg0x1248=0x2723271b.
rx1 vga case:6 pass.
RX1 vga case:6 ,absolute value dc_i_tmp : 5 , value dc_q_tmp : 1 ,I:reg0x1210=0x27292b1f. Q:reg0x124c=0x25272319.
rx1 vga case:7 pass.
RX1 vga case:7 ,absolute value dc_i_tmp : 6 , value dc_q_tmp : 0 ,I:reg0x1214=0x2d252d1f. Q:reg0x1250=0x271f271b.
rx1 vga case:8 pass.
RX1 vga case:8 ,absolute value dc_i_tmp : 5 , value dc_q_tmp : 0 ,I:reg0x1218=0x29292d1d. Q:reg0x1254=0x23232519.
rx1 vga case:9 pass.
RX1 vga case:9 ,absolute value dc_i_tmp : 5 , value dc_q_tmp : 0 ,I:reg0x121c=0x272b2f1b. Q:reg0x1258=0x25232719.
rx1 vga case:10 pass.
RX1 vga case:10 ,absolute value dc_i_tmp : 5 , value dc_q_tmp : 0 ,I:reg0x1220=0x292b3319. Q:reg0x125c=0x27232717.
rx1 vga case:11 pass.
RX1 vga case:11 ,absolute value dc_i_tmp : 5 , value dc_q_tmp : 0 ,I:reg0x1224=0x2b273715. Q:reg0x1260=0x29212b17.
rx1 vga case:12 pass.
RX1 vga case:12 ,absolute value dc_i_tmp : 4 , value dc_q_tmp : 0 ,I:reg0x1228=0x2d273b11. Q:reg0x1264=0x27252b15.
rx1 vga case:13 pass.
RX1 vga case:13 ,absolute value dc_i_tmp : 4 , value dc_q_tmp : 0 ,I:reg0x122c=0x25313f0d. Q:reg0x1268=0x27212d13.
rx1 vga case:14 pass.
RX1 vga case:14 ,absolute value dc_i_tmp : 3 , value dc_q_tmp : 0 ,I:reg0x1230=0x13f3f01. Q:reg0x126c=0x2d1d310f.
reg0x1120=0x3c0100.
vga calibration end!
RX0: 0x103c : e0018000 ,0x1040 : 60001102 
RX1: 0x1054 : e0018000 ,0x1058 : 60001100 
THIS CASE J: 0 M: 6 
adc calibration begin
calibration begin
RX0 cali pre ,absolute value dc_i_tmp : 1 , value dc_q_tmp : 1 ,
reg0x1180=0x25271d25.
reg0x11bc=0x29252121.
RX1 cali pre ,absolute value dc_i_tmp : 6 , value dc_q_tmp : 0 ,reg0x11f8=0x29292529.
reg0x1234=0x2725231b.
rx0 tia cali begin:
####:reg0x1270=0x601f6c13.
tia_cnt_i : 0 ,
tia_cnt_q : 0 ,
I:reg0x1150=0x25271d25.
Q:reg0x1154=0x29252121.
RX0 tia case :0,absolute value dc_i : -1 , value dc_q : 0 
####:reg0x1270=0x601f6c13.
####:reg0x1274=0x601f6a15.
tia_cnt_i : 4 ,
tia_cnt_q : 0 ,
I:reg0x1150=0x25271d25.
Q:reg0x1154=0x29252121.
RX0 tia case :1,absolute value dc_i : 1 , value dc_q : 1 
####:reg0x1274=0x601f6e11.
####:reg0x1278=0x5e216817.
tia_cnt_i : 23 ,
tia_cnt_q : 1 ,
I:reg0x1150=0x25271d25.
Q:reg0x1154=0x29252121.
RX0 tia case :2,absolute value dc_i : 2 , value dc_q : 0 
####:reg0x1278=0x7f207f00.
####:reg0x127c=0x5a25621d.
tia_cnt_i : 29 ,
tia_cnt_q : 1 ,
I:reg0x1150=0x25271d25.
Q:reg0x1154=0x29252121.
RX0 tia case :3,absolute value dc_i : 2 , value dc_q : 1 
####:reg0x127c=0x7f247f00.
####:reg0x1280=0x4c31542b.
tia_cnt_i : 43 ,
tia_cnt_q : 1 ,
I:reg0x1150=0x25271d25.
Q:reg0x1154=0x29252121.
RX0 tia case :4,absolute value dc_i : 3 , value dc_q : 2 
####:reg0x1280=0x7f307f00.
####:reg0x1284=0x4c33542b.
tia_cnt_i : 43 ,
tia_cnt_q : 1 ,
I:reg0x1150=0x25271d25.
Q:reg0x1154=0x29252121.
RX0 tia case :5,absolute value dc_i : 3 , value dc_q : 2 
####:reg0x1284=0x7f327f00.
####:reg0x1288=0x4a354e31.
tia_cnt_i : 49 ,
tia_cnt_q : 1 ,
I:reg0x1150=0x25271d25.
Q:reg0x1154=0x29252121.
RX0 tia case :6,absolute value dc_i : 3 , value dc_q : 2 
####:reg0x1288=0x7f347f00.
####:reg0x128c=0x4a374a35.
tia_cnt_i : 53 ,
tia_cnt_q : 1 ,
I:reg0x1150=0x25271d25.
Q:reg0x1154=0x29252121.
RX0 tia case :7,absolute value dc_i : 3 , value dc_q : 2 
####:reg0x128c=0x7f367f00.
####:reg0x1290=0x44394439.
tia_cnt_i : 57 ,
tia_cnt_q : 27 ,
I:reg0x1150=0x25271d25.
Q:reg0x1154=0x29252121.
RX0 tia case :8,absolute value dc_i : 3 , value dc_q : 1 
####:reg0x1290=0x7d1e7d00.
####:reg0x1294=0x44394837.
tia_cnt_i : 55 ,
tia_cnt_q : 1 ,
I:reg0x1150=0x25271d25.
Q:reg0x1154=0x29252121.
RX0 tia case :9,absolute value dc_i : 3 , value dc_q : 2 
####:reg0x1294=0x7f387f00.
####:reg0x1298=0x44394837.
tia_cnt_i : 55 ,
tia_cnt_q : 1 ,
I:reg0x1150=0x25271d25.
Q:reg0x1154=0x29252121.
RX0 tia case :10,absolute value dc_i : 3 , value dc_q : 2 
####:reg0x1298=0x7f387f00.
####:reg0x129c=0x44394639.
tia_cnt_i : 57 ,
tia_cnt_q : 1 ,
I:reg0x1150=0x25271d25.
Q:reg0x1154=0x29252121.
RX0 tia case :11,absolute value dc_i : 3 , value dc_q : 2 
####:reg0x129c=0x7f387f00.
####:reg0x12a0=0x46394639.
tia_cnt_i : 57 ,
tia_cnt_q : 1 ,
I:reg0x1150=0x25271d25.
Q:reg0x1154=0x29252121.
RX0 tia case :12,absolute value dc_i : 3 , value dc_q : 2 
####:reg0x12a0=0x7f387f00.
rx1 tia cali begin:
Q:reg0x12b0=0x4a374a35.
 RX1 :reg0x1130=0x4a354a37.
tia_cnt_i : 74 ,
tia_cnt_q : 0 ,
RX1 tia case :0,absolute value dc_i : -4 , value dc_q : -1 
RX1:reg0x12b0=0x4a37007f.
Q:reg0x12b4=0x4a354a35.
 RX1 :reg0x1130=0x4a354a35.
tia_cnt_i : 74 ,
tia_cnt_q : 22 ,
RX1 tia case :1,absolute value dc_i : -4 , value dc_q : 1 
RX1:reg0x12b4=0x21007f.
Q:reg0x12b8=0x48354a37.
 RX1 :reg0x1130=0x4a374835.
tia_cnt_i : 72 ,
tia_cnt_q : 1 ,
RX1 tia case :2,absolute value dc_i : -3 , value dc_q : 1 
RX1:reg0x12b8=0x236027f.
Q:reg0x12bc=0x48374a37.
 RX1 :reg0x1130=0x4a374837.
tia_cnt_i : 72 ,
tia_cnt_q : 1 ,
RX1 tia case :3,absolute value dc_i : -3 , value dc_q : 0 
RX1:reg0x12bc=0x238027f.
Q:reg0x12c0=0x443b4439.
 RX1 :reg0x1130=0x4439443b.
tia_cnt_i : 68 ,
tia_cnt_q : 1 ,
RX1 tia case :4,absolute value dc_i : -3 , value dc_q : -1 
RX1:reg0x12c0=0x3c007d.
Q:reg0x12c4=0x3c433c41.
 RX1 :reg0x1130=0x3c413c43.
tia_cnt_i : 60 ,
tia_cnt_q : 1 ,
RX1 tia case :5,absolute value dc_i : -3 , value dc_q : -1 
RX1:reg0x12c4=0x44007d.
Q:reg0x12c8=0x3e433c43.
 RX1 :reg0x1130=0x3c433e43.
tia_cnt_i : 60 ,
tia_cnt_q : 1 ,
RX1 tia case :6,absolute value dc_i : -3 , value dc_q : -1 
RX1:reg0x12c8=0x44007f.
Q:reg0x12cc=0x3c433c43.
 RX1 :reg0x1130=0x3c433c43.
tia_cnt_i : 60 ,
tia_cnt_q : 1 ,
RX1 tia case :7,absolute value dc_i : -3 , value dc_q : -1 
RX1:reg0x12cc=0x44007f.
Q:reg0x12d0=0x38453845.
 RX1 :reg0x1130=0x38453845.
tia_cnt_i : 56 ,
tia_cnt_q : 1 ,
RX1 tia case :8,absolute value dc_i : -3 , value dc_q : -1 
RX1:reg0x12d0=0x46007d.
Q:reg0x12d4=0x38453a45.
 RX1 :reg0x1130=0x3a453845.
tia_cnt_i : 58 ,
tia_cnt_q : 1 ,
RX1 tia case :9,absolute value dc_i : -3 , value dc_q : -1 
RX1:reg0x12d4=0x46007f.
Q:reg0x12d8=0x3a473845.
 RX1 :reg0x1130=0x38453a47.
tia_cnt_i : 56 ,
tia_cnt_q : 1 ,
RX1 tia case :10,absolute value dc_i : -3 , value dc_q : -1 
RX1:reg0x12d8=0x48007d.
Q:reg0x12dc=0x3a453a47.
 RX1 :reg0x1130=0x3a473a45.
tia_cnt_i : 56 ,
tia_cnt_q : 1 ,
RX1 tia case :11,absolute value dc_i : -3 , value dc_q : -1 
RX1:reg0x12dc=0x246027f.
Q:reg0x12e0=0x3a453a45.
 RX1 :reg0x1130=0x3a453a45.
tia_cnt_i : 58 ,
tia_cnt_q : 1 ,
RX1 tia case :12,absolute value dc_i : -3 , value dc_q : -2 
RX1:reg0x12e0=0x46007f.
tia calibration end!
rx0 vga calibration begin
reg0x1120=0x3fc100.
vga case:1 pass.
RX0 vga case:1 ,absolute value dc_i_tmp : 1 , value dc_q_tmp : 1 ,I:reg0x1184=0x27271f25.   Q:reg0x11c0=0x29252121.
vga case:2 pass.
RX0 vga case:2 ,absolute value dc_i_tmp : 0 , value dc_q_tmp : 0 ,I:reg0x1188=0x27252125.   Q:reg0x11c4=0x29232121.
vga case:3 pass.
RX0 vga case:3 ,absolute value dc_i_tmp : 1 , value dc_q_tmp : 0 ,I:reg0x118c=0x25251f25.   Q:reg0x11c8=0x29232121.
vga case:4 pass.
RX0 vga case:4 ,absolute value dc_i_tmp : 0 , value dc_q_tmp : 1 ,I:reg0x1190=0x29271f25.   Q:reg0x11cc=0x29232121.
vga case:5 pass.
RX0 vga case:5 ,absolute value dc_i_tmp : 1 , value dc_q_tmp : 1 ,I:reg0x1194=0x27251f25.   Q:reg0x11d0=0x29271f21.
vga case:6 pass.
RX0 vga case:6 ,absolute value dc_i_tmp : 1 , value dc_q_tmp : 1 ,I:reg0x1198=0x27251f25.   Q:reg0x11d4=0x2b232121.
vga case:7 pass.
RX0 vga case:7 ,absolute value dc_i_tmp : 1 , value dc_q_tmp : 0 ,I:reg0x119c=0x25231f25.   Q:reg0x11d8=0x2b212121.
vga case:8 pass.
RX0 vga case:8 ,absolute value dc_i_tmp : 1 , value dc_q_tmp : 1 ,I:reg0x11a0=0x27272127.   Q:reg0x11dc=0x25291d21.
vga case:9 pass.
RX0 vga case:9 ,absolute value dc_i_tmp : 1 , value dc_q_tmp : 0 ,I:reg0x11a4=0x21271d27.   Q:reg0x11e0=0x29231f23.
vga case:10 pass.
RX0 vga case:10 ,absolute value dc_i_tmp : 1 , value dc_q_tmp : 0 ,I:reg0x11a8=0x23271d29.   Q:reg0x11e4=0x29231d23.
vga case:11 pass.
RX0 vga case:11 ,absolute value dc_i_tmp : 0 , value dc_q_tmp : 0 ,I:reg0x11ac=0x2b271b29.   Q:reg0x11e8=0x25271b25.
vga case:12 pass.
RX0 vga case:12 ,absolute value dc_i_tmp : 0 , value dc_q_tmp : 0 ,I:reg0x11b0=0x1f27192b.   Q:reg0x11ec=0x27231b27.
vga case:13 pass.
RX0 vga case:13 ,absolute value dc_i_tmp : 0 , value dc_q_tmp : 0 ,I:reg0x11b4=0x2327172d.   Q:reg0x11f0=0x25251727.
vga case:14 pass.
RX0 vga case:14 ,absolute value dc_i_tmp : 1 , value dc_q_tmp : 0 ,I:reg0x11b8=0x29291331.   Q:reg0x11f4=0x2929152d.
rx1 vga calibration begin
rx1 vga case:1 pass.
RX1 vga case:1 ,absolute value dc_i_tmp : 7 , value dc_q_tmp : 1 ,I:reg0x11fc=0x27292b1f. Q:reg0x1238=0x2525231d.
rx1 vga case:2 pass.
RX1 vga case:2 ,absolute value dc_i_tmp : 7 , value dc_q_tmp : 1 ,I:reg0x1200=0x27292b1f. Q:reg0x123c=0x2323231d.
rx1 vga case:3 pass.
RX1 vga case:3 ,absolute value dc_i_tmp : 7 , value dc_q_tmp : 0 ,I:reg0x1204=0x27292b1f. Q:reg0x1240=0x2525231d.
rx1 vga case:4 pass.
RX1 vga case:4 ,absolute value dc_i_tmp : 6 , value dc_q_tmp : 1 ,I:reg0x1208=0x292b2b1f. Q:reg0x1244=0x2723251d.
rx1 vga case:5 pass.
RX1 vga case:5 ,absolute value dc_i_tmp : 6 , value dc_q_tmp : 0 ,I:reg0x120c=0x27292b1f. Q:reg0x1248=0x2721251d.
rx1 vga case:6 pass.
RX1 vga case:6 ,absolute value dc_i_tmp : 5 , value dc_q_tmp : 1 ,I:reg0x1210=0x292b2b1f. Q:reg0x124c=0x2721251d.
rx1 vga case:7 pass.
RX1 vga case:7 ,absolute value dc_i_tmp : 6 , value dc_q_tmp : 0 ,I:reg0x1214=0x27292b1f. Q:reg0x1250=0x291f251d.
rx1 vga case:8 pass.
RX1 vga case:8 ,absolute value dc_i_tmp : 6 , value dc_q_tmp : 1 ,I:reg0x1218=0x2b292d1d. Q:reg0x1254=0x271f251d.
rx1 vga case:9 pass.
RX1 vga case:9 ,absolute value dc_i_tmp : 6 , value dc_q_tmp : 0 ,I:reg0x121c=0x272b2f1b. Q:reg0x1258=0x2921251d.
rx1 vga case:10 pass.
RX1 vga case:10 ,absolute value dc_i_tmp : 6 , value dc_q_tmp : 0 ,I:reg0x1220=0x29293319. Q:reg0x125c=0x2721231b.
rx1 vga case:11 pass.
RX1 vga case:11 ,absolute value dc_i_tmp : 6 , value dc_q_tmp : 0 ,I:reg0x1224=0x2b253715. Q:reg0x1260=0x2523231b.
rx1 vga case:12 pass.
RX1 vga case:12 ,absolute value dc_i_tmp : 5 , value dc_q_tmp : 0 ,I:reg0x1228=0x27293911. Q:reg0x1264=0x2525231b.
rx1 vga case:13 pass.
RX1 vga case:13 ,absolute value dc_i_tmp : 3 , value dc_q_tmp : 0 ,I:reg0x122c=0x2d2d3f0d. Q:reg0x1268=0x291f251b.
rx1 vga case:14 pass.
RX1 vga case:14 ,absolute value dc_i_tmp : 2 , value dc_q_tmp : 0 ,I:reg0x1230=0x13f3f01. Q:reg0x126c=0x2725251b.
reg0x1120=0x3c0100.
vga calibration end!
RX0: 0x103c : e001c000 ,0x1040 : 70001102 
RX1: 0x1054 : e001c000 ,0x1058 : 70001100 
THIS CASE J: 0 M: 7 
adc calibration begin
calibration begin
RX0 cali pre ,absolute value dc_i_tmp : 9 , value dc_q_tmp : 10 ,
reg0x1180=0x25271d25.
reg0x11bc=0x29252121.
RX1 cali pre ,absolute value dc_i_tmp : 15 , value dc_q_tmp : 1 ,reg0x11f8=0x29292529.
reg0x1234=0x2523231b.
rx0 tia cali begin:
####:reg0x1270=0x601f6c13.
tia_cnt_i : 90 ,
tia_cnt_q : 96 ,
I:reg0x1150=0x25271d25.
Q:reg0x1154=0x29252121.
RX0 tia case :0,absolute value dc_i : -1 , value dc_q : -10 
####:reg0x1270=0x127f126d.
####:reg0x1274=0x5e236419.
tia_cnt_i : 100 ,
tia_cnt_q : 1 ,
I:reg0x1150=0x25271d25.
Q:reg0x1154=0x29252121.
RX0 tia case :1,absolute value dc_i : -4 , value dc_q : -10 
####:reg0x1274=0x24007d.
####:reg0x1278=0x5c23641b.
tia_cnt_i : 100 ,
tia_cnt_q : 1 ,
I:reg0x1150=0x25271d25.
Q:reg0x1154=0x29252121.
RX0 tia case :2,absolute value dc_i : -4 , value dc_q : -9 
####:reg0x1278=0x24007f.
####:reg0x127c=0x58275e21.
tia_cnt_i : 94 ,
tia_cnt_q : 1 ,
I:reg0x1150=0x25271d25.
Q:reg0x1154=0x29252121.
RX0 tia case :3,absolute value dc_i : -4 , value dc_q : -9 
####:reg0x127c=0x28007f.
####:reg0x1280=0x4c33522d.
tia_cnt_i : 82 ,
tia_cnt_q : 1 ,
I:reg0x1150=0x25271d25.
Q:reg0x1154=0x29252121.
RX0 tia case :4,absolute value dc_i : -5 , value dc_q : -10 
####:reg0x1280=0x34007f.
####:reg0x1284=0x4c33502d.
tia_cnt_i : 80 ,
tia_cnt_q : 1 ,
I:reg0x1150=0x25271d25.
Q:reg0x1154=0x29252121.
RX0 tia case :5,absolute value dc_i : -6 , value dc_q : -9 
####:reg0x1284=0x34007d.
####:reg0x1288=0x4a354c31.
tia_cnt_i : 76 ,
tia_cnt_q : 1 ,
I:reg0x1150=0x25271d25.
Q:reg0x1154=0x29252121.
RX0 tia case :6,absolute value dc_i : -5 , value dc_q : -9 
####:reg0x1288=0x36007d.
####:reg0x128c=0x4a374e33.
tia_cnt_i : 76 ,
tia_cnt_q : 72 ,
I:reg0x1150=0x25271d25.
Q:reg0x1154=0x29252121.
RX0 tia case :7,absolute value dc_i : -6 , value dc_q : -10 
####:reg0x128c=0x27f027f.
####:reg0x1290=0x4439463b.
tia_cnt_i : 68 ,
tia_cnt_q : 70 ,
I:reg0x1150=0x25271d25.
Q:reg0x1154=0x29252121.
RX0 tia case :8,absolute value dc_i : -6 , value dc_q : -10 
####:reg0x1290=0x27f027f.
####:reg0x1294=0x443b4837.
tia_cnt_i : 72 ,
tia_cnt_q : 1 ,
I:reg0x1150=0x25271d25.
Q:reg0x1154=0x29252121.
RX0 tia case :9,absolute value dc_i : -6 , value dc_q : -9 
####:reg0x1294=0x3c007f.
####:reg0x1298=0x44394837.
tia_cnt_i : 72 ,
tia_cnt_q : 1 ,
I:reg0x1150=0x25271d25.
Q:reg0x1154=0x29252121.
RX0 tia case :10,absolute value dc_i : -5 , value dc_q : -9 
####:reg0x1298=0x3a007f.
####:reg0x129c=0x46394837.
tia_cnt_i : 72 ,
tia_cnt_q : 1 ,
I:reg0x1150=0x25271d25.
Q:reg0x1154=0x29252121.
RX0 tia case :11,absolute value dc_i : -5 , value dc_q : -9 
####:reg0x129c=0x3a007f.
####:reg0x12a0=0x463b4639.
tia_cnt_i : 70 ,
tia_cnt_q : 1 ,
I:reg0x1150=0x25271d25.
Q:reg0x1154=0x29252121.
RX0 tia case :12,absolute value dc_i : -6 , value dc_q : -10 
####:reg0x12a0=0x3c007f.
rx1 tia cali begin:
Q:reg0x12b0=0x4a354835.
 RX1 :reg0x1130=0x48354a35.
tia_cnt_i : 72 ,
tia_cnt_q : 0 ,
RX1 tia case :0,absolute value dc_i : -16 , value dc_q : -1 
RX1:reg0x12b0=0x4a35007d.
Q:reg0x12b4=0x4a374837.
 RX1 :reg0x1130=0x48374a37.
tia_cnt_i : 72 ,
tia_cnt_q : 7 ,
RX1 tia case :1,absolute value dc_i : -16 , value dc_q : 1 
RX1:reg0x12b4=0x32007f.
Q:reg0x12b8=0x4a374a37.
 RX1 :reg0x1130=0x4a374a37.
tia_cnt_i : 72 ,
tia_cnt_q : 1 ,
RX1 tia case :2,absolute value dc_i : -16 , value dc_q : 1 
RX1:reg0x12b8=0x238027f.
Q:reg0x12bc=0x46394639.
 RX1 :reg0x1130=0x46394639.
tia_cnt_i : 70 ,
tia_cnt_q : 1 ,
RX1 tia case :3,absolute value dc_i : -16 , value dc_q : -1 
RX1:reg0x12bc=0x3a007f.
Q:reg0x12c0=0x3e414439.
 RX1 :reg0x1130=0x44393e41.
tia_cnt_i : 68 ,
tia_cnt_q : 1 ,
RX1 tia case :4,absolute value dc_i : -16 , value dc_q : -1 
RX1:reg0x12c0=0x42007d.
Q:reg0x12c4=0x3c413e41.
 RX1 :reg0x1130=0x3e413c41.
tia_cnt_i : 62 ,
tia_cnt_q : 1 ,
RX1 tia case :5,absolute value dc_i : -16 , value dc_q : -1 
RX1:reg0x12c4=0x42007f.
Q:reg0x12c8=0x3e433c43.
 RX1 :reg0x1130=0x3c433e43.
tia_cnt_i : 60 ,
tia_cnt_q : 1 ,
RX1 tia case :6,absolute value dc_i : -16 , value dc_q : -1 
RX1:reg0x12c8=0x44007f.
Q:reg0x12cc=0x3c433c43.
 RX1 :reg0x1130=0x3c433c43.
tia_cnt_i : 60 ,
tia_cnt_q : 1 ,
RX1 tia case :7,absolute value dc_i : -16 , value dc_q : -2 
RX1:reg0x12cc=0x44007f.
Q:reg0x12d0=0x3a453845.
 RX1 :reg0x1130=0x38453a45.
tia_cnt_i : 56 ,
tia_cnt_q : 1 ,
RX1 tia case :8,absolute value dc_i : -16 , value dc_q : -1 
RX1:reg0x12d0=0x46007d.
Q:reg0x12d4=0x3a453845.
 RX1 :reg0x1130=0x38453a45.
tia_cnt_i : 56 ,
tia_cnt_q : 1 ,
RX1 tia case :9,absolute value dc_i : -16 , value dc_q : -1 
RX1:reg0x12d4=0x46007d.
Q:reg0x12d8=0x3a453a45.
 RX1 :reg0x1130=0x3a453a45.
tia_cnt_i : 58 ,
tia_cnt_q : 1 ,
RX1 tia case :10,absolute value dc_i : -16 , value dc_q : -2 
RX1:reg0x12d8=0x46007f.
Q:reg0x12dc=0x3a453a47.
 RX1 :reg0x1130=0x3a473a45.
tia_cnt_i : 56 ,
tia_cnt_q : 1 ,
RX1 tia case :11,absolute value dc_i : -16 , value dc_q : -1 
RX1:reg0x12dc=0x246027f.
Q:reg0x12e0=0x38453845.
 RX1 :reg0x1130=0x38453845.
tia_cnt_i : 56 ,
tia_cnt_q : 1 ,
RX1 tia case :12,absolute value dc_i : -16 , value dc_q : -2 
RX1:reg0x12e0=0x46007d.
tia calibration end!
rx0 vga calibration begin
reg0x1120=0x3fc100.
vga case:1 pass.
RX0 vga case:1 ,absolute value dc_i_tmp : 8 , value dc_q_tmp : 10 ,I:reg0x1184=0x27272b1b.   Q:reg0x11c0=0x29252d17.
vga case:2 pass.
RX0 vga case:2 ,absolute value dc_i_tmp : 9 , value dc_q_tmp : 12 ,I:reg0x1188=0x27272b1b.   Q:reg0x11c4=0x27232d17.
vga case:3 pass.
RX0 vga case:3 ,absolute value dc_i_tmp : 9 , value dc_q_tmp : 11 ,I:reg0x118c=0x27272b1b.   Q:reg0x11c8=0x2b252d17.
vga case:4 pass.
RX0 vga case:4 ,absolute value dc_i_tmp : 8 , value dc_q_tmp : 12 ,I:reg0x1190=0x27252b1b.   Q:reg0x11cc=0x29232d17.
vga case:5 pass.
RX0 vga case:5 ,absolute value dc_i_tmp : 8 , value dc_q_tmp : 11 ,I:reg0x1194=0x29272b1b.   Q:reg0x11d0=0x2b232d17.
vga case:6 pass.
RX0 vga case:6 ,absolute value dc_i_tmp : 9 , value dc_q_tmp : 12 ,I:reg0x1198=0x27252b1b.   Q:reg0x11d4=0x2b232d17.
vga case:7 pass.
RX0 vga case:7 ,absolute value dc_i_tmp : 8 , value dc_q_tmp : 11 ,I:reg0x119c=0x29252b1b.   Q:reg0x11d8=0x2d232d17.
vga case:8 pass.
RX0 vga case:8 ,absolute value dc_i_tmp : 8 , value dc_q_tmp : 11 ,I:reg0x11a0=0x25292b19.   Q:reg0x11dc=0x2d212f15.
vga case:9 pass.
RX0 vga case:9 ,absolute value dc_i_tmp : 8 , value dc_q_tmp : 11 ,I:reg0x11a4=0x27252f17.   Q:reg0x11e0=0x27272f11.
vga case:10 pass.
RX0 vga case:10 ,absolute value dc_i_tmp : 8 , value dc_q_tmp : 11 ,I:reg0x11a8=0x29233113.   Q:reg0x11e4=0x2925330f.
vga case:11 pass.
RX0 vga case:11 ,absolute value dc_i_tmp : 7 , value dc_q_tmp : 11 ,I:reg0x11ac=0x2527330f.   Q:reg0x11e8=0x2d23390b.
vga case:12 pass.
RX0 vga case:12 ,absolute value dc_i_tmp : 7 , value dc_q_tmp : 12 ,I:reg0x11b0=0x2d233b0d.   Q:reg0x11ec=0x2d233d05.
vga case:13 pass.
RX0 vga case:13 ,absolute value dc_i_tmp : 8 , value dc_q_tmp : 12 ,I:reg0x11b4=0x21293f07.   Q:reg0x11f0=0x113b3f01.
vga case:14 pass.
RX0 vga case:14 ,absolute value dc_i_tmp : 1 , value dc_q_tmp : 6 ,I:reg0x11b8=0x13f3f01.   Q:reg0x11f4=0x13f3f01.
rx1 vga calibration begin
rx1 vga case:1 pass.
RX1 vga case:1 ,absolute value dc_i_tmp : 15 , value dc_q_tmp : 2 ,I:reg0x11fc=0x27292b1f. Q:reg0x1238=0x2525231d.
rx1 vga case:2 pass.
RX1 vga case:2 ,absolute value dc_i_tmp : 15 , value dc_q_tmp : 2 ,I:reg0x1200=0x27292b1f. Q:reg0x123c=0x2525231d.
rx1 vga case:3 pass.
RX1 vga case:3 ,absolute value dc_i_tmp : 15 , value dc_q_tmp : 2 ,I:reg0x1204=0x27292b1f. Q:reg0x1240=0x2525231d.
rx1 vga case:4 pass.
RX1 vga case:4 ,absolute value dc_i_tmp : 15 , value dc_q_tmp : 2 ,I:reg0x1208=0x292b2b1f. Q:reg0x1244=0x2525231d.
rx1 vga case:5 pass.
RX1 vga case:5 ,absolute value dc_i_tmp : 15 , value dc_q_tmp : 1 ,I:reg0x120c=0x27292b1f. Q:reg0x1248=0x2525231d.
rx1 vga case:6 pass.
RX1 vga case:6 ,absolute value dc_i_tmp : 15 , value dc_q_tmp : 1 ,I:reg0x1210=0x292b2b1f. Q:reg0x124c=0x2525231d.
rx1 vga case:7 pass.
RX1 vga case:7 ,absolute value dc_i_tmp : 15 , value dc_q_tmp : 0 ,I:reg0x1214=0x27292b1f. Q:reg0x1250=0x2525231d.
rx1 vga case:8 pass.
RX1 vga case:8 ,absolute value dc_i_tmp : 15 , value dc_q_tmp : 1 ,I:reg0x1218=0x2b292d1d. Q:reg0x1254=0x2325231d.
rx1 vga case:9 pass.
RX1 vga case:9 ,absolute value dc_i_tmp : 15 , value dc_q_tmp : 0 ,I:reg0x121c=0x272b2f1b. Q:reg0x1258=0x2325231d.
rx1 vga case:10 pass.
RX1 vga case:10 ,absolute value dc_i_tmp : 15 , value dc_q_tmp : 1 ,I:reg0x1220=0x29293319. Q:reg0x125c=0x2527231d.
rx1 vga case:11 pass.
RX1 vga case:11 ,absolute value dc_i_tmp : 15 , value dc_q_tmp : 1 ,I:reg0x1224=0x2b253715. Q:reg0x1260=0x2327231d.
rx1 vga case:12 pass.
RX1 vga case:12 ,absolute value dc_i_tmp : 15 , value dc_q_tmp : 0 ,I:reg0x1228=0x27293911. Q:reg0x1264=0x2529231d.
rx1 vga case:13 pass.
RX1 vga case:13 ,absolute value dc_i_tmp : 15 , value dc_q_tmp : 0 ,I:reg0x122c=0x2d2d3f0d. Q:reg0x1268=0x2921251d.
rx1 vga case:14 pass.
RX1 vga case:14 ,absolute value dc_i_tmp : 15 , value dc_q_tmp : 0 ,I:reg0x1230=0x13f3f01. Q:reg0x126c=0x2723231b.
reg0x1120=0x3c0100.
vga calibration end!
RX0: 0x103c : e0020000 ,0x1040 : 80001102 
RX1: 0x1054 : e0020000 ,0x1058 : 80001100 
THIS CASE J: 0 M: 8 
adc calibration begin
calibration begin
RX0 cali pre ,absolute value dc_i_tmp : 9 , value dc_q_tmp : 8 ,
reg0x1180=0x27271b21.
reg0x11bc=0x29252121.
RX1 cali pre ,absolute value dc_i_tmp : 1 , value dc_q_tmp : 2 ,reg0x11f8=0x29292327.
reg0x1234=0x2523231b.
rx0 tia cali begin:
####:reg0x1270=0x601f6e13.
tia_cnt_i : 78 ,
tia_cnt_q : 92 ,
I:reg0x1150=0x27271b21.
Q:reg0x1154=0x29252121.
RX0 tia case :0,absolute value dc_i : -1 , value dc_q : -1 
####:reg0x1270=0x207b2061.
####:reg0x1274=0x5c216619.
tia_cnt_i : 102 ,
tia_cnt_q : 1 ,
I:reg0x1150=0x27271b21.
Q:reg0x1154=0x29252121.
RX0 tia case :1,absolute value dc_i : -2 , value dc_q : -6 
####:reg0x1274=0x22007f.
####:reg0x1278=0x5a25621d.
tia_cnt_i : 98 ,
tia_cnt_q : 1 ,
I:reg0x1150=0x27271b21.
Q:reg0x1154=0x29252121.
RX0 tia case :2,absolute value dc_i : -4 , value dc_q : -6 
####:reg0x1278=0x26007f.
####:reg0x127c=0x58275e21.
tia_cnt_i : 94 ,
tia_cnt_q : 1 ,
I:reg0x1150=0x27271b21.
Q:reg0x1154=0x29252121.
RX0 tia case :3,absolute value dc_i : -5 , value dc_q : -6 
####:reg0x127c=0x28007f.
####:reg0x1280=0x4c33522d.
tia_cnt_i : 82 ,
tia_cnt_q : 1 ,
I:reg0x1150=0x27271b21.
Q:reg0x1154=0x29252121.
RX0 tia case :4,absolute value dc_i : -6 , value dc_q : -7 
####:reg0x1280=0x34007f.
####:reg0x1284=0x4a35522f.
tia_cnt_i : 80 ,
tia_cnt_q : 74 ,
I:reg0x1150=0x27271b21.
Q:reg0x1154=0x29252121.
RX0 tia case :5,absolute value dc_i : -6 , value dc_q : -6 
####:reg0x1284=0x27f027f.
####:reg0x1288=0x48354e33.
tia_cnt_i : 76 ,
tia_cnt_q : 74 ,
I:reg0x1150=0x27271b21.
Q:reg0x1154=0x29252121.
RX0 tia case :6,absolute value dc_i : -6 , value dc_q : -6 
####:reg0x1288=0x27f027f.
####:reg0x128c=0x48374c33.
tia_cnt_i : 76 ,
tia_cnt_q : 1 ,
I:reg0x1150=0x27271b21.
Q:reg0x1154=0x29252121.
RX0 tia case :7,absolute value dc_i : -6 , value dc_q : -7 
####:reg0x128c=0x38007f.
####:reg0x1290=0x44394837.
tia_cnt_i : 72 ,
tia_cnt_q : 1 ,
I:reg0x1150=0x27271b21.
Q:reg0x1154=0x29252121.
RX0 tia case :8,absolute value dc_i : -6 , value dc_q : -7 
####:reg0x1290=0x3a007f.
####:reg0x1294=0x46394837.
tia_cnt_i : 72 ,
tia_cnt_q : 1 ,
I:reg0x1150=0x27271b21.
Q:reg0x1154=0x29252121.
RX0 tia case :9,absolute value dc_i : -6 , value dc_q : -7 
####:reg0x1294=0x3a007f.
####:reg0x1298=0x44394837.
tia_cnt_i : 72 ,
tia_cnt_q : 1 ,
I:reg0x1150=0x27271b21.
Q:reg0x1154=0x29252121.
RX0 tia case :10,absolute value dc_i : -6 , value dc_q : -7 
####:reg0x1298=0x3a007f.
####:reg0x129c=0x44394837.
tia_cnt_i : 72 ,
tia_cnt_q : 1 ,
I:reg0x1150=0x27271b21.
Q:reg0x1154=0x29252121.
RX0 tia case :11,absolute value dc_i : -6 , value dc_q : -7 
####:reg0x129c=0x3a007f.
####:reg0x12a0=0x44394837.
tia_cnt_i : 72 ,
tia_cnt_q : 1 ,
I:reg0x1150=0x27271b21.
Q:reg0x1154=0x29252121.
RX0 tia case :12,absolute value dc_i : -6 , value dc_q : -7 
####:reg0x12a0=0x3a007f.
rx1 tia cali begin:
Q:reg0x12b0=0x4a354c33.
 RX1 :reg0x1130=0x4c334a35.
tia_cnt_i : 0 ,
tia_cnt_q : 4 ,
RX1 tia case :0,absolute value dc_i : 1 , value dc_q : -1 
RX1:reg0x12b0=0x4c394c33.
Q:reg0x12b4=0x4a354a35.
 RX1 :reg0x1130=0x4a354a35.
tia_cnt_i : 0 ,
tia_cnt_q : 22 ,
RX1 tia case :1,absolute value dc_i : 1 , value dc_q : -1 
RX1:reg0x12b4=0x4a4b4a35.
Q:reg0x12b8=0x48374a35.
 RX1 :reg0x1130=0x4a354837.
tia_cnt_i : 0 ,
tia_cnt_q : 27 ,
RX1 tia case :2,absolute value dc_i : 1 , value dc_q : -1 
RX1:reg0x12b8=0x4a524a35.
Q:reg0x12bc=0x48374837.
 RX1 :reg0x1130=0x48374837.
tia_cnt_i : 0 ,
tia_cnt_q : 57 ,
RX1 tia case :3,absolute value dc_i : 1 , value dc_q : -1 
RX1:reg0x12bc=0x48704837.
Q:reg0x12c0=0x46394439.
 RX1 :reg0x1130=0x44394639.
tia_cnt_i : 1 ,
tia_cnt_q : 70 ,
RX1 tia case :4,absolute value dc_i : 1 , value dc_q : -3 
RX1:reg0x12c0=0x457f4538.
Q:reg0x12c4=0x3e413e43.
 RX1 :reg0x1130=0x3e433e41.
tia_cnt_i : 0 ,
tia_cnt_q : 62 ,
RX1 tia case :5,absolute value dc_i : 1 , value dc_q : -4 
RX1:reg0x12c4=0x3e7f3e43.
Q:reg0x12c8=0x3c413e43.
 RX1 :reg0x1130=0x3e433c41.
tia_cnt_i : 2 ,
tia_cnt_q : 62 ,
RX1 tia case :6,absolute value dc_i : 1 , value dc_q : -2 
RX1:reg0x12c8=0x407f4041.
Q:reg0x12cc=0x3c433c43.
 RX1 :reg0x1130=0x3c433c43.
tia_cnt_i : 0 ,
tia_cnt_q : 60 ,
RX1 tia case :7,absolute value dc_i : 1 , value dc_q : -3 
RX1:reg0x12cc=0x3c7f3c43.
Q:reg0x12d0=0x38453847.
 RX1 :reg0x1130=0x38473845.
tia_cnt_i : 0 ,
tia_cnt_q : 47 ,
RX1 tia case :8,absolute value dc_i : 1 , value dc_q : -1 
RX1:reg0x12d0=0x38743847.
Q:reg0x12d4=0x3a453a45.
 RX1 :reg0x1130=0x3a453a45.
tia_cnt_i : 0 ,
tia_cnt_q : 54 ,
RX1 tia case :9,absolute value dc_i : 1 , value dc_q : -1 
RX1:reg0x12d4=0x3a7b3a45.
Q:reg0x12d8=0x3c433a47.
 RX1 :reg0x1130=0x3a473c43.
tia_cnt_i : 0 ,
tia_cnt_q : 60 ,
RX1 tia case :10,absolute value dc_i : 1 , value dc_q : -3 
RX1:reg0x12d8=0x3a7f3a47.
Q:reg0x12dc=0x38453845.
 RX1 :reg0x1130=0x38453845.
tia_cnt_i : 0 ,
tia_cnt_q : 47 ,
RX1 tia case :11,absolute value dc_i : 1 , value dc_q : -1 
RX1:reg0x12dc=0x38743845.
Q:reg0x12e0=0x3c433845.
 RX1 :reg0x1130=0x38453c43.
tia_cnt_i : 0 ,
tia_cnt_q : 52 ,
RX1 tia case :12,absolute value dc_i : 1 , value dc_q : -1 
RX1:reg0x12e0=0x38773845.
tia calibration end!
rx0 vga calibration begin
reg0x1120=0x3fc100.
vga case:1 pass.
RX0 vga case:1 ,absolute value dc_i_tmp : 9 , value dc_q_tmp : 8 ,I:reg0x1184=0x2527291d.   Q:reg0x11c0=0x27252917.
vga case:2 pass.
RX0 vga case:2 ,absolute value dc_i_tmp : 8 , value dc_q_tmp : 8 ,I:reg0x1188=0x2727291d.   Q:reg0x11c4=0x29272b19.
vga case:3 pass.
RX0 vga case:3 ,absolute value dc_i_tmp : 8 , value dc_q_tmp : 8 ,I:reg0x118c=0x2727291d.   Q:reg0x11c8=0x27252b19.
vga case:4 pass.
RX0 vga case:4 ,absolute value dc_i_tmp : 8 , value dc_q_tmp : 8 ,I:reg0x1190=0x2727291d.   Q:reg0x11cc=0x27252b19.
vga case:5 pass.
RX0 vga case:5 ,absolute value dc_i_tmp : 8 , value dc_q_tmp : 8 ,I:reg0x1194=0x2527291d.   Q:reg0x11d0=0x27272917.
vga case:6 pass.
RX0 vga case:6 ,absolute value dc_i_tmp : 8 , value dc_q_tmp : 8 ,I:reg0x1198=0x2527291d.   Q:reg0x11d4=0x27272917.
vga case:7 pass.
RX0 vga case:7 ,absolute value dc_i_tmp : 8 , value dc_q_tmp : 8 ,I:reg0x119c=0x2727291d.   Q:reg0x11d8=0x27272b19.
vga case:8 pass.
RX0 vga case:8 ,absolute value dc_i_tmp : 8 , value dc_q_tmp : 8 ,I:reg0x11a0=0x29232b1b.   Q:reg0x11dc=0x29252b15.
vga case:9 pass.
RX0 vga case:9 ,absolute value dc_i_tmp : 8 , value dc_q_tmp : 8 ,I:reg0x11a4=0x2b252d19.   Q:reg0x11e0=0x2b212f13.
vga case:10 pass.
RX0 vga case:10 ,absolute value dc_i_tmp : 8 , value dc_q_tmp : 8 ,I:reg0x11a8=0x27272f17.   Q:reg0x11e4=0x2b272f0f.
vga case:11 pass.
RX0 vga case:11 ,absolute value dc_i_tmp : 7 , value dc_q_tmp : 8 ,I:reg0x11ac=0x27253113.   Q:reg0x11e8=0x2923350d.
vga case:12 pass.
RX0 vga case:12 ,absolute value dc_i_tmp : 7 , value dc_q_tmp : 8 ,I:reg0x11b0=0x2925330f.   Q:reg0x11ec=0x29233909.
vga case:13 pass.
RX0 vga case:13 ,absolute value dc_i_tmp : 7 , value dc_q_tmp : 6 ,I:reg0x11b4=0x2d273b0d.   Q:reg0x11f0=0x27293d03.
vga case:14 pass.
RX0 vga case:14 ,absolute value dc_i_tmp : 6 , value dc_q_tmp : 1 ,I:reg0x11b8=0x21373f01.   Q:reg0x11f4=0x13f3f01.
rx1 vga calibration begin
rx1 vga case:1 pass.
RX1 vga case:1 ,absolute value dc_i_tmp : 1 , value dc_q_tmp : 2 ,I:reg0x11fc=0x27272529. Q:reg0x1238=0x2523231b.
rx1 vga case:2 pass.
RX1 vga case:2 ,absolute value dc_i_tmp : 1 , value dc_q_tmp : 3 ,I:reg0x1200=0x27292127. Q:reg0x123c=0x2523231b.
rx1 vga case:3 pass.
RX1 vga case:3 ,absolute value dc_i_tmp : 0 , value dc_q_tmp : 3 ,I:reg0x1204=0x29272529. Q:reg0x1240=0x2523231b.
rx1 vga case:4 pass.
RX1 vga case:4 ,absolute value dc_i_tmp : 0 , value dc_q_tmp : 2 ,I:reg0x1208=0x29272529. Q:reg0x1244=0x2523231b.
rx1 vga case:5 pass.
RX1 vga case:5 ,absolute value dc_i_tmp : 1 , value dc_q_tmp : 2 ,I:reg0x120c=0x29272529. Q:reg0x1248=0x2523231b.
rx1 vga case:6 pass.
RX1 vga case:6 ,absolute value dc_i_tmp : 0 , value dc_q_tmp : 3 ,I:reg0x1210=0x2b272529. Q:reg0x124c=0x2523231b.
rx1 vga case:7 pass.
RX1 vga case:7 ,absolute value dc_i_tmp : 0 , value dc_q_tmp : 2 ,I:reg0x1214=0x272b2127. Q:reg0x1250=0x2723231b.
rx1 vga case:8 pass.
RX1 vga case:8 ,absolute value dc_i_tmp : 0 , value dc_q_tmp : 2 ,I:reg0x1218=0x2b292329. Q:reg0x1254=0x2525231b.
rx1 vga case:9 pass.
RX1 vga case:9 ,absolute value dc_i_tmp : 0 , value dc_q_tmp : 2 ,I:reg0x121c=0x292b2129. Q:reg0x1258=0x2327231b.
rx1 vga case:10 pass.
RX1 vga case:10 ,absolute value dc_i_tmp : 0 , value dc_q_tmp : 2 ,I:reg0x1220=0x272b212b. Q:reg0x125c=0x2923251b.
rx1 vga case:11 pass.
RX1 vga case:11 ,absolute value dc_i_tmp : 0 , value dc_q_tmp : 2 ,I:reg0x1224=0x27291f2b. Q:reg0x1260=0x2525251b.
rx1 vga case:12 pass.
RX1 vga case:12 ,absolute value dc_i_tmp : 0 , value dc_q_tmp : 2 ,I:reg0x1228=0x29271f2d. Q:reg0x1264=0x29212519.
rx1 vga case:13 pass.
RX1 vga case:13 ,absolute value dc_i_tmp : 0 , value dc_q_tmp : 2 ,I:reg0x122c=0x252b1d2f. Q:reg0x1268=0x25252519.
rx1 vga case:14 pass.
RX1 vga case:14 ,absolute value dc_i_tmp : 0 , value dc_q_tmp : 1 ,I:reg0x1230=0x29271931. Q:reg0x126c=0x29212717.
reg0x1120=0x3c0100.
vga calibration end!
RX0: 0x103c : e0024000 ,0x1040 : 90001102 
RX1: 0x1054 : e0024000 ,0x1058 : 90001100 
THIS CASE J: 0 M: 9 
adc calibration begin
calibration begin
RX0 cali pre ,absolute value dc_i_tmp : 1 , value dc_q_tmp : 1 ,
reg0x1180=0x27271f25.
reg0x11bc=0x27251f21.
RX1 cali pre ,absolute value dc_i_tmp : 6 , value dc_q_tmp : 1 ,reg0x11f8=0x29292529.
reg0x1234=0x2725231b.
rx0 tia cali begin:
####:reg0x1270=0x601f6a15.
tia_cnt_i : 0 ,
tia_cnt_q : 0 ,
I:reg0x1150=0x27271f25.
Q:reg0x1154=0x27251f21.
RX0 tia case :0,absolute value dc_i : -1 , value dc_q : -1 
####:reg0x1270=0x601f6a15.
####:reg0x1274=0x601f6c13.
tia_cnt_i : 0 ,
tia_cnt_q : 0 ,
I:reg0x1150=0x27271f25.
Q:reg0x1154=0x27251f21.
RX0 tia case :1,absolute value dc_i : 1 , value dc_q : 1 
####:reg0x1274=0x601f6c13.
####:reg0x1278=0x5e216a17.
tia_cnt_i : 13 ,
tia_cnt_q : 0 ,
I:reg0x1150=0x27271f25.
Q:reg0x1154=0x27251f21.
RX0 tia case :2,absolute value dc_i : 1 , value dc_q : 1 
####:reg0x1278=0x5e21770a.
####:reg0x127c=0x5a25641b.
tia_cnt_i : 27 ,
tia_cnt_q : 1 ,
I:reg0x1150=0x27271f25.
Q:reg0x1154=0x27251f21.
RX0 tia case :3,absolute value dc_i : 2 , value dc_q : 1 
####:reg0x127c=0x7f247f00.
####:reg0x1280=0x4e33522d.
tia_cnt_i : 45 ,
tia_cnt_q : 1 ,
I:reg0x1150=0x27271f25.
Q:reg0x1154=0x27251f21.
RX0 tia case :4,absolute value dc_i : 2 , value dc_q : 1 
####:reg0x1280=0x7f327f00.
####:reg0x1284=0x4a35542b.
tia_cnt_i : 43 ,
tia_cnt_q : 1 ,
I:reg0x1150=0x27271f25.
Q:reg0x1154=0x27251f21.
RX0 tia case :5,absolute value dc_i : 2 , value dc_q : 2 
####:reg0x1284=0x7f347f00.
####:reg0x1288=0x4a354e31.
tia_cnt_i : 49 ,
tia_cnt_q : 1 ,
I:reg0x1150=0x27271f25.
Q:reg0x1154=0x27251f21.
RX0 tia case :6,absolute value dc_i : 2 , value dc_q : 1 
####:reg0x1288=0x7f347f00.
####:reg0x128c=0x48354c33.
tia_cnt_i : 51 ,
tia_cnt_q : 1 ,
I:reg0x1150=0x27271f25.
Q:reg0x1154=0x27251f21.
RX0 tia case :7,absolute value dc_i : 2 , value dc_q : 2 
####:reg0x128c=0x7f347f00.
####:reg0x1290=0x44394639.
tia_cnt_i : 57 ,
tia_cnt_q : 1 ,
I:reg0x1150=0x27271f25.
Q:reg0x1154=0x27251f21.
RX0 tia case :8,absolute value dc_i : 2 , value dc_q : 1 
####:reg0x1290=0x7f387f00.
####:reg0x1294=0x463b4639.
tia_cnt_i : 57 ,
tia_cnt_q : 1 ,
I:reg0x1150=0x27271f25.
Q:reg0x1154=0x27251f21.
RX0 tia case :9,absolute value dc_i : 2 , value dc_q : 2 
####:reg0x1294=0x7f3a7f00.
####:reg0x1298=0x46394639.
tia_cnt_i : 57 ,
tia_cnt_q : 1 ,
I:reg0x1150=0x27271f25.
Q:reg0x1154=0x27251f21.
RX0 tia case :10,absolute value dc_i : 2 , value dc_q : 2 
####:reg0x1298=0x7f387f00.
####:reg0x129c=0x46394837.
tia_cnt_i : 55 ,
tia_cnt_q : 1 ,
I:reg0x1150=0x27271f25.
Q:reg0x1154=0x27251f21.
RX0 tia case :11,absolute value dc_i : 2 , value dc_q : 2 
####:reg0x129c=0x7f387f00.
####:reg0x12a0=0x463b4837.
tia_cnt_i : 55 ,
tia_cnt_q : 1 ,
I:reg0x1150=0x27271f25.
Q:reg0x1154=0x27251f21.
RX0 tia case :12,absolute value dc_i : 2 , value dc_q : 2 
####:reg0x12a0=0x7f3a7f00.
rx1 tia cali begin:
Q:reg0x12b0=0x4a374c33.
 RX1 :reg0x1130=0x4c334a37.
tia_cnt_i : 76 ,
tia_cnt_q : 0 ,
RX1 tia case :0,absolute value dc_i : -4 , value dc_q : -1 
RX1:reg0x12b0=0x4a37007f.
Q:reg0x12b4=0x4a354c33.
 RX1 :reg0x1130=0x4c334a35.
tia_cnt_i : 76 ,
tia_cnt_q : 23 ,
RX1 tia case :1,absolute value dc_i : -4 , value dc_q : 1 
RX1:reg0x12b4=0x20007f.
Q:reg0x12b8=0x4a354a35.
 RX1 :reg0x1130=0x4a354a35.
tia_cnt_i : 74 ,
tia_cnt_q : 1 ,
RX1 tia case :2,absolute value dc_i : -4 , value dc_q : 1 
RX1:reg0x12b8=0x36007f.
Q:reg0x12bc=0x48374639.
 RX1 :reg0x1130=0x46394837.
tia_cnt_i : 70 ,
tia_cnt_q : 1 ,
RX1 tia case :3,absolute value dc_i : -3 , value dc_q : 0 
RX1:reg0x12bc=0x38007f.
Q:reg0x12c0=0x463b4639.
 RX1 :reg0x1130=0x4639463b.
tia_cnt_i : 70 ,
tia_cnt_q : 1 ,
RX1 tia case :4,absolute value dc_i : -3 , value dc_q : -1 
RX1:reg0x12c0=0x3c007f.
Q:reg0x12c4=0x3e433c41.
 RX1 :reg0x1130=0x3c413e43.
tia_cnt_i : 60 ,
tia_cnt_q : 1 ,
RX1 tia case :5,absolute value dc_i : -3 , value dc_q : -2 
RX1:reg0x12c4=0x44007d.
Q:reg0x12c8=0x3c413c43.
 RX1 :reg0x1130=0x3c433c41.
tia_cnt_i : 60 ,
tia_cnt_q : 1 ,
RX1 tia case :6,absolute value dc_i : -4 , value dc_q : -1 
RX1:reg0x12c8=0x42007f.
Q:reg0x12cc=0x3e433c43.
 RX1 :reg0x1130=0x3c433e43.
tia_cnt_i : 60 ,
tia_cnt_q : 1 ,
RX1 tia case :7,absolute value dc_i : -3 , value dc_q : -1 
RX1:reg0x12cc=0x44007f.
Q:reg0x12d0=0x3a473845.
 RX1 :reg0x1130=0x38453a47.
tia_cnt_i : 56 ,
tia_cnt_q : 1 ,
RX1 tia case :8,absolute value dc_i : -4 , value dc_q : -1 
RX1:reg0x12d0=0x48007d.
Q:reg0x12d4=0x3a453a47.
 RX1 :reg0x1130=0x3a473a45.
tia_cnt_i : 56 ,
tia_cnt_q : 3 ,
RX1 tia case :9,absolute value dc_i : -4 , value dc_q : -1 
RX1:reg0x12d4=0x248027f.
Q:reg0x12d8=0x3a453845.
 RX1 :reg0x1130=0x38453a45.
tia_cnt_i : 56 ,
tia_cnt_q : 1 ,
RX1 tia case :10,absolute value dc_i : -3 , value dc_q : -2 
RX1:reg0x12d8=0x46007d.
Q:reg0x12dc=0x3a453a47.
 RX1 :reg0x1130=0x3a473a45.
tia_cnt_i : 56 ,
tia_cnt_q : 1 ,
RX1 tia case :11,absolute value dc_i : -4 , value dc_q : -1 
RX1:reg0x12dc=0x246027f.
Q:reg0x12e0=0x3a473a45.
 RX1 :reg0x1130=0x3a453a47.
tia_cnt_i : 58 ,
tia_cnt_q : 1 ,
RX1 tia case :12,absolute value dc_i : -3 , value dc_q : -1 
RX1:reg0x12e0=0x48007f.
tia calibration end!
rx0 vga calibration begin
reg0x1120=0x3fc100.
vga case:1 pass.
RX0 vga case:1 ,absolute value dc_i_tmp : 1 , value dc_q_tmp : 1 ,I:reg0x1184=0x27272125.   Q:reg0x11c0=0x29252121.
vga case:2 pass.
RX0 vga case:2 ,absolute value dc_i_tmp : 1 , value dc_q_tmp : 1 ,I:reg0x1188=0x27272125.   Q:reg0x11c4=0x27232121.
vga case:3 pass.
RX0 vga case:3 ,absolute value dc_i_tmp : 0 , value dc_q_tmp : 0 ,I:reg0x118c=0x27252125.   Q:reg0x11c8=0x29232121.
vga case:4 pass.
RX0 vga case:4 ,absolute value dc_i_tmp : 0 , value dc_q_tmp : 0 ,I:reg0x1190=0x27252125.   Q:reg0x11cc=0x29232121.
vga case:5 pass.
RX0 vga case:5 ,absolute value dc_i_tmp : 1 , value dc_q_tmp : 1 ,I:reg0x1194=0x27252125.   Q:reg0x11d0=0x29271f21.
vga case:6 pass.
RX0 vga case:6 ,absolute value dc_i_tmp : 1 , value dc_q_tmp : 0 ,I:reg0x1198=0x29252125.   Q:reg0x11d4=0x29251f21.
vga case:7 pass.
RX0 vga case:7 ,absolute value dc_i_tmp : 1 , value dc_q_tmp : 1 ,I:reg0x119c=0x29232125.   Q:reg0x11d8=0x2d212121.
vga case:8 pass.
RX0 vga case:8 ,absolute value dc_i_tmp : 1 , value dc_q_tmp : 1 ,I:reg0x11a0=0x21272127.   Q:reg0x11dc=0x2d211f21.
vga case:9 pass.
RX0 vga case:9 ,absolute value dc_i_tmp : 1 , value dc_q_tmp : 0 ,I:reg0x11a4=0x29212127.   Q:reg0x11e0=0x29231f23.
vga case:10 pass.
RX0 vga case:10 ,absolute value dc_i_tmp : 0 , value dc_q_tmp : 1 ,I:reg0x11a8=0x1f271b27.   Q:reg0x11e4=0x27211d23.
vga case:11 pass.
RX0 vga case:11 ,absolute value dc_i_tmp : 0 , value dc_q_tmp : 1 ,I:reg0x11ac=0x1f271b29.   Q:reg0x11e8=0x29271b25.
vga case:12 pass.
RX0 vga case:12 ,absolute value dc_i_tmp : 0 , value dc_q_tmp : 1 ,I:reg0x11b0=0x21231929.   Q:reg0x11ec=0x2f1b1b25.
vga case:13 pass.
RX0 vga case:13 ,absolute value dc_i_tmp : 1 , value dc_q_tmp : 0 ,I:reg0x11b4=0x2b1f1b2d.   Q:reg0x11f0=0x2f211b29.
vga case:14 pass.
RX0 vga case:14 ,absolute value dc_i_tmp : 0 , value dc_q_tmp : 1 ,I:reg0x11b8=0x21271531.   Q:reg0x11f4=0x1d27132d.
rx1 vga calibration begin
rx1 vga case:1 pass.
RX1 vga case:1 ,absolute value dc_i_tmp : 7 , value dc_q_tmp : 1 ,I:reg0x11fc=0x27292b1f. Q:reg0x1238=0x2525231d.
rx1 vga case:2 pass.
RX1 vga case:2 ,absolute value dc_i_tmp : 7 , value dc_q_tmp : 0 ,I:reg0x1200=0x292b2d21. Q:reg0x123c=0x2525231d.
rx1 vga case:3 pass.
RX1 vga case:3 ,absolute value dc_i_tmp : 7 , value dc_q_tmp : 1 ,I:reg0x1204=0x27292b1f. Q:reg0x1240=0x2723251d.
rx1 vga case:4 pass.
RX1 vga case:4 ,absolute value dc_i_tmp : 7 , value dc_q_tmp : 1 ,I:reg0x1208=0x27292b1f. Q:reg0x1244=0x2527231d.
rx1 vga case:5 pass.
RX1 vga case:5 ,absolute value dc_i_tmp : 7 , value dc_q_tmp : 1 ,I:reg0x120c=0x27292b1f. Q:reg0x1248=0x2721251d.
rx1 vga case:6 pass.
RX1 vga case:6 ,absolute value dc_i_tmp : 7 , value dc_q_tmp : 1 ,I:reg0x1210=0x27292b1f. Q:reg0x124c=0x2721251d.
rx1 vga case:7 pass.
RX1 vga case:7 ,absolute value dc_i_tmp : 7 , value dc_q_tmp : 1 ,I:reg0x1214=0x27292b1f. Q:reg0x1250=0x2921251d.
rx1 vga case:8 pass.
RX1 vga case:8 ,absolute value dc_i_tmp : 7 , value dc_q_tmp : 0 ,I:reg0x1218=0x29292d1d. Q:reg0x1254=0x2921251d.
rx1 vga case:9 pass.
RX1 vga case:9 ,absolute value dc_i_tmp : 6 , value dc_q_tmp : 0 ,I:reg0x121c=0x29292f1b. Q:reg0x1258=0x2721231b.
rx1 vga case:10 pass.
RX1 vga case:10 ,absolute value dc_i_tmp : 6 , value dc_q_tmp : 1 ,I:reg0x1220=0x29273319. Q:reg0x125c=0x2723231b.
rx1 vga case:11 pass.
RX1 vga case:11 ,absolute value dc_i_tmp : 6 , value dc_q_tmp : 0 ,I:reg0x1224=0x272b3515. Q:reg0x1260=0x2323231b.
rx1 vga case:12 pass.
RX1 vga case:12 ,absolute value dc_i_tmp : 6 , value dc_q_tmp : 0 ,I:reg0x1228=0x29293911. Q:reg0x1264=0x2325231b.
rx1 vga case:13 pass.
RX1 vga case:13 ,absolute value dc_i_tmp : 6 , value dc_q_tmp : 0 ,I:reg0x122c=0x272b3f0d. Q:reg0x1268=0x2921251b.
rx1 vga case:14 pass.
RX1 vga case:14 ,absolute value dc_i_tmp : 0 , value dc_q_tmp : 0 ,I:reg0x1230=0x13f3f01. Q:reg0x126c=0x2727251b.
reg0x1120=0x3c0100.
vga calibration end!
RX0: 0x103c : e0028000 ,0x1040 : a0001102 
RX1: 0x1054 : e0028000 ,0x1058 : a0001100 
THIS CASE J: 0 M:10 
adc calibration begin
calibration begin
RX0 cali pre ,absolute value dc_i_tmp : 1 , value dc_q_tmp : 0 ,
reg0x1180=0x27271f25.
reg0x11bc=0x29252121.
RX1 cali pre ,absolute value dc_i_tmp : 7 , value dc_q_tmp : 1 ,reg0x11f8=0x29292529.
reg0x1234=0x2725231b.
rx0 tia cali begin:
####:reg0x1270=0x601f6815.
tia_cnt_i : 0 ,
tia_cnt_q : 0 ,
I:reg0x1150=0x27271f25.
Q:reg0x1154=0x29252121.
RX0 tia case :0,absolute value dc_i : -1 , value dc_q : 0 
####:reg0x1270=0x601f6815.
####:reg0x1274=0x601f6a15.
tia_cnt_i : 0 ,
tia_cnt_q : 0 ,
I:reg0x1150=0x27271f25.
Q:reg0x1154=0x29252121.
RX0 tia case :1,absolute value dc_i : 1 , value dc_q : 1 
####:reg0x1274=0x601f6a15.
####:reg0x1278=0x5e216619.
tia_cnt_i : 18 ,
tia_cnt_q : 1 ,
I:reg0x1150=0x27271f25.
Q:reg0x1154=0x29252121.
RX0 tia case :2,absolute value dc_i : 1 , value dc_q : 1 
####:reg0x1278=0x78207807.
####:reg0x127c=0x5a25641b.
tia_cnt_i : 27 ,
tia_cnt_q : 1 ,
I:reg0x1150=0x27271f25.
Q:reg0x1154=0x29252121.
RX0 tia case :3,absolute value dc_i : 2 , value dc_q : 1 
####:reg0x127c=0x7f247f00.
####:reg0x1280=0x4e33522d.
tia_cnt_i : 45 ,
tia_cnt_q : 1 ,
I:reg0x1150=0x27271f25.
Q:reg0x1154=0x29252121.
RX0 tia case :4,absolute value dc_i : 2 , value dc_q : 2 
####:reg0x1280=0x7f327f00.
####:reg0x1284=0x4c33522d.
tia_cnt_i : 45 ,
tia_cnt_q : 1 ,
I:reg0x1150=0x27271f25.
Q:reg0x1154=0x29252121.
RX0 tia case :5,absolute value dc_i : 2 , value dc_q : 2 
####:reg0x1284=0x7f327f00.
####:reg0x1288=0x4c334e31.
tia_cnt_i : 49 ,
tia_cnt_q : 1 ,
I:reg0x1150=0x27271f25.
Q:reg0x1154=0x29252121.
RX0 tia case :6,absolute value dc_i : 2 , value dc_q : 2 
####:reg0x1288=0x7f327f00.
####:reg0x128c=0x48354e33.
tia_cnt_i : 49 ,
tia_cnt_q : 1 ,
I:reg0x1150=0x27271f25.
Q:reg0x1154=0x29252121.
RX0 tia case :7,absolute value dc_i : 2 , value dc_q : 2 
####:reg0x128c=0x7f347f02.
####:reg0x1290=0x44394639.
tia_cnt_i : 57 ,
tia_cnt_q : 1 ,
I:reg0x1150=0x27271f25.
Q:reg0x1154=0x29252121.
RX0 tia case :8,absolute value dc_i : 2 , value dc_q : 2 
####:reg0x1290=0x7f387f00.
####:reg0x1294=0x44394837.
tia_cnt_i : 55 ,
tia_cnt_q : 1 ,
I:reg0x1150=0x27271f25.
Q:reg0x1154=0x29252121.
RX0 tia case :9,absolute value dc_i : 2 , value dc_q : 2 
####:reg0x1294=0x7f387f00.
####:reg0x1298=0x463b4639.
tia_cnt_i : 57 ,
tia_cnt_q : 1 ,
I:reg0x1150=0x27271f25.
Q:reg0x1154=0x29252121.
RX0 tia case :10,absolute value dc_i : 2 , value dc_q : 2 
####:reg0x1298=0x7f3a7f00.
####:reg0x129c=0x46394639.
tia_cnt_i : 57 ,
tia_cnt_q : 1 ,
I:reg0x1150=0x27271f25.
Q:reg0x1154=0x29252121.
RX0 tia case :11,absolute value dc_i : 2 , value dc_q : 2 
####:reg0x129c=0x7f387f00.
####:reg0x12a0=0x44394837.
tia_cnt_i : 55 ,
tia_cnt_q : 1 ,
I:reg0x1150=0x27271f25.
Q:reg0x1154=0x29252121.
RX0 tia case :12,absolute value dc_i : 2 , value dc_q : 2 
####:reg0x12a0=0x7f387f00.
rx1 tia cali begin:
Q:reg0x12b0=0x4a354c33.
 RX1 :reg0x1130=0x4c334a35.
tia_cnt_i : 76 ,
tia_cnt_q : 0 ,
RX1 tia case :0,absolute value dc_i : -4 , value dc_q : -1 
RX1:reg0x12b0=0x4a35007f.
Q:reg0x12b4=0x4a354a35.
 RX1 :reg0x1130=0x4a354a35.
tia_cnt_i : 74 ,
tia_cnt_q : 21 ,
RX1 tia case :1,absolute value dc_i : -4 , value dc_q : 1 
RX1:reg0x12b4=0x22007f.
Q:reg0x12b8=0x48354a35.
 RX1 :reg0x1130=0x4a354835.
tia_cnt_i : 74 ,
tia_cnt_q : 1 ,
RX1 tia case :2,absolute value dc_i : -4 , value dc_q : 1 
RX1:reg0x12b8=0x36007f.
Q:reg0x12bc=0x48374837.
 RX1 :reg0x1130=0x48374837.
tia_cnt_i : 72 ,
tia_cnt_q : 1 ,
RX1 tia case :3,absolute value dc_i : -4 , value dc_q : 0 
RX1:reg0x12bc=0x38007f.
Q:reg0x12c0=0x46394639.
 RX1 :reg0x1130=0x46394639.
tia_cnt_i : 70 ,
tia_cnt_q : 1 ,
RX1 tia case :4,absolute value dc_i : -4 , value dc_q : -1 
RX1:reg0x12c0=0x3a007f.
Q:reg0x12c4=0x3e413c41.
 RX1 :reg0x1130=0x3c413e41.
tia_cnt_i : 60 ,
tia_cnt_q : 1 ,
RX1 tia case :5,absolute value dc_i : -4 , value dc_q : -1 
RX1:reg0x12c4=0x42007d.
Q:reg0x12c8=0x3c413e43.
 RX1 :reg0x1130=0x3e433c41.
tia_cnt_i : 60 ,
tia_cnt_q : 4 ,
RX1 tia case :6,absolute value dc_i : -4 , value dc_q : -1 
RX1:reg0x12c8=0x245027f.
Q:reg0x12cc=0x3e433a45.
 RX1 :reg0x1130=0x3a453e43.
tia_cnt_i : 58 ,
tia_cnt_q : 1 ,
RX1 tia case :7,absolute value dc_i : -4 , value dc_q : -2 
RX1:reg0x12cc=0x44007f.
Q:reg0x12d0=0x38453845.
 RX1 :reg0x1130=0x38453845.
tia_cnt_i : 56 ,
tia_cnt_q : 1 ,
RX1 tia case :8,absolute value dc_i : -4 , value dc_q : -2 
RX1:reg0x12d0=0x46007d.
Q:reg0x12d4=0x3a453a45.
 RX1 :reg0x1130=0x3a453a45.
tia_cnt_i : 58 ,
tia_cnt_q : 1 ,
RX1 tia case :9,absolute value dc_i : -4 , value dc_q : -2 
RX1:reg0x12d4=0x46007f.
Q:reg0x12d8=0x3a453a47.
 RX1 :reg0x1130=0x3a473a45.
tia_cnt_i : 56 ,
tia_cnt_q : 1 ,
RX1 tia case :10,absolute value dc_i : -4 , value dc_q : -1 
RX1:reg0x12d8=0x246027f.
Q:reg0x12dc=0x3a473845.
 RX1 :reg0x1130=0x38453a47.
tia_cnt_i : 56 ,
tia_cnt_q : 1 ,
RX1 tia case :11,absolute value dc_i : -4 , value dc_q : -1 
RX1:reg0x12dc=0x48007d.
Q:reg0x12e0=0x3a453845.
 RX1 :reg0x1130=0x38453a45.
tia_cnt_i : 56 ,
tia_cnt_q : 1 ,
RX1 tia case :12,absolute value dc_i : -4 , value dc_q : -1 
RX1:reg0x12e0=0x46007d.
tia calibration end!
rx0 vga calibration begin
reg0x1120=0x3fc100.
vga case:1 pass.
RX0 vga case:1 ,absolute value dc_i_tmp : 1 , value dc_q_tmp : 1 ,I:reg0x1184=0x27272125.   Q:reg0x11c0=0x29252121.
vga case:2 pass.
RX0 vga case:2 ,absolute value dc_i_tmp : 1 , value dc_q_tmp : 1 ,I:reg0x1188=0x27272125.   Q:reg0x11c4=0x27232121.
vga case:3 pass.
RX0 vga case:3 ,absolute value dc_i_tmp : 0 , value dc_q_tmp : 0 ,I:reg0x118c=0x27252125.   Q:reg0x11c8=0x29232121.
vga case:4 pass.
RX0 vga case:4 ,absolute value dc_i_tmp : 0 , value dc_q_tmp : 1 ,I:reg0x1190=0x29272125.   Q:reg0x11cc=0x27251f21.
vga case:5 pass.
RX0 vga case:5 ,absolute value dc_i_tmp : 0 , value dc_q_tmp : 1 ,I:reg0x1194=0x29272125.   Q:reg0x11d0=0x29232121.
vga case:6 pass.
RX0 vga case:6 ,absolute value dc_i_tmp : 0 , value dc_q_tmp : 0 ,I:reg0x1198=0x27252125.   Q:reg0x11d4=0x2d232121.
vga case:7 pass.
RX0 vga case:7 ,absolute value dc_i_tmp : 1 , value dc_q_tmp : 1 ,I:reg0x119c=0x27252125.   Q:reg0x11d8=0x2b212121.
vga case:8 pass.
RX0 vga case:8 ,absolute value dc_i_tmp : 1 , value dc_q_tmp : 1 ,I:reg0x11a0=0x21272127.   Q:reg0x11dc=0x29232123.
vga case:9 pass.
RX0 vga case:9 ,absolute value dc_i_tmp : 0 , value dc_q_tmp : 0 ,I:reg0x11a4=0x29232127.   Q:reg0x11e0=0x2d211f23.
vga case:10 pass.
RX0 vga case:10 ,absolute value dc_i_tmp : 1 , value dc_q_tmp : 1 ,I:reg0x11a8=0x27251d27.   Q:reg0x11e4=0x29231f25.
vga case:11 pass.
RX0 vga case:11 ,absolute value dc_i_tmp : 1 , value dc_q_tmp : 1 ,I:reg0x11ac=0x25231d29.   Q:reg0x11e8=0x21271b25.
vga case:12 pass.
RX0 vga case:12 ,absolute value dc_i_tmp : 1 , value dc_q_tmp : 1 ,I:reg0x11b0=0x21271929.   Q:reg0x11ec=0x1f231925.
vga case:13 pass.
RX0 vga case:13 ,absolute value dc_i_tmp : 0 , value dc_q_tmp : 0 ,I:reg0x11b4=0x2d211b2d.   Q:reg0x11f0=0x311f1b29.
vga case:14 pass.
RX0 vga case:14 ,absolute value dc_i_tmp : 1 , value dc_q_tmp : 1 ,I:reg0x11b8=0x2327152f.   Q:reg0x11f4=0x1727132d.
rx1 vga calibration begin
rx1 vga case:1 pass.
RX1 vga case:1 ,absolute value dc_i_tmp : 7 , value dc_q_tmp : 1 ,I:reg0x11fc=0x292b2b1f. Q:reg0x1238=0x2525231d.
rx1 vga case:2 pass.
RX1 vga case:2 ,absolute value dc_i_tmp : 7 , value dc_q_tmp : 1 ,I:reg0x1200=0x27292b1f. Q:reg0x123c=0x2525231d.
rx1 vga case:3 pass.
RX1 vga case:3 ,absolute value dc_i_tmp : 7 , value dc_q_tmp : 0 ,I:reg0x1204=0x27292b1f. Q:reg0x1240=0x2525231d.
rx1 vga case:4 pass.
RX1 vga case:4 ,absolute value dc_i_tmp : 7 , value dc_q_tmp : 0 ,I:reg0x1208=0x27292b1f. Q:reg0x1244=0x2525231d.
rx1 vga case:5 pass.
RX1 vga case:5 ,absolute value dc_i_tmp : 7 , value dc_q_tmp : 1 ,I:reg0x120c=0x27292b1f. Q:reg0x1248=0x2325231d.
rx1 vga case:6 pass.
RX1 vga case:6 ,absolute value dc_i_tmp : 7 , value dc_q_tmp : 1 ,I:reg0x1210=0x27292b1f. Q:reg0x124c=0x2325231d.
rx1 vga case:7 pass.
RX1 vga case:7 ,absolute value dc_i_tmp : 6 , value dc_q_tmp : 0 ,I:reg0x1214=0x29292b1f. Q:reg0x1250=0x2325231d.
rx1 vga case:8 pass.
RX1 vga case:8 ,absolute value dc_i_tmp : 6 , value dc_q_tmp : 0 ,I:reg0x1218=0x29272d1d. Q:reg0x1254=0x291f251d.
rx1 vga case:9 pass.
RX1 vga case:9 ,absolute value dc_i_tmp : 6 , value dc_q_tmp : 0 ,I:reg0x121c=0x29292f1b. Q:reg0x1258=0x2921251d.
rx1 vga case:10 pass.
RX1 vga case:10 ,absolute value dc_i_tmp : 6 , value dc_q_tmp : 0 ,I:reg0x1220=0x2b293319. Q:reg0x125c=0x2921251d.
rx1 vga case:11 pass.
RX1 vga case:11 ,absolute value dc_i_tmp : 6 , value dc_q_tmp : 0 ,I:reg0x1224=0x2f273715. Q:reg0x1260=0x2721251d.
rx1 vga case:12 pass.
RX1 vga case:12 ,absolute value dc_i_tmp : 6 , value dc_q_tmp : 0 ,I:reg0x1228=0x29293911. Q:reg0x1264=0x2923231b.
rx1 vga case:13 pass.
RX1 vga case:13 ,absolute value dc_i_tmp : 6 , value dc_q_tmp : 0 ,I:reg0x122c=0x292b3f0d. Q:reg0x1268=0x2725231b.
rx1 vga case:14 pass.
RX1 vga case:14 ,absolute value dc_i_tmp : 1 , value dc_q_tmp : 1 ,I:reg0x1230=0x13f3f01. Q:reg0x126c=0x271f251b.
reg0x1120=0x3c0100.
vga calibration end!
RX0: 0x103c : e002c000 ,0x1040 : b0001102 
RX1: 0x1054 : e002c000 ,0x1058 : b0001100 
THIS CASE J: 0 M:11 
adc calibration begin
calibration begin
RX0 cali pre ,absolute value dc_i_tmp : 9 , value dc_q_tmp : 8 ,
reg0x1180=0x27271f25.
reg0x11bc=0x29252121.
RX1 cali pre ,absolute value dc_i_tmp : 15 , value dc_q_tmp : 1 ,reg0x11f8=0x29292529.
reg0x1234=0x2523251d.
