
read pll state:0x77 
pll state:0x0000007F! 
RX0: 0x103c : e0000000 ,0x1040 :        0 
RX1: 0x1054 : e0000000 ,0x1058 : 0 
THIS CASE J: 0 M: 0 
adc calibration begin
calibration begin
RX0 cali pre ,absolute value dc_i_tmp : 1 , value dc_q_tmp : 0 ,
reg0x1180=0x5072527.
reg0x11bc=0x33312121.
RX1 cali pre ,absolute value dc_i_tmp : 3 , value dc_q_tmp : 3 ,reg0x11f8=0x211f1d1b.
reg0x1234=0x2f2b1d1d.
rx0 tia cali begin:
####:reg0x1270=0x641b601f.
tia_cnt_i : 22 ,
tia_cnt_q : 0 ,
I:reg0x1150=0x5072527.
Q:reg0x1154=0x33312121.
RX0 tia case :0,absolute value dc_i : -1 , value dc_q : 1 
####:reg0x1270=0x641b4a35.
####:reg0x1274=0x641b621f.
tia_cnt_i : 20 ,
tia_cnt_q : 0 ,
I:reg0x1150=0x5072527.
Q:reg0x1154=0x33312121.
RX0 tia case :1,absolute value dc_i : -1 , value dc_q : 1 
####:reg0x1274=0x641b4e33.
####:reg0x1278=0x621f5e21.
tia_cnt_i : 13 ,
tia_cnt_q : 16 ,
I:reg0x1150=0x5072527.
Q:reg0x1154=0x33312121.
RX0 tia case :2,absolute value dc_i : -1 , value dc_q : 1 
####:reg0x1278=0x510f512e.
####:reg0x127c=0x5e215c23.
tia_cnt_i : 4 ,
tia_cnt_q : 9 ,
I:reg0x1150=0x5072527.
Q:reg0x1154=0x33312121.
RX0 tia case :3,absolute value dc_i : -1 , value dc_q : 1 
####:reg0x127c=0x58185827.
####:reg0x1280=0x542b522d.
tia_cnt_i : 0 ,
tia_cnt_q : 19 ,
I:reg0x1150=0x5072527.
Q:reg0x1154=0x33312121.
RX0 tia case :4,absolute value dc_i : -1 , value dc_q : 1 
####:reg0x1280=0x5218522d.
####:reg0x1284=0x522d522d.
tia_cnt_i : 0 ,
tia_cnt_q : 13 ,
I:reg0x1150=0x5072527.
Q:reg0x1154=0x33312121.
RX0 tia case :5,absolute value dc_i : -1 , value dc_q : 1 
####:reg0x1284=0x5220522d.
####:reg0x1288=0x502d502d.
tia_cnt_i : 0 ,
tia_cnt_q : 14 ,
I:reg0x1150=0x5072527.
Q:reg0x1154=0x33312121.
RX0 tia case :6,absolute value dc_i : -1 , value dc_q : 1 
####:reg0x1288=0x501f502d.
####:reg0x128c=0x4e314e31.
tia_cnt_i : 0 ,
tia_cnt_q : 15 ,
I:reg0x1150=0x5072527.
Q:reg0x1154=0x33312121.
RX0 tia case :7,absolute value dc_i : -1 , value dc_q : 1 
####:reg0x128c=0x4e224e31.
####:reg0x1290=0x4c334a35.
tia_cnt_i : 0 ,
tia_cnt_q : 12 ,
I:reg0x1150=0x5072527.
Q:reg0x1154=0x33312121.
RX0 tia case :8,absolute value dc_i : 0 , value dc_q : 1 
####:reg0x1290=0x4a274a35.
####:reg0x1294=0x4c314a35.
tia_cnt_i : 0 ,
tia_cnt_q : 15 ,
I:reg0x1150=0x5072527.
Q:reg0x1154=0x33312121.
RX0 tia case :9,absolute value dc_i : -1 , value dc_q : 1 
####:reg0x1294=0x4a224a35.
####:reg0x1298=0x4e334a35.
tia_cnt_i : 0 ,
tia_cnt_q : 21 ,
I:reg0x1150=0x5072527.
Q:reg0x1154=0x33312121.
RX0 tia case :10,absolute value dc_i : 0 , value dc_q : 1 
####:reg0x1298=0x4a1e4a35.
####:reg0x129c=0x4e334c33.
tia_cnt_i : 0 ,
tia_cnt_q : 25 ,
I:reg0x1150=0x5072527.
Q:reg0x1154=0x33312121.
RX0 tia case :11,absolute value dc_i : 0 , value dc_q : 1 
####:reg0x129c=0x4c1a4c33.
####:reg0x12a0=0x4c334a35.
tia_cnt_i : 0 ,
tia_cnt_q : 13 ,
I:reg0x1150=0x5072527.
Q:reg0x1154=0x33312121.
RX0 tia case :12,absolute value dc_i : 0 , value dc_q : 1 
####:reg0x12a0=0x4a264a35.
rx1 tia cali begin:
Q:reg0x12b0=0x443b4639.
 RX1 :reg0x1130=0x4639443b.
tia_cnt_i : 70 ,
tia_cnt_q : 1 ,
RX1 tia case :0,absolute value dc_i : -5 , value dc_q : 1 
RX1:reg0x12b0=0x3c007f.
Q:reg0x12b4=0x443b443b.
 RX1 :reg0x1130=0x443b443b.
tia_cnt_i : 68 ,
tia_cnt_q : 1 ,
RX1 tia case :1,absolute value dc_i : -6 , value dc_q : -3 
RX1:reg0x12b4=0x3c007f.
Q:reg0x12b8=0x423d463b.
 RX1 :reg0x1130=0x463b423d.
tia_cnt_i : 68 ,
tia_cnt_q : 14 ,
RX1 tia case :2,absolute value dc_i : -3 , value dc_q : -1 
RX1:reg0x12b8=0x24b027f.
Q:reg0x12bc=0x3e41443b.
 RX1 :reg0x1130=0x443b3e41.
tia_cnt_i : 68 ,
tia_cnt_q : 1 ,
RX1 tia case :3,absolute value dc_i : -4 , value dc_q : -5 
RX1:reg0x12bc=0x42007f.
Q:reg0x12c0=0x3e433c41.
 RX1 :reg0x1130=0x3c413e43.
tia_cnt_i : 55 ,
tia_cnt_q : 60 ,
RX1 tia case :4,absolute value dc_i : 0 , value dc_q : -6 
RX1:reg0x12c0=0x57f0578.
Q:reg0x12c4=0x3a453c43.
 RX1 :reg0x1130=0x3c433a45.
tia_cnt_i : 38 ,
tia_cnt_q : 19 ,
RX1 tia case :5,absolute value dc_i : -1 , value dc_q : 0 
RX1:reg0x12c4=0x16581669.
Q:reg0x12c8=0x3a453a45.
 RX1 :reg0x1130=0x3a453a45.
tia_cnt_i : 58 ,
tia_cnt_q : 1 ,
RX1 tia case :6,absolute value dc_i : -6 , value dc_q : -5 
RX1:reg0x12c8=0x46007f.
Q:reg0x12cc=0x3c433c43.
 RX1 :reg0x1130=0x3c433c43.
tia_cnt_i : 19 ,
tia_cnt_q : 60 ,
RX1 tia case :7,absolute value dc_i : 0 , value dc_q : -5 
RX1:reg0x12cc=0x297f2956.
Q:reg0x12d0=0x3847364b.
 RX1 :reg0x1130=0x364b3847.
tia_cnt_i : 18 ,
tia_cnt_q : 44 ,
RX1 tia case :8,absolute value dc_i : -1 , value dc_q : -1 
RX1:reg0x12d0=0x2473245d.
Q:reg0x12d4=0x38453649.
 RX1 :reg0x1130=0x36493845.
tia_cnt_i : 7 ,
tia_cnt_q : 53 ,
RX1 tia case :9,absolute value dc_i : -1 , value dc_q : -1 
RX1:reg0x12d4=0x2f7a2f50.
Q:reg0x12d8=0x3a453649.
 RX1 :reg0x1130=0x36493a45.
tia_cnt_i : 16 ,
tia_cnt_q : 38 ,
RX1 tia case :10,absolute value dc_i : -1 , value dc_q : -1 
RX1:reg0x12d8=0x266b2659.
Q:reg0x12dc=0x3a453649.
 RX1 :reg0x1130=0x36493a45.
tia_cnt_i : 1 ,
tia_cnt_q : 54 ,
RX1 tia case :11,absolute value dc_i : -1 , value dc_q : -1 
RX1:reg0x12dc=0x357b354a.
Q:reg0x12e0=0x3a453649.
 RX1 :reg0x1130=0x36493a45.
tia_cnt_i : 29 ,
tia_cnt_q : 49 ,
RX1 tia case :12,absolute value dc_i : 0 , value dc_q : -1 
RX1:reg0x12e0=0x19761966.
tia calibration end!
rx0 vga calibration begin
reg0x1120=0x3fc100.
vga case:1 pass.
RX0 vga case:1 ,absolute value dc_i_tmp : 1 , value dc_q_tmp : 0 ,I:reg0x1184=0x7072727.   Q:reg0x11c0=0x312f2121.
vga case:2 pass.
RX0 vga case:2 ,absolute value dc_i_tmp : 1 , value dc_q_tmp : 0 ,I:reg0x1188=0x7072727.   Q:reg0x11c4=0x312f2121.
vga case:3 pass.
RX0 vga case:3 ,absolute value dc_i_tmp : 1 , value dc_q_tmp : 0 ,I:reg0x118c=0x7072727.   Q:reg0x11c8=0x312f2121.
vga case:4 pass.
RX0 vga case:4 ,absolute value dc_i_tmp : 1 , value dc_q_tmp : 0 ,I:reg0x1190=0x7072727.   Q:reg0x11cc=0x312f2121.
vga case:5 pass.
RX0 vga case:5 ,absolute value dc_i_tmp : 1 , value dc_q_tmp : 1 ,I:reg0x1194=0x7072727.   Q:reg0x11d0=0x312f2121.
vga case:6 pass.
RX0 vga case:6 ,absolute value dc_i_tmp : 1 , value dc_q_tmp : 1 ,I:reg0x1198=0x7072727.   Q:reg0x11d4=0x312f2121.
vga case:7 pass.
RX0 vga case:7 ,absolute value dc_i_tmp : 0 , value dc_q_tmp : 1 ,I:reg0x119c=0x9072727.   Q:reg0x11d8=0x312f2121.
vga case:8 pass.
RX0 vga case:8 ,absolute value dc_i_tmp : 1 , value dc_q_tmp : 0 ,I:reg0x11a0=0x7072727.   Q:reg0x11dc=0x31311f21.
vga case:9 pass.
RX0 vga case:9 ,absolute value dc_i_tmp : 0 , value dc_q_tmp : 0 ,I:reg0x11a4=0x9072727.   Q:reg0x11e0=0x332d1f21.
vga case:10 pass.
RX0 vga case:10 ,absolute value dc_i_tmp : 1 , value dc_q_tmp : 1 ,I:reg0x11a8=0x9052727.   Q:reg0x11e4=0x312f1f23.
vga case:11 pass.
RX0 vga case:11 ,absolute value dc_i_tmp : 0 , value dc_q_tmp : 0 ,I:reg0x11ac=0x9032727.   Q:reg0x11e8=0x31311d23.
vga case:12 pass.
RX0 vga case:12 ,absolute value dc_i_tmp : 1 , value dc_q_tmp : 1 ,I:reg0x11b0=0xd052727.   Q:reg0x11ec=0x31311d25.
vga case:13 pass.
RX0 vga case:13 ,absolute value dc_i_tmp : 1 , value dc_q_tmp : 0 ,I:reg0x11b4=0x3092527.   Q:reg0x11f0=0x31311b25.
vga case:14 pass.
RX0 vga case:14 ,absolute value dc_i_tmp : 0 , value dc_q_tmp : 0 ,I:reg0x11b8=0x5072527.   Q:reg0x11f4=0x352b1927.
rx1 vga calibration begin
rx1 vga case:1 pass.
RX1 vga case:1 ,absolute value dc_i_tmp : 4 , value dc_q_tmp : 5 ,I:reg0x11fc=0x1f212115. Q:reg0x1238=0x2f2b2119.
rx1 vga case:2 pass.
RX1 vga case:2 ,absolute value dc_i_tmp : 5 , value dc_q_tmp : 6 ,I:reg0x1200=0x1f212115. Q:reg0x123c=0x2d292119.
rx1 vga case:3 pass.
RX1 vga case:3 ,absolute value dc_i_tmp : 4 , value dc_q_tmp : 5 ,I:reg0x1204=0x21232115. Q:reg0x1240=0x2f2b2119.
rx1 vga case:4 pass.
RX1 vga case:4 ,absolute value dc_i_tmp : 2 , value dc_q_tmp : 4 ,I:reg0x1208=0x1f212115. Q:reg0x1244=0x2f292119.
rx1 vga case:5 pass.
RX1 vga case:5 ,absolute value dc_i_tmp : 4 , value dc_q_tmp : 3 ,I:reg0x120c=0x1f212115. Q:reg0x1248=0x2f292119.
rx1 vga case:6 pass.
RX1 vga case:6 ,absolute value dc_i_tmp : 5 , value dc_q_tmp : 5 ,I:reg0x1210=0x1f232115. Q:reg0x124c=0x2f292119.
rx1 vga case:7 pass.
RX1 vga case:7 ,absolute value dc_i_tmp : 2 , value dc_q_tmp : 5 ,I:reg0x1214=0x1f232115. Q:reg0x1250=0x31292119.
rx1 vga case:8 pass.
RX1 vga case:8 ,absolute value dc_i_tmp : 2 , value dc_q_tmp : 4 ,I:reg0x1218=0x231f2515. Q:reg0x1254=0x2f272319.
rx1 vga case:9 pass.
RX1 vga case:9 ,absolute value dc_i_tmp : 3 , value dc_q_tmp : 4 ,I:reg0x121c=0x21212511. Q:reg0x1258=0x2f2b2317.
rx1 vga case:10 pass.
RX1 vga case:10 ,absolute value dc_i_tmp : 4 , value dc_q_tmp : 4 ,I:reg0x1220=0x1f23270f. Q:reg0x125c=0x312b2515.
rx1 vga case:11 pass.
RX1 vga case:11 ,absolute value dc_i_tmp : 0 , value dc_q_tmp : 5 ,I:reg0x1224=0x251d2d0d. Q:reg0x1260=0x2d2b2713.
rx1 vga case:12 pass.
RX1 vga case:12 ,absolute value dc_i_tmp : 2 , value dc_q_tmp : 4 ,I:reg0x1228=0x21212f09. Q:reg0x1264=0x2d2d2911.
rx1 vga case:13 pass.
RX1 vga case:13 ,absolute value dc_i_tmp : 1 , value dc_q_tmp : 5 ,I:reg0x122c=0x211f3505. Q:reg0x1268=0x31292d0d.
rx1 vga case:14 pass.
RX1 vga case:14 ,absolute value dc_i_tmp : 2 , value dc_q_tmp : 4 ,I:reg0x1230=0x93b3f01. Q:reg0x126c=0x2b293307.
reg0x1120=0x3c0100.
vga calibration end!
RX0: 0x103c : e0004000 ,0x1040 : 10001102 
RX1: 0x1054 : e0004000 ,0x1058 : 10001100 
THIS CASE J: 0 M: 1 
adc calibration begin
calibration begin
RX0 cali pre ,absolute value dc_i_tmp : 6 , value dc_q_tmp : 0 ,
reg0x1180=0x507232b.
reg0x11bc=0x33312121.
RX1 cali pre ,absolute value dc_i_tmp : 2 , value dc_q_tmp : 2 ,reg0x11f8=0x21211515.
reg0x1234=0x2f2b1d1b.
rx0 tia cali begin:
####:reg0x1270=0x661b641b.
tia_cnt_i : 7 ,
tia_cnt_q : 0 ,
I:reg0x1150=0x507232b.
Q:reg0x1154=0x33312121.
RX0 tia case :0,absolute value dc_i : -1 , value dc_q : 0 
####:reg0x1270=0x661b5d22.
####:reg0x1274=0x661b641b.
tia_cnt_i : 0 ,
tia_cnt_q : 0 ,
I:reg0x1150=0x507232b.
Q:reg0x1154=0x33312121.
RX0 tia case :1,absolute value dc_i : 0 , value dc_q : 0 
####:reg0x1274=0x661b641b.
####:reg0x1278=0x641b621d.
tia_cnt_i : 0 ,
tia_cnt_q : 0 ,
I:reg0x1150=0x507232b.
Q:reg0x1154=0x33312121.
RX0 tia case :2,absolute value dc_i : 0 , value dc_q : 1 
####:reg0x1278=0x641b621d.
####:reg0x127c=0x601d5c21.
tia_cnt_i : 0 ,
tia_cnt_q : 0 ,
I:reg0x1150=0x507232b.
Q:reg0x1154=0x33312121.
RX0 tia case :3,absolute value dc_i : 1 , value dc_q : 1 
####:reg0x127c=0x601d5c21.
####:reg0x1280=0x522d542b.
tia_cnt_i : 0 ,
tia_cnt_q : 0 ,
I:reg0x1150=0x507232b.
Q:reg0x1154=0x33312121.
RX0 tia case :4,absolute value dc_i : 1 , value dc_q : 1 
####:reg0x1280=0x522d542b.
####:reg0x1284=0x542b522d.
tia_cnt_i : 1 ,
tia_cnt_q : 0 ,
I:reg0x1150=0x507232b.
Q:reg0x1154=0x33312121.
RX0 tia case :5,absolute value dc_i : 1 , value dc_q : 1 
####:reg0x1284=0x542b532c.
####:reg0x1288=0x522d522d.
tia_cnt_i : 0 ,
tia_cnt_q : 0 ,
I:reg0x1150=0x507232b.
Q:reg0x1154=0x33312121.
RX0 tia case :6,absolute value dc_i : 1 , value dc_q : 1 
####:reg0x1288=0x522d522d.
####:reg0x128c=0x522f4e31.
tia_cnt_i : 0 ,
tia_cnt_q : 0 ,
I:reg0x1150=0x507232b.
Q:reg0x1154=0x33312121.
RX0 tia case :7,absolute value dc_i : 1 , value dc_q : 1 
####:reg0x128c=0x522f4e31.
####:reg0x1290=0x4a354a35.
tia_cnt_i : 0 ,
tia_cnt_q : 0 ,
I:reg0x1150=0x507232b.
Q:reg0x1154=0x33312121.
RX0 tia case :8,absolute value dc_i : 1 , value dc_q : 1 
####:reg0x1290=0x4a354a35.
####:reg0x1294=0x4a354c33.
tia_cnt_i : 0 ,
tia_cnt_q : 0 ,
I:reg0x1150=0x507232b.
Q:reg0x1154=0x33312121.
RX0 tia case :9,absolute value dc_i : 1 , value dc_q : 1 
####:reg0x1294=0x4a354c33.
####:reg0x1298=0x4a354c33.
tia_cnt_i : 0 ,
tia_cnt_q : 0 ,
I:reg0x1150=0x507232b.
Q:reg0x1154=0x33312121.
RX0 tia case :10,absolute value dc_i : 1 , value dc_q : 1 
####:reg0x1298=0x4a354c33.
####:reg0x129c=0x4c334c33.
tia_cnt_i : 0 ,
tia_cnt_q : 0 ,
I:reg0x1150=0x507232b.
Q:reg0x1154=0x33312121.
RX0 tia case :11,absolute value dc_i : 1 , value dc_q : 1 
####:reg0x129c=0x4c334c33.
####:reg0x12a0=0x4c334c33.
tia_cnt_i : 0 ,
tia_cnt_q : 0 ,
I:reg0x1150=0x507232b.
Q:reg0x1154=0x33312121.
RX0 tia case :12,absolute value dc_i : 1 , value dc_q : 1 
####:reg0x12a0=0x4c334c33.
rx1 tia cali begin:
Q:reg0x12b0=0x46394835.
 RX1 :reg0x1130=0x48354639.
tia_cnt_i : 0 ,
tia_cnt_q : 15 ,
RX1 tia case :0,absolute value dc_i : -1 , value dc_q : -1 
RX1:reg0x12b0=0x48484835.
Q:reg0x12b4=0x44394837.
 RX1 :reg0x1130=0x48374439.
tia_cnt_i : 0 ,
tia_cnt_q : 36 ,
RX1 tia case :1,absolute value dc_i : 0 , value dc_q : -1 
RX1:reg0x12b4=0x485d4837.
Q:reg0x12b8=0x463b4639.
 RX1 :reg0x1130=0x4639463b.
tia_cnt_i : 0 ,
tia_cnt_q : 60 ,
RX1 tia case :2,absolute value dc_i : 1 , value dc_q : -1 
RX1:reg0x12b8=0x46774639.
Q:reg0x12bc=0x443b4439.
 RX1 :reg0x1130=0x4439443b.
tia_cnt_i : 0 ,
tia_cnt_q : 68 ,
RX1 tia case :3,absolute value dc_i : 1 , value dc_q : -3 
RX1:reg0x12bc=0x447f4439.
Q:reg0x12c0=0x3e41443b.
 RX1 :reg0x1130=0x443b3e41.
tia_cnt_i : 0 ,
tia_cnt_q : 62 ,
RX1 tia case :4,absolute value dc_i : 1 , value dc_q : -3 
RX1:reg0x12c0=0x447f443b.
Q:reg0x12c4=0x3c433c43.
 RX1 :reg0x1130=0x3c433c43.
tia_cnt_i : 0 ,
tia_cnt_q : 60 ,
RX1 tia case :5,absolute value dc_i : 1 , value dc_q : -3 
RX1:reg0x12c4=0x3c7f3c43.
Q:reg0x12c8=0x3c433a45.
 RX1 :reg0x1130=0x3a453c43.
tia_cnt_i : 0 ,
tia_cnt_q : 60 ,
RX1 tia case :6,absolute value dc_i : 1 , value dc_q : -3 
RX1:reg0x12c8=0x3a7f3a45.
Q:reg0x12cc=0x3a453a45.
 RX1 :reg0x1130=0x3a453a45.
tia_cnt_i : 0 ,
tia_cnt_q : 58 ,
RX1 tia case :7,absolute value dc_i : 1 , value dc_q : -3 
RX1:reg0x12cc=0x3a7f3a45.
Q:reg0x12d0=0x3a473649.
 RX1 :reg0x1130=0x36493a47.
tia_cnt_i : 0 ,
tia_cnt_q : 56 ,
RX1 tia case :8,absolute value dc_i : 1 , value dc_q : -3 
RX1:reg0x12d0=0x367f3649.
Q:reg0x12d4=0x3a453847.
 RX1 :reg0x1130=0x38473a45.
tia_cnt_i : 0 ,
tia_cnt_q : 58 ,
RX1 tia case :9,absolute value dc_i : 1 , value dc_q : -3 
RX1:reg0x12d4=0x387f3847.
Q:reg0x12d8=0x3845364b.
 RX1 :reg0x1130=0x364b3845.
tia_cnt_i : 0 ,
tia_cnt_q : 58 ,
RX1 tia case :10,absolute value dc_i : 1 , value dc_q : -3 
RX1:reg0x12d8=0x367f364b.
Q:reg0x12dc=0x38453847.
 RX1 :reg0x1130=0x38473845.
tia_cnt_i : 0 ,
tia_cnt_q : 58 ,
RX1 tia case :11,absolute value dc_i : 1 , value dc_q : -3 
RX1:reg0x12dc=0x387f3847.
Q:reg0x12e0=0x3a473449.
 RX1 :reg0x1130=0x34493a47.
tia_cnt_i : 0 ,
tia_cnt_q : 56 ,
RX1 tia case :12,absolute value dc_i : 1 , value dc_q : -3 
RX1:reg0x12e0=0x347f3449.
tia calibration end!
rx0 vga calibration begin
reg0x1120=0x3fc100.
vga case:1 pass.
RX0 vga case:1 ,absolute value dc_i_tmp : 5 , value dc_q_tmp : 0 ,I:reg0x1184=0x7092329.   Q:reg0x11c0=0x33312121.
vga case:2 pass.
RX0 vga case:2 ,absolute value dc_i_tmp : 6 , value dc_q_tmp : 0 ,I:reg0x1188=0x5092329.   Q:reg0x11c4=0x312f2121.
vga case:3 pass.
RX0 vga case:3 ,absolute value dc_i_tmp : 6 , value dc_q_tmp : 0 ,I:reg0x118c=0x5092329.   Q:reg0x11c8=0x33312121.
vga case:4 pass.
RX0 vga case:4 ,absolute value dc_i_tmp : 5 , value dc_q_tmp : 0 ,I:reg0x1190=0x5092329.   Q:reg0x11cc=0x312f2121.
vga case:5 pass.
RX0 vga case:5 ,absolute value dc_i_tmp : 5 , value dc_q_tmp : 0 ,I:reg0x1194=0x50b2329.   Q:reg0x11d0=0x312f2121.
vga case:6 pass.
RX0 vga case:6 ,absolute value dc_i_tmp : 4 , value dc_q_tmp : 0 ,I:reg0x1198=0x3092329.   Q:reg0x11d4=0x312f2121.
vga case:7 pass.
RX0 vga case:7 ,absolute value dc_i_tmp : 4 , value dc_q_tmp : 0 ,I:reg0x119c=0x30d2329.   Q:reg0x11d8=0x31312121.
vga case:8 pass.
RX0 vga case:8 ,absolute value dc_i_tmp : 4 , value dc_q_tmp : 0 ,I:reg0x11a0=0x705252b.   Q:reg0x11dc=0x332d2121.
vga case:9 pass.
RX0 vga case:9 ,absolute value dc_i_tmp : 2 , value dc_q_tmp : 0 ,I:reg0x11a4=0x707232b.   Q:reg0x11e0=0x332f1f21.
vga case:10 pass.
RX0 vga case:10 ,absolute value dc_i_tmp : 3 , value dc_q_tmp : 0 ,I:reg0x11a8=0x907232d.   Q:reg0x11e4=0x332d2123.
vga case:11 pass.
RX0 vga case:11 ,absolute value dc_i_tmp : 2 , value dc_q_tmp : 0 ,I:reg0x11ac=0xd05212d.   Q:reg0x11e8=0x31351d23.
vga case:12 pass.
RX0 vga case:12 ,absolute value dc_i_tmp : 2 , value dc_q_tmp : 0 ,I:reg0x11b0=0xd051f2f.   Q:reg0x11ec=0x312b1f25.
vga case:13 pass.
RX0 vga case:13 ,absolute value dc_i_tmp : 3 , value dc_q_tmp : 0 ,I:reg0x11b4=0x9071d31.   Q:reg0x11f0=0x2f351b25.
vga case:14 pass.
RX0 vga case:14 ,absolute value dc_i_tmp : 0 , value dc_q_tmp : 0 ,I:reg0x11b8=0x9071735.   Q:reg0x11f4=0x2b311927.
rx1 vga calibration begin
rx1 vga case:1 pass.
RX1 vga case:1 ,absolute value dc_i_tmp : 1 , value dc_q_tmp : 0 ,I:reg0x11fc=0x21211b1d. Q:reg0x1238=0x2f291d1b.
rx1 vga case:2 pass.
RX1 vga case:2 ,absolute value dc_i_tmp : 1 , value dc_q_tmp : 0 ,I:reg0x1200=0x21211b1d. Q:reg0x123c=0x2f291d1b.
rx1 vga case:3 pass.
RX1 vga case:3 ,absolute value dc_i_tmp : 1 , value dc_q_tmp : 1 ,I:reg0x1204=0x21211b1d. Q:reg0x1240=0x2f291d1b.
rx1 vga case:4 pass.
RX1 vga case:4 ,absolute value dc_i_tmp : 1 , value dc_q_tmp : 1 ,I:reg0x1208=0x21211b1d. Q:reg0x1244=0x2f291d1b.
rx1 vga case:5 pass.
RX1 vga case:5 ,absolute value dc_i_tmp : 1 , value dc_q_tmp : 1 ,I:reg0x120c=0x21211b1d. Q:reg0x1248=0x2f291d1b.
rx1 vga case:6 pass.
RX1 vga case:6 ,absolute value dc_i_tmp : 1 , value dc_q_tmp : 0 ,I:reg0x1210=0x211f1b1d. Q:reg0x124c=0x31291d1b.
rx1 vga case:7 pass.
RX1 vga case:7 ,absolute value dc_i_tmp : 1 , value dc_q_tmp : 1 ,I:reg0x1214=0x211f1b1d. Q:reg0x1250=0x2f291d1b.
rx1 vga case:8 pass.
RX1 vga case:8 ,absolute value dc_i_tmp : 1 , value dc_q_tmp : 0 ,I:reg0x1218=0x1f25191d. Q:reg0x1254=0x2f2b1d1b.
rx1 vga case:9 pass.
RX1 vga case:9 ,absolute value dc_i_tmp : 1 , value dc_q_tmp : 1 ,I:reg0x121c=0x231f1b1f. Q:reg0x1258=0x31271f1b.
rx1 vga case:10 pass.
RX1 vga case:10 ,absolute value dc_i_tmp : 0 , value dc_q_tmp : 1 ,I:reg0x1220=0x2121191f. Q:reg0x125c=0x2d2b1f1b.
rx1 vga case:11 pass.
RX1 vga case:11 ,absolute value dc_i_tmp : 1 , value dc_q_tmp : 0 ,I:reg0x1224=0x231d1921. Q:reg0x1260=0x31291f19.
rx1 vga case:12 pass.
RX1 vga case:12 ,absolute value dc_i_tmp : 1 , value dc_q_tmp : 0 ,I:reg0x1228=0x231d1721. Q:reg0x1264=0x31292119.
rx1 vga case:13 pass.
RX1 vga case:13 ,absolute value dc_i_tmp : 1 , value dc_q_tmp : 0 ,I:reg0x122c=0x21231523. Q:reg0x1268=0x33292117.
rx1 vga case:14 pass.
RX1 vga case:14 ,absolute value dc_i_tmp : 1 , value dc_q_tmp : 0 ,I:reg0x1230=0x231f1327. Q:reg0x126c=0x312b2315.
reg0x1120=0x3c0100.
vga calibration end!
RX0: 0x103c : e0008000 ,0x1040 : 20001102 
RX1: 0x1054 : e0008000 ,0x1058 : 20001100 
THIS CASE J: 0 M: 2 
adc calibration begin
calibration begin
RX0 cali pre ,absolute value dc_i_tmp : 6 , value dc_q_tmp : 0 ,
reg0x1180=0x507232b.
reg0x11bc=0x312f2121.
RX1 cali pre ,absolute value dc_i_tmp : 1 , value dc_q_tmp : 0 ,reg0x11f8=0x21211b1d.
reg0x1234=0x2f2b1b1b.
rx0 tia cali begin:
####:reg0x1270=0x66196419.
tia_cnt_i : 9 ,
tia_cnt_q : 0 ,
I:reg0x1150=0x507232b.
Q:reg0x1154=0x312f2121.
RX0 tia case :0,absolute value dc_i : -1 , value dc_q : -1 
####:reg0x1270=0x66195b22.
####:reg0x1274=0x661b641b.
tia_cnt_i : 0 ,
tia_cnt_q : 0 ,
I:reg0x1150=0x507232b.
Q:reg0x1154=0x312f2121.
RX0 tia case :1,absolute value dc_i : 0 , value dc_q : 1 
####:reg0x1274=0x661b641b.
####:reg0x1278=0x621d621f.
tia_cnt_i : 0 ,
tia_cnt_q : 0 ,
I:reg0x1150=0x507232b.
Q:reg0x1154=0x312f2121.
RX0 tia case :2,absolute value dc_i : 0 , value dc_q : 1 
####:reg0x1278=0x621d621f.
####:reg0x127c=0x5e215e23.
tia_cnt_i : 0 ,
tia_cnt_q : 0 ,
I:reg0x1150=0x507232b.
Q:reg0x1154=0x312f2121.
RX0 tia case :3,absolute value dc_i : 1 , value dc_q : 1 
####:reg0x127c=0x5e215e23.
####:reg0x1280=0x542b542b.
tia_cnt_i : 0 ,
tia_cnt_q : 0 ,
I:reg0x1150=0x507232b.
Q:reg0x1154=0x312f2121.
RX0 tia case :4,absolute value dc_i : 1 , value dc_q : 1 
####:reg0x1280=0x542b542b.
####:reg0x1284=0x542b542b.
tia_cnt_i : 0 ,
tia_cnt_q : 0 ,
I:reg0x1150=0x507232b.
Q:reg0x1154=0x312f2121.
RX0 tia case :5,absolute value dc_i : 1 , value dc_q : 1 
####:reg0x1284=0x542b542b.
####:reg0x1288=0x502d522d.
tia_cnt_i : 0 ,
tia_cnt_q : 1 ,
I:reg0x1150=0x507232b.
Q:reg0x1154=0x312f2121.
RX0 tia case :6,absolute value dc_i : 1 , value dc_q : 1 
####:reg0x1288=0x522c522d.
####:reg0x128c=0x4e314e31.
tia_cnt_i : 0 ,
tia_cnt_q : 0 ,
I:reg0x1150=0x507232b.
Q:reg0x1154=0x312f2121.
RX0 tia case :7,absolute value dc_i : 1 , value dc_q : 1 
####:reg0x128c=0x4e314e31.
####:reg0x1290=0x4a354a35.
tia_cnt_i : 0 ,
tia_cnt_q : 1 ,
I:reg0x1150=0x507232b.
Q:reg0x1154=0x312f2121.
RX0 tia case :8,absolute value dc_i : 1 , value dc_q : 1 
####:reg0x1290=0x4a344a35.
####:reg0x1294=0x4c334c33.
tia_cnt_i : 0 ,
tia_cnt_q : 0 ,
I:reg0x1150=0x507232b.
Q:reg0x1154=0x312f2121.
RX0 tia case :9,absolute value dc_i : 1 , value dc_q : 1 
####:reg0x1294=0x4c334c33.
####:reg0x1298=0x4c334c33.
tia_cnt_i : 0 ,
tia_cnt_q : 0 ,
I:reg0x1150=0x507232b.
Q:reg0x1154=0x312f2121.
RX0 tia case :10,absolute value dc_i : 1 , value dc_q : 1 
####:reg0x1298=0x4c334c33.
####:reg0x129c=0x4c334c33.
tia_cnt_i : 0 ,
tia_cnt_q : 0 ,
I:reg0x1150=0x507232b.
Q:reg0x1154=0x312f2121.
RX0 tia case :11,absolute value dc_i : 1 , value dc_q : 1 
####:reg0x129c=0x4c334c33.
####:reg0x12a0=0x4c334c33.
tia_cnt_i : 0 ,
tia_cnt_q : 0 ,
I:reg0x1150=0x507232b.
Q:reg0x1154=0x312f2121.
RX0 tia case :12,absolute value dc_i : 1 , value dc_q : 1 
####:reg0x12a0=0x4c334c33.
rx1 tia cali begin:
Q:reg0x12b0=0x44394837.
 RX1 :reg0x1130=0x48374439.
tia_cnt_i : 0 ,
tia_cnt_q : 0 ,
RX1 tia case :0,absolute value dc_i : 1 , value dc_q : -1 
RX1:reg0x12b0=0x44394837.
Q:reg0x12b4=0x46394639.
 RX1 :reg0x1130=0x46394639.
tia_cnt_i : 0 ,
tia_cnt_q : 1 ,
RX1 tia case :1,absolute value dc_i : 1 , value dc_q : -1 
RX1:reg0x12b4=0x463a4639.
Q:reg0x12b8=0x44394837.
 RX1 :reg0x1130=0x48374439.
tia_cnt_i : 45 ,
tia_cnt_q : 60 ,
RX1 tia case :2,absolute value dc_i : 1 , value dc_q : -1 
RX1:reg0x12b8=0x7575750a.
Q:reg0x12bc=0x463b463b.
 RX1 :reg0x1130=0x463b463b.
tia_cnt_i : 57 ,
tia_cnt_q : 68 ,
RX1 tia case :3,absolute value dc_i : 2 , value dc_q : -2 
RX1:reg0x12bc=0x7f7f7f02.
Q:reg0x12c0=0x3e413e41.
 RX1 :reg0x1130=0x3e413e41.
tia_cnt_i : 65 ,
tia_cnt_q : 62 ,
RX1 tia case :4,absolute value dc_i : 2 , value dc_q : -2 
RX1:reg0x12c0=0x7f7f7f00.
Q:reg0x12c4=0x3e433c43.
 RX1 :reg0x1130=0x3c433e43.
tia_cnt_i : 67 ,
tia_cnt_q : 60 ,
RX1 tia case :5,absolute value dc_i : 2 , value dc_q : -2 
RX1:reg0x12c4=0x7f7f7f00.
Q:reg0x12c8=0x3c433845.
 RX1 :reg0x1130=0x38453c43.
tia_cnt_i : 69 ,
tia_cnt_q : 60 ,
RX1 tia case :6,absolute value dc_i : 2 , value dc_q : -2 
RX1:reg0x12c8=0x7d7f7d00.
Q:reg0x12cc=0x3a453a45.
 RX1 :reg0x1130=0x3a453a45.
tia_cnt_i : 69 ,
tia_cnt_q : 58 ,
RX1 tia case :7,absolute value dc_i : 2 , value dc_q : -2 
RX1:reg0x12cc=0x7f7f7f00.
Q:reg0x12d0=0x38453847.
 RX1 :reg0x1130=0x38473845.
tia_cnt_i : 71 ,
tia_cnt_q : 58 ,
RX1 tia case :8,absolute value dc_i : 2 , value dc_q : -2 
RX1:reg0x12d0=0x7f7f7f00.
Q:reg0x12d4=0x3a453649.
 RX1 :reg0x1130=0x36493a45.
tia_cnt_i : 73 ,
tia_cnt_q : 58 ,
RX1 tia case :9,absolute value dc_i : 2 , value dc_q : -2 
RX1:reg0x12d4=0x7f7f7f00.
Q:reg0x12d8=0x3a453649.
 RX1 :reg0x1130=0x36493a45.
tia_cnt_i : 73 ,
tia_cnt_q : 58 ,
RX1 tia case :10,absolute value dc_i : 2 , value dc_q : -2 
RX1:reg0x12d8=0x7f7f7f00.
Q:reg0x12dc=0x38453847.
 RX1 :reg0x1130=0x38473845.
tia_cnt_i : 71 ,
tia_cnt_q : 58 ,
RX1 tia case :11,absolute value dc_i : 2 , value dc_q : -2 
RX1:reg0x12dc=0x7f7f7f00.
Q:reg0x12e0=0x38453649.
 RX1 :reg0x1130=0x36493845.
tia_cnt_i : 73 ,
tia_cnt_q : 58 ,
RX1 tia case :12,absolute value dc_i : 2 , value dc_q : -2 
RX1:reg0x12e0=0x7f7f7f00.
tia calibration end!
rx0 vga calibration begin
reg0x1120=0x3fc100.
vga case:1 pass.
RX0 vga case:1 ,absolute value dc_i_tmp : 5 , value dc_q_tmp : 0 ,I:reg0x1184=0x7092329.   Q:reg0x11c0=0x33312121.
vga case:2 pass.
RX0 vga case:2 ,absolute value dc_i_tmp : 4 , value dc_q_tmp : 0 ,I:reg0x1188=0x7092329.   Q:reg0x11c4=0x312f2121.
vga case:3 pass.
RX0 vga case:3 ,absolute value dc_i_tmp : 6 , value dc_q_tmp : 0 ,I:reg0x118c=0x5092329.   Q:reg0x11c8=0x312f2121.
vga case:4 pass.
RX0 vga case:4 ,absolute value dc_i_tmp : 5 , value dc_q_tmp : 0 ,I:reg0x1190=0x9072529.   Q:reg0x11cc=0x312f2121.
vga case:5 pass.
RX0 vga case:5 ,absolute value dc_i_tmp : 5 , value dc_q_tmp : 0 ,I:reg0x1194=0x50b2329.   Q:reg0x11d0=0x312f2121.
vga case:6 pass.
RX0 vga case:6 ,absolute value dc_i_tmp : 4 , value dc_q_tmp : 0 ,I:reg0x1198=0x50b2329.   Q:reg0x11d4=0x312f2121.
vga case:7 pass.
RX0 vga case:7 ,absolute value dc_i_tmp : 4 , value dc_q_tmp : 0 ,I:reg0x119c=0x30d2329.   Q:reg0x11d8=0x312f2121.
vga case:8 pass.
RX0 vga case:8 ,absolute value dc_i_tmp : 4 , value dc_q_tmp : 0 ,I:reg0x11a0=0x707252b.   Q:reg0x11dc=0x352d2121.
vga case:9 pass.
RX0 vga case:9 ,absolute value dc_i_tmp : 4 , value dc_q_tmp : 0 ,I:reg0x11a4=0x509232b.   Q:reg0x11e0=0x352d1f21.
vga case:10 pass.
RX0 vga case:10 ,absolute value dc_i_tmp : 3 , value dc_q_tmp : 0 ,I:reg0x11a8=0x507232d.   Q:reg0x11e4=0x352b2123.
vga case:11 pass.
RX0 vga case:11 ,absolute value dc_i_tmp : 2 , value dc_q_tmp : 0 ,I:reg0x11ac=0x905212d.   Q:reg0x11e8=0x31311d23.
vga case:12 pass.
RX0 vga case:12 ,absolute value dc_i_tmp : 3 , value dc_q_tmp : 0 ,I:reg0x11b0=0x9071f2f.   Q:reg0x11ec=0x31311d25.
vga case:13 pass.
RX0 vga case:13 ,absolute value dc_i_tmp : 2 , value dc_q_tmp : 0 ,I:reg0x11b4=0x90b1d31.   Q:reg0x11f0=0x31311b25.
vga case:14 pass.
RX0 vga case:14 ,absolute value dc_i_tmp : 2 , value dc_q_tmp : 0 ,I:reg0x11b8=0x7051935.   Q:reg0x11f4=0x332b1b29.
rx1 vga calibration begin
rx1 vga case:1 pass.
RX1 vga case:1 ,absolute value dc_i_tmp : 1 , value dc_q_tmp : 1 ,I:reg0x11fc=0x21211b1d. Q:reg0x1238=0x2f2b1b1b.
rx1 vga case:2 pass.
RX1 vga case:2 ,absolute value dc_i_tmp : 1 , value dc_q_tmp : 0 ,I:reg0x1200=0x21211b1d. Q:reg0x123c=0x2f2b1b1b.
rx1 vga case:3 pass.
RX1 vga case:3 ,absolute value dc_i_tmp : 1 , value dc_q_tmp : 1 ,I:reg0x1204=0x21211b1d. Q:reg0x1240=0x2f2d1d1d.
rx1 vga case:4 pass.
RX1 vga case:4 ,absolute value dc_i_tmp : 1 , value dc_q_tmp : 1 ,I:reg0x1208=0x21211b1d. Q:reg0x1244=0x2f2d1d1d.
rx1 vga case:5 pass.
RX1 vga case:5 ,absolute value dc_i_tmp : 1 , value dc_q_tmp : 0 ,I:reg0x120c=0x21211b1d. Q:reg0x1248=0x2f2b1b1b.
rx1 vga case:6 pass.
RX1 vga case:6 ,absolute value dc_i_tmp : 1 , value dc_q_tmp : 1 ,I:reg0x1210=0x21211b1d. Q:reg0x124c=0x2d2d1d1d.
rx1 vga case:7 pass.
RX1 vga case:7 ,absolute value dc_i_tmp : 0 , value dc_q_tmp : 1 ,I:reg0x1214=0x23211b1d. Q:reg0x1250=0x2d2b1b1b.
rx1 vga case:8 pass.
RX1 vga case:8 ,absolute value dc_i_tmp : 1 , value dc_q_tmp : 1 ,I:reg0x1218=0x251d1b1d. Q:reg0x1254=0x2b2d1b1b.
rx1 vga case:9 pass.
RX1 vga case:9 ,absolute value dc_i_tmp : 1 , value dc_q_tmp : 1 ,I:reg0x121c=0x2121191d. Q:reg0x1258=0x2f291d1b.
rx1 vga case:10 pass.
RX1 vga case:10 ,absolute value dc_i_tmp : 0 , value dc_q_tmp : 0 ,I:reg0x1220=0x2123191f. Q:reg0x125c=0x2d2b1d1b.
rx1 vga case:11 pass.
RX1 vga case:11 ,absolute value dc_i_tmp : 0 , value dc_q_tmp : 1 ,I:reg0x1224=0x231f1921. Q:reg0x1260=0x31271f1b.
rx1 vga case:12 pass.
RX1 vga case:12 ,absolute value dc_i_tmp : 1 , value dc_q_tmp : 0 ,I:reg0x1228=0x251f1721. Q:reg0x1264=0x2f2b1f1b.
rx1 vga case:13 pass.
RX1 vga case:13 ,absolute value dc_i_tmp : 0 , value dc_q_tmp : 1 ,I:reg0x122c=0x271d1723. Q:reg0x1268=0x31291f19.
rx1 vga case:14 pass.
RX1 vga case:14 ,absolute value dc_i_tmp : 1 , value dc_q_tmp : 0 ,I:reg0x1230=0x25191527. Q:reg0x126c=0x2b2d2119.
reg0x1120=0x3c0100.
vga calibration end!
RX0: 0x103c : e000c000 ,0x1040 : 30001102 
RX1: 0x1054 : e000c000 ,0x1058 : 30001100 
THIS CASE J: 0 M: 3 
adc calibration begin
calibration begin
RX0 cali pre ,absolute value dc_i_tmp : 15 , value dc_q_tmp : 15 ,
reg0x1180=0x507232b.
reg0x11bc=0x312f2121.
RX1 cali pre ,absolute value dc_i_tmp : 15 , value dc_q_tmp : 13 ,reg0x11f8=0x21211b1d.
reg0x1234=0x2f2b1b1b.
rx0 tia cali begin:
####:reg0x1270=0x68176419.
tia_cnt_i : 100 ,
tia_cnt_q : 1 ,
I:reg0x1150=0x507232b.
Q:reg0x1154=0x312f2121.
RX0 tia case :0,absolute value dc_i : -16 , value dc_q : -16 
####:reg0x1270=0x18007d.
####:reg0x1274=0x621d621d.
tia_cnt_i : 98 ,
tia_cnt_q : 1 ,
I:reg0x1150=0x507232b.
Q:reg0x1154=0x312f2121.
RX0 tia case :1,absolute value dc_i : -16 , value dc_q : -16 
####:reg0x1274=0x1e007f.
####:reg0x1278=0x5e215e21.
tia_cnt_i : 94 ,
tia_cnt_q : 1 ,
I:reg0x1150=0x507232b.
Q:reg0x1154=0x312f2121.
RX0 tia case :2,absolute value dc_i : -16 , value dc_q : -16 
####:reg0x1278=0x22007f.
####:reg0x127c=0x5e215c23.
tia_cnt_i : 92 ,
tia_cnt_q : 1 ,
I:reg0x1150=0x507232b.
Q:reg0x1154=0x312f2121.
RX0 tia case :3,absolute value dc_i : -16 , value dc_q : -16 
####:reg0x127c=0x22007f.
####:reg0x1280=0x522d522d.
tia_cnt_i : 82 ,
tia_cnt_q : 1 ,
I:reg0x1150=0x507232b.
Q:reg0x1154=0x312f2121.
RX0 tia case :4,absolute value dc_i : -16 , value dc_q : -16 
####:reg0x1280=0x2e007f.
####:reg0x1284=0x542b522d.
tia_cnt_i : 82 ,
tia_cnt_q : 1 ,
I:reg0x1150=0x507232b.
Q:reg0x1154=0x312f2121.
RX0 tia case :5,absolute value dc_i : -16 , value dc_q : -16 
####:reg0x1284=0x2c007f.
####:reg0x1288=0x522d522d.
tia_cnt_i : 82 ,
tia_cnt_q : 1 ,
I:reg0x1150=0x507232b.
Q:reg0x1154=0x312f2121.
RX0 tia case :6,absolute value dc_i : -16 , value dc_q : -16 
####:reg0x1288=0x2e007f.
####:reg0x128c=0x502f4e31.
tia_cnt_i : 78 ,
tia_cnt_q : 1 ,
I:reg0x1150=0x507232b.
Q:reg0x1154=0x312f2121.
RX0 tia case :7,absolute value dc_i : -16 , value dc_q : -16 
####:reg0x128c=0x30007f.
####:reg0x1290=0x4c334a35.
tia_cnt_i : 74 ,
tia_cnt_q : 1 ,
I:reg0x1150=0x507232b.
Q:reg0x1154=0x312f2121.
RX0 tia case :8,absolute value dc_i : -16 , value dc_q : -16 
####:reg0x1290=0x34007f.
####:reg0x1294=0x4c334a35.
tia_cnt_i : 74 ,
tia_cnt_q : 1 ,
I:reg0x1150=0x507232b.
Q:reg0x1154=0x312f2121.
RX0 tia case :9,absolute value dc_i : -16 , value dc_q : -16 
####:reg0x1294=0x34007f.
####:reg0x1298=0x4c334c33.
tia_cnt_i : 76 ,
tia_cnt_q : 1 ,
I:reg0x1150=0x507232b.
Q:reg0x1154=0x312f2121.
RX0 tia case :10,absolute value dc_i : -16 , value dc_q : -16 
####:reg0x1298=0x34007f.
####:reg0x129c=0x4c334c33.
tia_cnt_i : 76 ,
tia_cnt_q : 1 ,
I:reg0x1150=0x507232b.
Q:reg0x1154=0x312f2121.
RX0 tia case :11,absolute value dc_i : -16 , value dc_q : -16 
####:reg0x129c=0x34007f.
####:reg0x12a0=0x4c334c33.
tia_cnt_i : 76 ,
tia_cnt_q : 1 ,
I:reg0x1150=0x507232b.
Q:reg0x1154=0x312f2121.
RX0 tia case :12,absolute value dc_i : -16 , value dc_q : -16 
####:reg0x12a0=0x34007f.
rx1 tia cali begin:
Q:reg0x12b0=0x44394837.
 RX1 :reg0x1130=0x48374439.
tia_cnt_i : 72 ,
tia_cnt_q : 1 ,
RX1 tia case :0,absolute value dc_i : -16 , value dc_q : -12 
RX1:reg0x12b0=0x3a007f.
Q:reg0x12b4=0x443b4439.
 RX1 :reg0x1130=0x4439443b.
tia_cnt_i : 68 ,
tia_cnt_q : 1 ,
RX1 tia case :1,absolute value dc_i : -16 , value dc_q : -12 
RX1:reg0x12b4=0x3c007d.
Q:reg0x12b8=0x423d423d.
 RX1 :reg0x1130=0x423d423d.
tia_cnt_i : 66 ,
tia_cnt_q : 1 ,
RX1 tia case :2,absolute value dc_i : -16 , value dc_q : -11 
RX1:reg0x12b8=0x3e007f.
Q:reg0x12bc=0x443b443b.
 RX1 :reg0x1130=0x443b443b.
tia_cnt_i : 68 ,
tia_cnt_q : 1 ,
RX1 tia case :3,absolute value dc_i : -16 , value dc_q : -11 
RX1:reg0x12bc=0x3c007f.
Q:reg0x12c0=0x3e413e41.
 RX1 :reg0x1130=0x3e413e41.
tia_cnt_i : 62 ,
tia_cnt_q : 1 ,
RX1 tia case :4,absolute value dc_i : -16 , value dc_q : -13 
RX1:reg0x12c0=0x42007f.
Q:reg0x12c4=0x3c433c43.
 RX1 :reg0x1130=0x3c433c43.
tia_cnt_i : 60 ,
tia_cnt_q : 1 ,
RX1 tia case :5,absolute value dc_i : -16 , value dc_q : -14 
RX1:reg0x12c4=0x44007f.
Q:reg0x12c8=0x3c433a45.
 RX1 :reg0x1130=0x3a453c43.
tia_cnt_i : 58 ,
tia_cnt_q : 1 ,
RX1 tia case :6,absolute value dc_i : -16 , value dc_q : -15 
RX1:reg0x12c8=0x44007f.
Q:reg0x12cc=0x3c433845.
 RX1 :reg0x1130=0x38453c43.
tia_cnt_i : 56 ,
tia_cnt_q : 1 ,
RX1 tia case :7,absolute value dc_i : -16 , value dc_q : -14 
RX1:reg0x12cc=0x44007d.
Q:reg0x12d0=0x38473649.
 RX1 :reg0x1130=0x36493847.
tia_cnt_i : 54 ,
tia_cnt_q : 1 ,
RX1 tia case :8,absolute value dc_i : -16 , value dc_q : -15 
RX1:reg0x12d0=0x48007f.
Q:reg0x12d4=0x3a473449.
 RX1 :reg0x1130=0x34493a47.
tia_cnt_i : 52 ,
tia_cnt_q : 1 ,
RX1 tia case :9,absolute value dc_i : -16 , value dc_q : -15 
RX1:reg0x12d4=0x48007d.
Q:reg0x12d8=0x3a453847.
 RX1 :reg0x1130=0x38473a45.
tia_cnt_i : 56 ,
tia_cnt_q : 1 ,
RX1 tia case :10,absolute value dc_i : -16 , value dc_q : -14 
RX1:reg0x12d8=0x46007f.
Q:reg0x12dc=0x3a473649.
 RX1 :reg0x1130=0x36493a47.
tia_cnt_i : 54 ,
tia_cnt_q : 1 ,
RX1 tia case :11,absolute value dc_i : -16 , value dc_q : -15 
RX1:reg0x12dc=0x48007f.
Q:reg0x12e0=0x3a473847.
 RX1 :reg0x1130=0x38473a47.
tia_cnt_i : 56 ,
tia_cnt_q : 1 ,
RX1 tia case :12,absolute value dc_i : -16 , value dc_q : -15 
RX1:reg0x12e0=0x48007f.
tia calibration end!
rx0 vga calibration begin
reg0x1120=0x3fc100.
vga case:1 pass.
RX0 vga case:1 ,absolute value dc_i_tmp : 15 , value dc_q_tmp : 15 ,I:reg0x1184=0x7092329.   Q:reg0x11c0=0x33312121.
vga case:2 pass.
RX0 vga case:2 ,absolute value dc_i_tmp : 15 , value dc_q_tmp : 15 ,I:reg0x1188=0x7092329.   Q:reg0x11c4=0x312f2121.
vga case:3 pass.
RX0 vga case:3 ,absolute value dc_i_tmp : 15 , value dc_q_tmp : 15 ,I:reg0x118c=0x5092329.   Q:reg0x11c8=0x312f2121.
vga case:4 pass.
RX0 vga case:4 ,absolute value dc_i_tmp : 15 , value dc_q_tmp : 15 ,I:reg0x1190=0x9072529.   Q:reg0x11cc=0x312f2121.
vga case:5 pass.
RX0 vga case:5 ,absolute value dc_i_tmp : 15 , value dc_q_tmp : 15 ,I:reg0x1194=0x50b2329.   Q:reg0x11d0=0x312f2121.
vga case:6 pass.
RX0 vga case:6 ,absolute value dc_i_tmp : 15 , value dc_q_tmp : 15 ,I:reg0x1198=0x50b2329.   Q:reg0x11d4=0x312f2121.
vga case:7 pass.
RX0 vga case:7 ,absolute value dc_i_tmp : 15 , value dc_q_tmp : 15 ,I:reg0x119c=0x30d2329.   Q:reg0x11d8=0x312f2121.
vga case:8 pass.
RX0 vga case:8 ,absolute value dc_i_tmp : 15 , value dc_q_tmp : 15 ,I:reg0x11a0=0x707252b.   Q:reg0x11dc=0x352d2121.
vga case:9 pass.
RX0 vga case:9 ,absolute value dc_i_tmp : 15 , value dc_q_tmp : 15 ,I:reg0x11a4=0x509232b.   Q:reg0x11e0=0x352d1f21.
vga case:10 pass.
RX0 vga case:10 ,absolute value dc_i_tmp : 15 , value dc_q_tmp : 15 ,I:reg0x11a8=0x507232d.   Q:reg0x11e4=0x352b2123.
vga case:11 pass.
RX0 vga case:11 ,absolute value dc_i_tmp : 15 , value dc_q_tmp : 15 ,I:reg0x11ac=0x905212d.   Q:reg0x11e8=0x31311d23.
vga case:12 pass.
RX0 vga case:12 ,absolute value dc_i_tmp : 15 , value dc_q_tmp : 15 ,I:reg0x11b0=0x9071f2f.   Q:reg0x11ec=0x31311d25.
vga case:13 pass.
RX0 vga case:13 ,absolute value dc_i_tmp : 15 , value dc_q_tmp : 15 ,I:reg0x11b4=0x90b1d31.   Q:reg0x11f0=0x31311b25.
vga case:14 pass.
RX0 vga case:14 ,absolute value dc_i_tmp : 15 , value dc_q_tmp : 15 ,I:reg0x11b8=0x7051935.   Q:reg0x11f4=0x332b1b29.
rx1 vga calibration begin
rx1 vga case:1 pass.
RX1 vga case:1 ,absolute value dc_i_tmp : 15 , value dc_q_tmp : 13 ,I:reg0x11fc=0x21211b1d. Q:reg0x1238=0x312b2119.
rx1 vga case:2 pass.
RX1 vga case:2 ,absolute value dc_i_tmp : 15 , value dc_q_tmp : 13 ,I:reg0x1200=0x21211b1d. Q:reg0x123c=0x2f292119.
rx1 vga case:3 pass.
RX1 vga case:3 ,absolute value dc_i_tmp : 15 , value dc_q_tmp : 14 ,I:reg0x1204=0x21211b1d. Q:reg0x1240=0x2f292119.
rx1 vga case:4 pass.
RX1 vga case:4 ,absolute value dc_i_tmp : 15 , value dc_q_tmp : 14 ,I:reg0x1208=0x21211b1d. Q:reg0x1244=0x2f292119.
rx1 vga case:5 pass.
RX1 vga case:5 ,absolute value dc_i_tmp : 15 , value dc_q_tmp : 13 ,I:reg0x120c=0x21211b1d. Q:reg0x1248=0x31292119.
rx1 vga case:6 pass.
RX1 vga case:6 ,absolute value dc_i_tmp : 15 , value dc_q_tmp : 14 ,I:reg0x1210=0x21211b1d. Q:reg0x124c=0x31292119.
rx1 vga case:7 pass.
RX1 vga case:7 ,absolute value dc_i_tmp : 15 , value dc_q_tmp : 13 ,I:reg0x1214=0x23211b1d. Q:reg0x1250=0x31272119.
rx1 vga case:8 pass.
RX1 vga case:8 ,absolute value dc_i_tmp : 15 , value dc_q_tmp : 13 ,I:reg0x1218=0x251d1b1d. Q:reg0x1254=0x2b2f2119.
rx1 vga case:9 pass.
RX1 vga case:9 ,absolute value dc_i_tmp : 15 , value dc_q_tmp : 14 ,I:reg0x121c=0x2121191d. Q:reg0x1258=0x31292317.
rx1 vga case:10 pass.
RX1 vga case:10 ,absolute value dc_i_tmp : 15 , value dc_q_tmp : 13 ,I:reg0x1220=0x2123191f. Q:reg0x125c=0x2d2f2315.
rx1 vga case:11 pass.
RX1 vga case:11 ,absolute value dc_i_tmp : 15 , value dc_q_tmp : 13 ,I:reg0x1224=0x231f1921. Q:reg0x1260=0x2b2f2513.
rx1 vga case:12 pass.
RX1 vga case:12 ,absolute value dc_i_tmp : 15 , value dc_q_tmp : 14 ,I:reg0x1228=0x251f1721. Q:reg0x1264=0x31292911.
rx1 vga case:13 pass.
RX1 vga case:13 ,absolute value dc_i_tmp : 15 , value dc_q_tmp : 13 ,I:reg0x122c=0x271d1723. Q:reg0x1268=0x332b2d0f.
rx1 vga case:14 pass.
RX1 vga case:14 ,absolute value dc_i_tmp : 15 , value dc_q_tmp : 13 ,I:reg0x1230=0x25191527. Q:reg0x126c=0x312b3107.
reg0x1120=0x3c0100.
vga calibration end!
RX0: 0x103c : e0010000 ,0x1040 : 40001102 
RX1: 0x1054 : e0010000 ,0x1058 : 40001100 
THIS CASE J: 0 M: 4 
adc calibration begin
calibration begin
RX0 cali pre ,absolute value dc_i_tmp : 9 , value dc_q_tmp : 7 ,
reg0x1180=0x190d1519.
reg0x11bc=0x31312121.
RX1 cali pre ,absolute value dc_i_tmp : 3 , value dc_q_tmp : 3 ,reg0x11f8=0x21211b1d.
reg0x1234=0x2f2d1d1d.
rx0 tia cali begin:
####:reg0x1270=0x6419621d.
tia_cnt_i : 19 ,
tia_cnt_q : 102 ,
I:reg0x1150=0x190d1519.
Q:reg0x1154=0x31312121.
RX0 tia case :0,absolute value dc_i : -1 , value dc_q : -3 
####:reg0x1270=0x4f7f4f30.
####:reg0x1274=0x641b621d.
tia_cnt_i : 16 ,
tia_cnt_q : 100 ,
I:reg0x1150=0x190d1519.
Q:reg0x1154=0x31312121.
RX0 tia case :1,absolute value dc_i : -1 , value dc_q : -5 
####:reg0x1274=0x527f522d.
####:reg0x1278=0x621f601f.
tia_cnt_i : 6 ,
tia_cnt_q : 96 ,
I:reg0x1150=0x190d1519.
Q:reg0x1154=0x31312121.
RX0 tia case :2,absolute value dc_i : -1 , value dc_q : -6 
####:reg0x1278=0x5a7f5a25.
####:reg0x127c=0x5c215c23.
tia_cnt_i : 0 ,
tia_cnt_q : 94 ,
I:reg0x1150=0x190d1519.
Q:reg0x1154=0x31312121.
RX0 tia case :3,absolute value dc_i : -1 , value dc_q : -7 
####:reg0x127c=0x5c7f5c23.
####:reg0x1280=0x542b522d.
tia_cnt_i : 0 ,
tia_cnt_q : 84 ,
I:reg0x1150=0x190d1519.
Q:reg0x1154=0x31312121.
RX0 tia case :4,absolute value dc_i : -1 , value dc_q : -7 
####:reg0x1280=0x527f522d.
####:reg0x1284=0x522d522d.
tia_cnt_i : 0 ,
tia_cnt_q : 82 ,
I:reg0x1150=0x190d1519.
Q:reg0x1154=0x31312121.
RX0 tia case :5,absolute value dc_i : -1 , value dc_q : -7 
####:reg0x1284=0x527f522d.
####:reg0x1288=0x502d4e31.
tia_cnt_i : 0 ,
tia_cnt_q : 82 ,
I:reg0x1150=0x190d1519.
Q:reg0x1154=0x31312121.
RX0 tia case :6,absolute value dc_i : -1 , value dc_q : -7 
####:reg0x1288=0x4e7f4e31.
####:reg0x128c=0x4e314e31.
tia_cnt_i : 0 ,
tia_cnt_q : 78 ,
I:reg0x1150=0x190d1519.
Q:reg0x1154=0x31312121.
RX0 tia case :7,absolute value dc_i : -1 , value dc_q : -7 
####:reg0x128c=0x4e7f4e31.
####:reg0x1290=0x4c334a35.
tia_cnt_i : 0 ,
tia_cnt_q : 76 ,
I:reg0x1150=0x190d1519.
Q:reg0x1154=0x31312121.
RX0 tia case :8,absolute value dc_i : -1 , value dc_q : -7 
####:reg0x1290=0x4a7f4a35.
####:reg0x1294=0x4a354a35.
tia_cnt_i : 0 ,
tia_cnt_q : 74 ,
I:reg0x1150=0x190d1519.
Q:reg0x1154=0x31312121.
RX0 tia case :9,absolute value dc_i : -1 , value dc_q : -7 
####:reg0x1294=0x4a7f4a35.
####:reg0x1298=0x4c334c33.
tia_cnt_i : 0 ,
tia_cnt_q : 76 ,
I:reg0x1150=0x190d1519.
Q:reg0x1154=0x31312121.
RX0 tia case :10,absolute value dc_i : -1 , value dc_q : -7 
####:reg0x1298=0x4c7f4c33.
####:reg0x129c=0x4c334c33.
tia_cnt_i : 0 ,
tia_cnt_q : 76 ,
I:reg0x1150=0x190d1519.
Q:reg0x1154=0x31312121.
RX0 tia case :11,absolute value dc_i : -1 , value dc_q : -7 
####:reg0x129c=0x4c7f4c33.
####:reg0x12a0=0x4a354a35.
tia_cnt_i : 0 ,
tia_cnt_q : 74 ,
I:reg0x1150=0x190d1519.
Q:reg0x1154=0x31312121.
RX0 tia case :12,absolute value dc_i : -1 , value dc_q : -7 
####:reg0x12a0=0x4a7f4a35.
rx1 tia cali begin:
Q:reg0x12b0=0x4439463b.
 RX1 :reg0x1130=0x463b4439.
tia_cnt_i : 68 ,
tia_cnt_q : 10 ,
RX1 tia case :0,absolute value dc_i : -3 , value dc_q : 1 
RX1:reg0x12b0=0x231027f.
Q:reg0x12b4=0x463b4639.
 RX1 :reg0x1130=0x4639463b.
tia_cnt_i : 70 ,
tia_cnt_q : 1 ,
RX1 tia case :1,absolute value dc_i : -3 , value dc_q : -1 
RX1:reg0x12b4=0x3c007f.
Q:reg0x12b8=0x443b4439.
 RX1 :reg0x1130=0x4439443b.
tia_cnt_i : 68 ,
tia_cnt_q : 1 ,
RX1 tia case :2,absolute value dc_i : -3 , value dc_q : -2 
RX1:reg0x12b8=0x3c007d.
Q:reg0x12bc=0x463b4439.
 RX1 :reg0x1130=0x4439463b.
tia_cnt_i : 68 ,
tia_cnt_q : 1 ,
RX1 tia case :3,absolute value dc_i : -2 , value dc_q : -5 
RX1:reg0x12bc=0x3c007d.
Q:reg0x12c0=0x3e413e41.
 RX1 :reg0x1130=0x3e413e41.
tia_cnt_i : 0 ,
tia_cnt_q : 62 ,
RX1 tia case :4,absolute value dc_i : 0 , value dc_q : -4 
RX1:reg0x12c0=0x3e7f3e41.
Q:reg0x12c4=0x3c433c43.
 RX1 :reg0x1130=0x3c433c43.
tia_cnt_i : 60 ,
tia_cnt_q : 1 ,
RX1 tia case :5,absolute value dc_i : -2 , value dc_q : -5 
RX1:reg0x12c4=0x44007f.
Q:reg0x12c8=0x3c433c43.
 RX1 :reg0x1130=0x3c433c43.
tia_cnt_i : 0 ,
tia_cnt_q : 60 ,
RX1 tia case :6,absolute value dc_i : -1 , value dc_q : -4 
RX1:reg0x12c8=0x3c7f3c43.
Q:reg0x12cc=0x3e433a47.
 RX1 :reg0x1130=0x3a473e43.
tia_cnt_i : 0 ,
tia_cnt_q : 60 ,
RX1 tia case :7,absolute value dc_i : -1 , value dc_q : -4 
RX1:reg0x12cc=0x3a7f3a47.
Q:reg0x12d0=0x38473847.
 RX1 :reg0x1130=0x38473847.
tia_cnt_i : 0 ,
tia_cnt_q : 56 ,
RX1 tia case :8,absolute value dc_i : -1 , value dc_q : -4 
RX1:reg0x12d0=0x387f3847.
Q:reg0x12d4=0x3a473649.
 RX1 :reg0x1130=0x36493a47.
tia_cnt_i : 0 ,
tia_cnt_q : 56 ,
RX1 tia case :9,absolute value dc_i : -1 , value dc_q : -5 
RX1:reg0x12d4=0x367f3649.
Q:reg0x12d8=0x3a453649.
 RX1 :reg0x1130=0x36493a45.
tia_cnt_i : 0 ,
tia_cnt_q : 58 ,
RX1 tia case :10,absolute value dc_i : -1 , value dc_q : -4 
RX1:reg0x12d8=0x367f3649.
Q:reg0x12dc=0x38453847.
 RX1 :reg0x1130=0x38473845.
tia_cnt_i : 2 ,
tia_cnt_q : 58 ,
RX1 tia case :11,absolute value dc_i : -1 , value dc_q : -4 
RX1:reg0x12dc=0x367f3649.
Q:reg0x12e0=0x38473649.
 RX1 :reg0x1130=0x36493847.
tia_cnt_i : 54 ,
tia_cnt_q : 1 ,
RX1 tia case :12,absolute value dc_i : -2 , value dc_q : -5 
RX1:reg0x12e0=0x48007f.
tia calibration end!
rx0 vga calibration begin
reg0x1120=0x3fc100.
vga case:1 pass.
RX0 vga case:1 ,absolute value dc_i_tmp : 9 , value dc_q_tmp : 6 ,I:reg0x1184=0x7092727.   Q:reg0x11c0=0x33312919.
vga case:2 pass.
RX0 vga case:2 ,absolute value dc_i_tmp : 9 , value dc_q_tmp : 7 ,I:reg0x1188=0x7072927.   Q:reg0x11c4=0x33312919.
vga case:3 pass.
RX0 vga case:3 ,absolute value dc_i_tmp : 9 , value dc_q_tmp : 7 ,I:reg0x118c=0x5092727.   Q:reg0x11c8=0x312f2919.
vga case:4 pass.
RX0 vga case:4 ,absolute value dc_i_tmp : 8 , value dc_q_tmp : 6 ,I:reg0x1190=0x7092727.   Q:reg0x11cc=0x312f2919.
vga case:5 pass.
RX0 vga case:5 ,absolute value dc_i_tmp : 8 , value dc_q_tmp : 6 ,I:reg0x1194=0x5092727.   Q:reg0x11d0=0x33312919.
vga case:6 pass.
RX0 vga case:6 ,absolute value dc_i_tmp : 8 , value dc_q_tmp : 6 ,I:reg0x1198=0x5092727.   Q:reg0x11d4=0x312f2919.
vga case:7 pass.
RX0 vga case:7 ,absolute value dc_i_tmp : 8 , value dc_q_tmp : 6 ,I:reg0x119c=0x50b2727.   Q:reg0x11d8=0x33312919.
vga case:8 pass.
RX0 vga case:8 ,absolute value dc_i_tmp : 8 , value dc_q_tmp : 7 ,I:reg0x11a0=0x7032927.   Q:reg0x11dc=0x352d2d19.
vga case:9 pass.
RX0 vga case:9 ,absolute value dc_i_tmp : 8 , value dc_q_tmp : 7 ,I:reg0x11a4=0x9072927.   Q:reg0x11e0=0x2d332b15.
vga case:10 pass.
RX0 vga case:10 ,absolute value dc_i_tmp : 7 , value dc_q_tmp : 6 ,I:reg0x11a8=0x9072927.   Q:reg0x11e4=0x31312f13.
vga case:11 pass.
RX0 vga case:11 ,absolute value dc_i_tmp : 7 , value dc_q_tmp : 6 ,I:reg0x11ac=0x9072927.   Q:reg0x11e8=0x332f310f.
vga case:12 pass.
RX0 vga case:12 ,absolute value dc_i_tmp : 7 , value dc_q_tmp : 6 ,I:reg0x11b0=0x5072927.   Q:reg0x11ec=0x3133350d.
vga case:13 pass.
RX0 vga case:13 ,absolute value dc_i_tmp : 7 , value dc_q_tmp : 6 ,I:reg0x11b4=0x9092927.   Q:reg0x11f0=0x31333907.
vga case:14 pass.
RX0 vga case:14 ,absolute value dc_i_tmp : 6 , value dc_q_tmp : 2 ,I:reg0x11b8=0x5092927.   Q:reg0x11f4=0x13f3f01.
rx1 vga calibration begin
rx1 vga case:1 pass.
RX1 vga case:1 ,absolute value dc_i_tmp : 4 , value dc_q_tmp : 3 ,I:reg0x11fc=0x21212115. Q:reg0x1238=0x2f2b1f19.
rx1 vga case:2 pass.
RX1 vga case:2 ,absolute value dc_i_tmp : 5 , value dc_q_tmp : 3 ,I:reg0x1200=0x21232115. Q:reg0x123c=0x2f2b1f19.
rx1 vga case:3 pass.
RX1 vga case:3 ,absolute value dc_i_tmp : 6 , value dc_q_tmp : 3 ,I:reg0x1204=0x1f212115. Q:reg0x1240=0x2f2b1f19.
rx1 vga case:4 pass.
RX1 vga case:4 ,absolute value dc_i_tmp : 5 , value dc_q_tmp : 3 ,I:reg0x1208=0x1f212115. Q:reg0x1244=0x2f2b1f19.
rx1 vga case:5 pass.
RX1 vga case:5 ,absolute value dc_i_tmp : 4 , value dc_q_tmp : 2 ,I:reg0x120c=0x21232115. Q:reg0x1248=0x312b1f19.
rx1 vga case:6 pass.
RX1 vga case:6 ,absolute value dc_i_tmp : 5 , value dc_q_tmp : 1 ,I:reg0x1210=0x1f212115. Q:reg0x124c=0x312b1f19.
rx1 vga case:7 pass.
RX1 vga case:7 ,absolute value dc_i_tmp : 3 , value dc_q_tmp : 2 ,I:reg0x1214=0x21212317. Q:reg0x1250=0x312b1f19.
rx1 vga case:8 pass.
RX1 vga case:8 ,absolute value dc_i_tmp : 4 , value dc_q_tmp : 1 ,I:reg0x1218=0x231d2515. Q:reg0x1254=0x312b2119.
rx1 vga case:9 pass.
RX1 vga case:9 ,absolute value dc_i_tmp : 4 , value dc_q_tmp : 2 ,I:reg0x121c=0x251f2713. Q:reg0x1258=0x2f2b2319.
rx1 vga case:10 pass.
RX1 vga case:10 ,absolute value dc_i_tmp : 4 , value dc_q_tmp : 2 ,I:reg0x1220=0x21212911. Q:reg0x125c=0x33292517.
rx1 vga case:11 pass.
RX1 vga case:11 ,absolute value dc_i_tmp : 3 , value dc_q_tmp : 0 ,I:reg0x1224=0x23212b0d. Q:reg0x1260=0x2f2f2515.
rx1 vga case:12 pass.
RX1 vga case:12 ,absolute value dc_i_tmp : 3 , value dc_q_tmp : 1 ,I:reg0x1228=0x271d310b. Q:reg0x1264=0x2d2b2713.
rx1 vga case:13 pass.
RX1 vga case:13 ,absolute value dc_i_tmp : 2 , value dc_q_tmp : 1 ,I:reg0x122c=0x271b3505. Q:reg0x1268=0x332b2b11.
rx1 vga case:14 pass.
RX1 vga case:14 ,absolute value dc_i_tmp : 3 , value dc_q_tmp : 1 ,I:reg0x1230=0xf313f01. Q:reg0x126c=0x27312f0b.
reg0x1120=0x3c0100.
vga calibration end!
RX0: 0x103c : e0014000 ,0x1040 : 50001102 
RX1: 0x1054 : e0014000 ,0x1058 : 50001100 
THIS CASE J: 0 M: 5 
adc calibration begin
calibration begin
RX0 cali pre ,absolute value dc_i_tmp : 1 , value dc_q_tmp : 0 ,
reg0x1180=0x507232b.
reg0x11bc=0x31311f21.
RX1 cali pre ,absolute value dc_i_tmp : 1 , value dc_q_tmp : 2 ,reg0x11f8=0x21211b1d.
reg0x1234=0x2f2b1b1b.
rx0 tia cali begin:
####:reg0x1270=0x641b601d.
tia_cnt_i : 0 ,
tia_cnt_q : 0 ,
I:reg0x1150=0x507232b.
Q:reg0x1154=0x31311f21.
RX0 tia case :0,absolute value dc_i : -1 , value dc_q : 1 
####:reg0x1270=0x641b601d.
####:reg0x1274=0x6419621d.
tia_cnt_i : 2 ,
tia_cnt_q : 0 ,
I:reg0x1150=0x507232b.
Q:reg0x1154=0x31311f21.
RX0 tia case :1,absolute value dc_i : 1 , value dc_q : 1 
####:reg0x1274=0x6419641b.
####:reg0x1278=0x641b621f.
tia_cnt_i : 27 ,
tia_cnt_q : 0 ,
I:reg0x1150=0x507232b.
Q:reg0x1154=0x31311f21.
RX0 tia case :2,absolute value dc_i : 1 , value dc_q : 1 
####:reg0x1278=0x641b7d04.
####:reg0x127c=0x621d5c21.
tia_cnt_i : 33 ,
tia_cnt_q : 0 ,
I:reg0x1150=0x507232b.
Q:reg0x1154=0x31311f21.
RX0 tia case :3,absolute value dc_i : 2 , value dc_q : 1 
####:reg0x127c=0x621d7d00.
####:reg0x1280=0x542b542b.
tia_cnt_i : 43 ,
tia_cnt_q : 1 ,
I:reg0x1150=0x507232b.
Q:reg0x1154=0x31311f21.
RX0 tia case :4,absolute value dc_i : 3 , value dc_q : 1 
####:reg0x1280=0x7f2a7f00.
####:reg0x1284=0x542b522d.
tia_cnt_i : 45 ,
tia_cnt_q : 1 ,
I:reg0x1150=0x507232b.
Q:reg0x1154=0x31311f21.
RX0 tia case :5,absolute value dc_i : 3 , value dc_q : 1 
####:reg0x1284=0x7f2a7f00.
####:reg0x1288=0x522d522d.
tia_cnt_i : 45 ,
tia_cnt_q : 1 ,
I:reg0x1150=0x507232b.
Q:reg0x1154=0x31311f21.
RX0 tia case :6,absolute value dc_i : 3 , value dc_q : 1 
####:reg0x1288=0x7f2c7f00.
####:reg0x128c=0x502f522f.
tia_cnt_i : 45 ,
tia_cnt_q : 1 ,
I:reg0x1150=0x507232b.
Q:reg0x1154=0x31311f21.
RX0 tia case :7,absolute value dc_i : 3 , value dc_q : 1 
####:reg0x128c=0x7f2e7f02.
####:reg0x1290=0x4c334a35.
tia_cnt_i : 53 ,
tia_cnt_q : 1 ,
I:reg0x1150=0x507232b.
Q:reg0x1154=0x31311f21.
RX0 tia case :8,absolute value dc_i : 3 , value dc_q : 1 
####:reg0x1290=0x7f327f00.
####:reg0x1294=0x4c334c33.
tia_cnt_i : 51 ,
tia_cnt_q : 1 ,
I:reg0x1150=0x507232b.
Q:reg0x1154=0x31311f21.
RX0 tia case :9,absolute value dc_i : 3 , value dc_q : 1 
####:reg0x1294=0x7f327f00.
####:reg0x1298=0x4a354c33.
tia_cnt_i : 51 ,
tia_cnt_q : 1 ,
I:reg0x1150=0x507232b.
Q:reg0x1154=0x31311f21.
RX0 tia case :10,absolute value dc_i : 3 , value dc_q : 1 
####:reg0x1298=0x7f347f00.
####:reg0x129c=0x4c334c33.
tia_cnt_i : 51 ,
tia_cnt_q : 1 ,
I:reg0x1150=0x507232b.
Q:reg0x1154=0x31311f21.
RX0 tia case :11,absolute value dc_i : 3 , value dc_q : 1 
####:reg0x129c=0x7f327f00.
####:reg0x12a0=0x4a354c33.
tia_cnt_i : 51 ,
tia_cnt_q : 1 ,
I:reg0x1150=0x507232b.
Q:reg0x1154=0x31311f21.
RX0 tia case :12,absolute value dc_i : 3 , value dc_q : 1 
####:reg0x12a0=0x7f347f00.
rx1 tia cali begin:
Q:reg0x12b0=0x463b4639.
 RX1 :reg0x1130=0x4639463b.
tia_cnt_i : 5 ,
tia_cnt_q : 6 ,
RX1 tia case :0,absolute value dc_i : 0 , value dc_q : -1 
RX1:reg0x12b0=0x4141413e.
Q:reg0x12b4=0x44394639.
 RX1 :reg0x1130=0x46394439.
tia_cnt_i : 0 ,
tia_cnt_q : 19 ,
RX1 tia case :1,absolute value dc_i : -1 , value dc_q : -1 
RX1:reg0x12b4=0x464c4639.
Q:reg0x12b8=0x443b463b.
 RX1 :reg0x1130=0x463b443b.
tia_cnt_i : 6 ,
tia_cnt_q : 27 ,
RX1 tia case :2,absolute value dc_i : -1 , value dc_q : -1 
RX1:reg0x12b8=0x40564041.
Q:reg0x12bc=0x443b443b.
 RX1 :reg0x1130=0x443b443b.
tia_cnt_i : 4 ,
tia_cnt_q : 59 ,
RX1 tia case :3,absolute value dc_i : 0 , value dc_q : -1 
RX1:reg0x12bc=0x4076403f.
Q:reg0x12c0=0x3e41443b.
 RX1 :reg0x1130=0x443b3e41.
tia_cnt_i : 2 ,
tia_cnt_q : 62 ,
RX1 tia case :4,absolute value dc_i : -1 , value dc_q : -6 
RX1:reg0x12c0=0x427f423d.
Q:reg0x12c4=0x3e433a45.
 RX1 :reg0x1130=0x3a453e43.
tia_cnt_i : 1 ,
tia_cnt_q : 60 ,
RX1 tia case :5,absolute value dc_i : 0 , value dc_q : -6 
RX1:reg0x12c4=0x3b7f3b44.
Q:reg0x12c8=0x3c433a45.
 RX1 :reg0x1130=0x3a453c43.
tia_cnt_i : 0 ,
tia_cnt_q : 60 ,
RX1 tia case :6,absolute value dc_i : 1 , value dc_q : -5 
RX1:reg0x12c8=0x3a7f3a45.
Q:reg0x12cc=0x3c433a45.
 RX1 :reg0x1130=0x3a453c43.
tia_cnt_i : 2 ,
tia_cnt_q : 60 ,
RX1 tia case :7,absolute value dc_i : -1 , value dc_q : -6 
RX1:reg0x12cc=0x3a7f3a45.
Q:reg0x12d0=0x38453649.
 RX1 :reg0x1130=0x36493845.
tia_cnt_i : 0 ,
tia_cnt_q : 58 ,
RX1 tia case :8,absolute value dc_i : 0 , value dc_q : -5 
RX1:reg0x12d0=0x367f3649.
Q:reg0x12d4=0x3a473649.
 RX1 :reg0x1130=0x36493a47.
tia_cnt_i : 0 ,
tia_cnt_q : 56 ,
RX1 tia case :9,absolute value dc_i : -1 , value dc_q : -5 
RX1:reg0x12d4=0x367f3649.
Q:reg0x12d8=0x38453847.
 RX1 :reg0x1130=0x38473845.
tia_cnt_i : 0 ,
tia_cnt_q : 58 ,
RX1 tia case :10,absolute value dc_i : -1 , value dc_q : -4 
RX1:reg0x12d8=0x387f3847.
Q:reg0x12dc=0x3a473845.
 RX1 :reg0x1130=0x38453a47.
tia_cnt_i : 1 ,
tia_cnt_q : 56 ,
RX1 tia case :11,absolute value dc_i : 1 , value dc_q : -7 
RX1:reg0x12dc=0x397f3944.
Q:reg0x12e0=0x38453847.
 RX1 :reg0x1130=0x38473845.
tia_cnt_i : 2 ,
tia_cnt_q : 58 ,
RX1 tia case :12,absolute value dc_i : 1 , value dc_q : -4 
RX1:reg0x12e0=0x3a7f3a45.
tia calibration end!
rx0 vga calibration begin
reg0x1120=0x3fc100.
vga case:1 pass.
RX0 vga case:1 ,absolute value dc_i_tmp : 1 , value dc_q_tmp : 1 ,I:reg0x1184=0x707252b.   Q:reg0x11c0=0x312f2321.
vga case:2 pass.
RX0 vga case:2 ,absolute value dc_i_tmp : 1 , value dc_q_tmp : 0 ,I:reg0x1188=0x7072329.   Q:reg0x11c4=0x31312121.
vga case:3 pass.
RX0 vga case:3 ,absolute value dc_i_tmp : 1 , value dc_q_tmp : 0 ,I:reg0x118c=0x707252b.   Q:reg0x11c8=0x31312121.
vga case:4 pass.
RX0 vga case:4 ,absolute value dc_i_tmp : 1 , value dc_q_tmp : 1 ,I:reg0x1190=0x707252b.   Q:reg0x11cc=0x31312121.
vga case:5 pass.
RX0 vga case:5 ,absolute value dc_i_tmp : 1 , value dc_q_tmp : 1 ,I:reg0x1194=0x707252b.   Q:reg0x11d0=0x31312121.
vga case:6 pass.
RX0 vga case:6 ,absolute value dc_i_tmp : 1 , value dc_q_tmp : 0 ,I:reg0x1198=0x707252b.   Q:reg0x11d4=0x31332121.
vga case:7 pass.
RX0 vga case:7 ,absolute value dc_i_tmp : 1 , value dc_q_tmp : 1 ,I:reg0x119c=0x707252b.   Q:reg0x11d8=0x352d2321.
vga case:8 pass.
RX0 vga case:8 ,absolute value dc_i_tmp : 1 , value dc_q_tmp : 0 ,I:reg0x11a0=0x509232b.   Q:reg0x11dc=0x31312121.
vga case:9 pass.
RX0 vga case:9 ,absolute value dc_i_tmp : 1 , value dc_q_tmp : 1 ,I:reg0x11a4=0x709232d.   Q:reg0x11e0=0x312f2121.
vga case:10 pass.
RX0 vga case:10 ,absolute value dc_i_tmp : 1 , value dc_q_tmp : 0 ,I:reg0x11a8=0x907212d.   Q:reg0x11e4=0x372b2121.
vga case:11 pass.
RX0 vga case:11 ,absolute value dc_i_tmp : 1 , value dc_q_tmp : 1 ,I:reg0x11ac=0x9051f2f.   Q:reg0x11e8=0x39312123.
vga case:12 pass.
RX0 vga case:12 ,absolute value dc_i_tmp : 1 , value dc_q_tmp : 1 ,I:reg0x11b0=0x50b1d31.   Q:reg0x11ec=0x39292123.
vga case:13 pass.
RX0 vga case:13 ,absolute value dc_i_tmp : 0 , value dc_q_tmp : 1 ,I:reg0x11b4=0x9071b33.   Q:reg0x11f0=0x31311f25.
vga case:14 pass.
RX0 vga case:14 ,absolute value dc_i_tmp : 1 , value dc_q_tmp : 1 ,I:reg0x11b8=0xf031739.   Q:reg0x11f4=0x293f1725.
rx1 vga calibration begin
rx1 vga case:1 pass.
RX1 vga case:1 ,absolute value dc_i_tmp : 2 , value dc_q_tmp : 5 ,I:reg0x11fc=0x21211d1d. Q:reg0x1238=0x2f2b1d1b.
rx1 vga case:2 pass.
RX1 vga case:2 ,absolute value dc_i_tmp : 1 , value dc_q_tmp : 2 ,I:reg0x1200=0x23211d1d. Q:reg0x123c=0x312b1d1b.
rx1 vga case:3 pass.
RX1 vga case:3 ,absolute value dc_i_tmp : 1 , value dc_q_tmp : 2 ,I:reg0x1204=0x211f1d1d. Q:reg0x1240=0x2f291d1b.
rx1 vga case:4 pass.
RX1 vga case:4 ,absolute value dc_i_tmp : 2 , value dc_q_tmp : 3 ,I:reg0x1208=0x211f1d1d. Q:reg0x1244=0x2f291d1b.
rx1 vga case:5 pass.
RX1 vga case:5 ,absolute value dc_i_tmp : 2 , value dc_q_tmp : 2 ,I:reg0x120c=0x231f1d1d. Q:reg0x1248=0x31291d1b.
rx1 vga case:6 pass.
RX1 vga case:6 ,absolute value dc_i_tmp : 2 , value dc_q_tmp : 2 ,I:reg0x1210=0x211d1d1d. Q:reg0x124c=0x31291d1b.
rx1 vga case:7 pass.
RX1 vga case:7 ,absolute value dc_i_tmp : 1 , value dc_q_tmp : 1 ,I:reg0x1214=0x231d1d1d. Q:reg0x1250=0x33291d1b.
rx1 vga case:8 pass.
RX1 vga case:8 ,absolute value dc_i_tmp : 0 , value dc_q_tmp : 2 ,I:reg0x1218=0x1f231b1d. Q:reg0x1254=0x31291d1b.
rx1 vga case:9 pass.
RX1 vga case:9 ,absolute value dc_i_tmp : 1 , value dc_q_tmp : 3 ,I:reg0x121c=0x211f1b1d. Q:reg0x1258=0x2d2d1d1b.
rx1 vga case:10 pass.
RX1 vga case:10 ,absolute value dc_i_tmp : 1 , value dc_q_tmp : 2 ,I:reg0x1220=0x231b1b1d. Q:reg0x125c=0x31291f1b.
rx1 vga case:11 pass.
RX1 vga case:11 ,absolute value dc_i_tmp : 0 , value dc_q_tmp : 1 ,I:reg0x1224=0x231f1b1f. Q:reg0x1260=0x2b2d1d19.
rx1 vga case:12 pass.
RX1 vga case:12 ,absolute value dc_i_tmp : 1 , value dc_q_tmp : 1 ,I:reg0x1228=0x1f23191f. Q:reg0x1264=0x332b1f19.
rx1 vga case:13 pass.
RX1 vga case:13 ,absolute value dc_i_tmp : 1 , value dc_q_tmp : 0 ,I:reg0x122c=0x21211921. Q:reg0x1268=0x2f292119.
rx1 vga case:14 pass.
RX1 vga case:14 ,absolute value dc_i_tmp : 0 , value dc_q_tmp : 2 ,I:reg0x1230=0x21231723. Q:reg0x126c=0x31272317.
reg0x1120=0x3c0100.
vga calibration end!
RX0: 0x103c : e0018000 ,0x1040 : 60001102 
RX1: 0x1054 : e0018000 ,0x1058 : 60001100 
THIS CASE J: 0 M: 6 
adc calibration begin
calibration begin
RX0 cali pre ,absolute value dc_i_tmp : 1 , value dc_q_tmp : 1 ,
reg0x1180=0x507232b.
reg0x11bc=0x31312121.
RX1 cali pre ,absolute value dc_i_tmp : 1 , value dc_q_tmp : 2 ,reg0x11f8=0x23211d1d.
reg0x1234=0x2f2b1b1b.
rx0 tia cali begin:
####:reg0x1270=0x601d5e21.
tia_cnt_i : 0 ,
tia_cnt_q : 0 ,
I:reg0x1150=0x507232b.
Q:reg0x1154=0x31312121.
RX0 tia case :0,absolute value dc_i : -1 , value dc_q : 0 
####:reg0x1270=0x601d5e21.
####:reg0x1274=0x621d621d.
tia_cnt_i : 2 ,
tia_cnt_q : 0 ,
I:reg0x1150=0x507232b.
Q:reg0x1154=0x31312121.
RX0 tia case :1,absolute value dc_i : 1 , value dc_q : 1 
####:reg0x1274=0x621d641b.
####:reg0x1278=0x641b601f.
tia_cnt_i : 26 ,
tia_cnt_q : 0 ,
I:reg0x1150=0x507232b.
Q:reg0x1154=0x31312121.
RX0 tia case :2,absolute value dc_i : 1 , value dc_q : 0 
####:reg0x1278=0x641b7a05.
####:reg0x127c=0x621f5c21.
tia_cnt_i : 33 ,
tia_cnt_q : 0 ,
I:reg0x1150=0x507232b.
Q:reg0x1154=0x31312121.
RX0 tia case :3,absolute value dc_i : 2 , value dc_q : 1 
####:reg0x127c=0x621f7d00.
####:reg0x1280=0x522d542b.
tia_cnt_i : 43 ,
tia_cnt_q : 0 ,
I:reg0x1150=0x507232b.
Q:reg0x1154=0x31312121.
RX0 tia case :4,absolute value dc_i : 3 , value dc_q : 1 
####:reg0x1280=0x522d7f00.
####:reg0x1284=0x542b542b.
tia_cnt_i : 43 ,
tia_cnt_q : 0 ,
I:reg0x1150=0x507232b.
Q:reg0x1154=0x31312121.
RX0 tia case :5,absolute value dc_i : 3 , value dc_q : 1 
####:reg0x1284=0x542b7f00.
####:reg0x1288=0x522f522f.
tia_cnt_i : 45 ,
tia_cnt_q : 0 ,
I:reg0x1150=0x507232b.
Q:reg0x1154=0x31312121.
RX0 tia case :6,absolute value dc_i : 3 , value dc_q : 1 
####:reg0x1288=0x522f7f02.
####:reg0x128c=0x4e314e31.
tia_cnt_i : 49 ,
tia_cnt_q : 0 ,
I:reg0x1150=0x507232b.
Q:reg0x1154=0x31312121.
RX0 tia case :7,absolute value dc_i : 3 , value dc_q : 1 
####:reg0x128c=0x4e317f00.
####:reg0x1290=0x4a354a35.
tia_cnt_i : 53 ,
tia_cnt_q : 0 ,
I:reg0x1150=0x507232b.
Q:reg0x1154=0x31312121.
RX0 tia case :8,absolute value dc_i : 3 , value dc_q : 1 
####:reg0x1290=0x4a357f00.
####:reg0x1294=0x4c334c33.
tia_cnt_i : 51 ,
tia_cnt_q : 0 ,
I:reg0x1150=0x507232b.
Q:reg0x1154=0x31312121.
RX0 tia case :9,absolute value dc_i : 3 , value dc_q : 1 
####:reg0x1294=0x4c337f00.
####:reg0x1298=0x4c334a35.
tia_cnt_i : 53 ,
tia_cnt_q : 0 ,
I:reg0x1150=0x507232b.
Q:reg0x1154=0x31312121.
RX0 tia case :10,absolute value dc_i : 3 , value dc_q : 1 
####:reg0x1298=0x4c337f00.
####:reg0x129c=0x4c334c33.
tia_cnt_i : 51 ,
tia_cnt_q : 0 ,
I:reg0x1150=0x507232b.
Q:reg0x1154=0x31312121.
RX0 tia case :11,absolute value dc_i : 3 , value dc_q : 1 
####:reg0x129c=0x4c337f00.
####:reg0x12a0=0x4a354c33.
tia_cnt_i : 51 ,
tia_cnt_q : 0 ,
I:reg0x1150=0x507232b.
Q:reg0x1154=0x31312121.
RX0 tia case :12,absolute value dc_i : 3 , value dc_q : 1 
####:reg0x12a0=0x4a357f00.
rx1 tia cali begin:
Q:reg0x12b0=0x443b4439.
 RX1 :reg0x1130=0x4439443b.
tia_cnt_i : 2 ,
tia_cnt_q : 10 ,
RX1 tia case :0,absolute value dc_i : -1 , value dc_q : -1 
RX1:reg0x12b0=0x4245423b.
Q:reg0x12b4=0x443b4439.
 RX1 :reg0x1130=0x4439443b.
tia_cnt_i : 2 ,
tia_cnt_q : 14 ,
RX1 tia case :1,absolute value dc_i : 1 , value dc_q : -1 
RX1:reg0x12b4=0x4249423b.
Q:reg0x12b8=0x443b4639.
 RX1 :reg0x1130=0x4639443b.
tia_cnt_i : 1 ,
tia_cnt_q : 43 ,
RX1 tia case :2,absolute value dc_i : -1 , value dc_q : -1 
RX1:reg0x12b8=0x4566453a.
Q:reg0x12bc=0x443b443b.
 RX1 :reg0x1130=0x443b443b.
tia_cnt_i : 3 ,
tia_cnt_q : 62 ,
RX1 tia case :3,absolute value dc_i : -1 , value dc_q : -1 
RX1:reg0x12bc=0x4179413e.
Q:reg0x12c0=0x3c413c41.
 RX1 :reg0x1130=0x3c413c41.
tia_cnt_i : 10 ,
tia_cnt_q : 62 ,
RX1 tia case :4,absolute value dc_i : -1 , value dc_q : -5 
RX1:reg0x12c0=0x327f324b.
Q:reg0x12c4=0x3a453c43.
 RX1 :reg0x1130=0x3c433a45.
tia_cnt_i : 1 ,
tia_cnt_q : 58 ,
RX1 tia case :5,absolute value dc_i : -1 , value dc_q : -5 
RX1:reg0x12c4=0x3d7f3d42.
Q:reg0x12c8=0x3c433c43.
 RX1 :reg0x1130=0x3c433c43.
tia_cnt_i : 0 ,
tia_cnt_q : 60 ,
RX1 tia case :6,absolute value dc_i : 0 , value dc_q : -1 
RX1:reg0x12c8=0x3c7f3c43.
Q:reg0x12cc=0x3c433a45.
 RX1 :reg0x1130=0x3a453c43.
tia_cnt_i : 0 ,
tia_cnt_q : 58 ,
RX1 tia case :7,absolute value dc_i : 1 , value dc_q : -1 
RX1:reg0x12cc=0x3a7d3a45.
Q:reg0x12d0=0x3a473649.
 RX1 :reg0x1130=0x36493a47.
tia_cnt_i : 6 ,
tia_cnt_q : 56 ,
RX1 tia case :8,absolute value dc_i : 0 , value dc_q : -6 
RX1:reg0x12d0=0x327f324d.
Q:reg0x12d4=0x3a453847.
 RX1 :reg0x1130=0x38473a45.
tia_cnt_i : 0 ,
tia_cnt_q : 58 ,
RX1 tia case :9,absolute value dc_i : 1 , value dc_q : -3 
RX1:reg0x12d4=0x387f3847.
Q:reg0x12d8=0x3a473649.
 RX1 :reg0x1130=0x36493a47.
tia_cnt_i : 2 ,
tia_cnt_q : 56 ,
RX1 tia case :10,absolute value dc_i : 1 , value dc_q : -4 
RX1:reg0x12d8=0x367f3649.
Q:reg0x12dc=0x38453847.
 RX1 :reg0x1130=0x38473845.
tia_cnt_i : 1 ,
tia_cnt_q : 58 ,
RX1 tia case :11,absolute value dc_i : 1 , value dc_q : -6 
RX1:reg0x12dc=0x377f3748.
Q:reg0x12e0=0x38453649.
 RX1 :reg0x1130=0x36493845.
tia_cnt_i : 0 ,
tia_cnt_q : 58 ,
RX1 tia case :12,absolute value dc_i : 1 , value dc_q : -5 
RX1:reg0x12e0=0x367f3649.
tia calibration end!
rx0 vga calibration begin
reg0x1120=0x3fc100.
vga case:1 pass.
RX0 vga case:1 ,absolute value dc_i_tmp : 1 , value dc_q_tmp : 0 ,I:reg0x1184=0x5072329.   Q:reg0x11c0=0x33312321.
vga case:2 pass.
RX0 vga case:2 ,absolute value dc_i_tmp : 1 , value dc_q_tmp : 0 ,I:reg0x1188=0x7092329.   Q:reg0x11c4=0x312f2321.
vga case:3 pass.
RX0 vga case:3 ,absolute value dc_i_tmp : 2 , value dc_q_tmp : 0 ,I:reg0x118c=0x5092329.   Q:reg0x11c8=0x312f2321.
vga case:4 pass.
RX0 vga case:4 ,absolute value dc_i_tmp : 1 , value dc_q_tmp : 1 ,I:reg0x1190=0x5092329.   Q:reg0x11cc=0x312f2321.
vga case:5 pass.
RX0 vga case:5 ,absolute value dc_i_tmp : 2 , value dc_q_tmp : 0 ,I:reg0x1194=0x3092329.   Q:reg0x11d0=0x332f2321.
vga case:6 pass.
RX0 vga case:6 ,absolute value dc_i_tmp : 1 , value dc_q_tmp : 1 ,I:reg0x1198=0x3092329.   Q:reg0x11d4=0x2d312121.
vga case:7 pass.
RX0 vga case:7 ,absolute value dc_i_tmp : 1 , value dc_q_tmp : 0 ,I:reg0x119c=0x30b2329.   Q:reg0x11d8=0x312d2321.
vga case:8 pass.
RX0 vga case:8 ,absolute value dc_i_tmp : 0 , value dc_q_tmp : 1 ,I:reg0x11a0=0x905252b.   Q:reg0x11dc=0x2b312121.
vga case:9 pass.
RX0 vga case:9 ,absolute value dc_i_tmp : 0 , value dc_q_tmp : 0 ,I:reg0x11a4=0x707232b.   Q:reg0x11e0=0x31312121.
vga case:10 pass.
RX0 vga case:10 ,absolute value dc_i_tmp : 1 , value dc_q_tmp : 0 ,I:reg0x11a8=0x705232d.   Q:reg0x11e4=0x312f2121.
vga case:11 pass.
RX0 vga case:11 ,absolute value dc_i_tmp : 0 , value dc_q_tmp : 1 ,I:reg0x11ac=0x309212f.   Q:reg0x11e8=0x31292121.
vga case:12 pass.
RX0 vga case:12 ,absolute value dc_i_tmp : 0 , value dc_q_tmp : 1 ,I:reg0x11b0=0x1091d2f.   Q:reg0x11ec=0x312f2123.
vga case:13 pass.
RX0 vga case:13 ,absolute value dc_i_tmp : 0 , value dc_q_tmp : 1 ,I:reg0x11b4=0x10b1b31.   Q:reg0x11f0=0x392b2123.
vga case:14 pass.
RX0 vga case:14 ,absolute value dc_i_tmp : 1 , value dc_q_tmp : 1 ,I:reg0x11b8=0x9071735.   Q:reg0x11f4=0x313f1b25.
rx1 vga calibration begin
rx1 vga case:1 pass.
RX1 vga case:1 ,absolute value dc_i_tmp : 0 , value dc_q_tmp : 2 ,I:reg0x11fc=0x211f1d1d. Q:reg0x1238=0x2f2b1d1b.
rx1 vga case:2 pass.
RX1 vga case:2 ,absolute value dc_i_tmp : 2 , value dc_q_tmp : 2 ,I:reg0x1200=0x211f1d1d. Q:reg0x123c=0x2d291d1b.
rx1 vga case:3 pass.
RX1 vga case:3 ,absolute value dc_i_tmp : 2 , value dc_q_tmp : 2 ,I:reg0x1204=0x1f211b1d. Q:reg0x1240=0x2f2b1d1b.
rx1 vga case:4 pass.
RX1 vga case:4 ,absolute value dc_i_tmp : 1 , value dc_q_tmp : 3 ,I:reg0x1208=0x231f1d1d. Q:reg0x1244=0x2f291d1b.
rx1 vga case:5 pass.
RX1 vga case:5 ,absolute value dc_i_tmp : 2 , value dc_q_tmp : 1 ,I:reg0x120c=0x231f1d1d. Q:reg0x1248=0x2f291d1b.
rx1 vga case:6 pass.
RX1 vga case:6 ,absolute value dc_i_tmp : 1 , value dc_q_tmp : 2 ,I:reg0x1210=0x1f231b1d. Q:reg0x124c=0x2f291d1b.
rx1 vga case:7 pass.
RX1 vga case:7 ,absolute value dc_i_tmp : 1 , value dc_q_tmp : 1 ,I:reg0x1214=0x1f231b1d. Q:reg0x1250=0x31291d1b.
rx1 vga case:8 pass.
RX1 vga case:8 ,absolute value dc_i_tmp : 1 , value dc_q_tmp : 3 ,I:reg0x1218=0x21211b1d. Q:reg0x1254=0x2d2b1d1b.
rx1 vga case:9 pass.
RX1 vga case:9 ,absolute value dc_i_tmp : 0 , value dc_q_tmp : 2 ,I:reg0x121c=0x231d1b1d. Q:reg0x1258=0x33271f1b.
rx1 vga case:10 pass.
RX1 vga case:10 ,absolute value dc_i_tmp : 1 , value dc_q_tmp : 1 ,I:reg0x1220=0x1f211b1f. Q:reg0x125c=0x2f2b1f1b.
rx1 vga case:11 pass.
RX1 vga case:11 ,absolute value dc_i_tmp : 1 , value dc_q_tmp : 1 ,I:reg0x1224=0x1d23191f. Q:reg0x1260=0x2f271f19.
rx1 vga case:12 pass.
RX1 vga case:12 ,absolute value dc_i_tmp : 0 , value dc_q_tmp : 0 ,I:reg0x1228=0x1f231921. Q:reg0x1264=0x31272119.
rx1 vga case:13 pass.
RX1 vga case:13 ,absolute value dc_i_tmp : 1 , value dc_q_tmp : 1 ,I:reg0x122c=0x1f251721. Q:reg0x1268=0x33272319.
rx1 vga case:14 pass.
RX1 vga case:14 ,absolute value dc_i_tmp : 0 , value dc_q_tmp : 2 ,I:reg0x1230=0x21231523. Q:reg0x126c=0x352d2517.
reg0x1120=0x3c0100.
vga calibration end!
RX0: 0x103c : e001c000 ,0x1040 : 70001102 
RX1: 0x1054 : e001c000 ,0x1058 : 70001100 
THIS CASE J: 0 M: 7 
adc calibration begin
calibration begin
RX0 cali pre ,absolute value dc_i_tmp : 5 , value dc_q_tmp : 0 ,
reg0x1180=0x507232b.
reg0x11bc=0x312f2321.
RX1 cali pre ,absolute value dc_i_tmp : 0 , value dc_q_tmp : 2 ,reg0x11f8=0x21211b1d.
reg0x1234=0x2f2b1d1b.
rx0 tia cali begin:
####:reg0x1270=0x621d601f.
tia_cnt_i : 3 ,
tia_cnt_q : 0 ,
I:reg0x1150=0x507232b.
Q:reg0x1154=0x312f2321.
RX0 tia case :0,absolute value dc_i : -1 , value dc_q : 0 
####:reg0x1270=0x621d5d22.
####:reg0x1274=0x641b621f.
tia_cnt_i : 0 ,
tia_cnt_q : 0 ,
I:reg0x1150=0x507232b.
Q:reg0x1154=0x312f2321.
RX0 tia case :1,absolute value dc_i : 0 , value dc_q : 0 
####:reg0x1274=0x641b621f.
####:reg0x1278=0x621d621f.
tia_cnt_i : 0 ,
tia_cnt_q : 0 ,
I:reg0x1150=0x507232b.
Q:reg0x1154=0x312f2321.
RX0 tia case :2,absolute value dc_i : 1 , value dc_q : 0 
####:reg0x1278=0x621d621f.
####:reg0x127c=0x5e215c23.
tia_cnt_i : 0 ,
tia_cnt_q : 0 ,
I:reg0x1150=0x507232b.
Q:reg0x1154=0x312f2321.
RX0 tia case :3,absolute value dc_i : 1 , value dc_q : 0 
####:reg0x127c=0x5e215c23.
####:reg0x1280=0x542b542b.
tia_cnt_i : 0 ,
tia_cnt_q : 0 ,
I:reg0x1150=0x507232b.
Q:reg0x1154=0x312f2321.
RX0 tia case :4,absolute value dc_i : 1 , value dc_q : 0 
####:reg0x1280=0x542b542b.
####:reg0x1284=0x522d542b.
tia_cnt_i : 0 ,
tia_cnt_q : 0 ,
I:reg0x1150=0x507232b.
Q:reg0x1154=0x312f2321.
RX0 tia case :5,absolute value dc_i : 1 , value dc_q : 0 
####:reg0x1284=0x522d542b.
####:reg0x1288=0x522d522d.
tia_cnt_i : 2 ,
tia_cnt_q : 0 ,
I:reg0x1150=0x507232b.
Q:reg0x1154=0x312f2321.
RX0 tia case :6,absolute value dc_i : 1 , value dc_q : 0 
####:reg0x1288=0x522d542b.
####:reg0x128c=0x522f4e31.
tia_cnt_i : 3 ,
tia_cnt_q : 0 ,
I:reg0x1150=0x507232b.
Q:reg0x1154=0x312f2321.
RX0 tia case :7,absolute value dc_i : 1 , value dc_q : 0 
####:reg0x128c=0x522f512e.
####:reg0x1290=0x4c334a35.
tia_cnt_i : 4 ,
tia_cnt_q : 0 ,
I:reg0x1150=0x507232b.
Q:reg0x1154=0x312f2321.
RX0 tia case :8,absolute value dc_i : 1 , value dc_q : 0 
####:reg0x1290=0x4c334e31.
####:reg0x1294=0x4c334a35.
tia_cnt_i : 0 ,
tia_cnt_q : 0 ,
I:reg0x1150=0x507232b.
Q:reg0x1154=0x312f2321.
RX0 tia case :9,absolute value dc_i : 1 , value dc_q : 0 
####:reg0x1294=0x4c334a35.
####:reg0x1298=0x4c334c33.
tia_cnt_i : 0 ,
tia_cnt_q : 0 ,
I:reg0x1150=0x507232b.
Q:reg0x1154=0x312f2321.
RX0 tia case :10,absolute value dc_i : 1 , value dc_q : 0 
####:reg0x1298=0x4c334c33.
####:reg0x129c=0x4c334a35.
tia_cnt_i : 0 ,
tia_cnt_q : 0 ,
I:reg0x1150=0x507232b.
Q:reg0x1154=0x312f2321.
RX0 tia case :11,absolute value dc_i : 1 , value dc_q : 0 
####:reg0x129c=0x4c334a35.
####:reg0x12a0=0x4a354a35.
tia_cnt_i : 2 ,
tia_cnt_q : 0 ,
I:reg0x1150=0x507232b.
Q:reg0x1154=0x312f2321.
RX0 tia case :12,absolute value dc_i : 1 , value dc_q : 0 
####:reg0x12a0=0x4a354c33.
rx1 tia cali begin:
Q:reg0x12b0=0x46394a37.
 RX1 :reg0x1130=0x4a374639.
tia_cnt_i : 0 ,
tia_cnt_q : 17 ,
RX1 tia case :0,absolute value dc_i : 1 , value dc_q : -1 
RX1:reg0x12b0=0x4a4a4a37.
Q:reg0x12b4=0x463b4837.
 RX1 :reg0x1130=0x4837463b.
tia_cnt_i : 0 ,
tia_cnt_q : 31 ,
RX1 tia case :1,absolute value dc_i : 1 , value dc_q : -1 
RX1:reg0x12b4=0x485a4837.
Q:reg0x12b8=0x443b4439.
 RX1 :reg0x1130=0x4439443b.
tia_cnt_i : 0 ,
tia_cnt_q : 59 ,
RX1 tia case :2,absolute value dc_i : 1 , value dc_q : -1 
RX1:reg0x12b8=0x44764439.
Q:reg0x12bc=0x423d4439.
 RX1 :reg0x1130=0x4439423d.
tia_cnt_i : 57 ,
tia_cnt_q : 66 ,
RX1 tia case :3,absolute value dc_i : 2 , value dc_q : -4 
RX1:reg0x12bc=0x7d7f7d00.
Q:reg0x12c0=0x3e41423d.
 RX1 :reg0x1130=0x423d3e41.
tia_cnt_i : 61 ,
tia_cnt_q : 62 ,
RX1 tia case :4,absolute value dc_i : 2 , value dc_q : -4 
RX1:reg0x12c0=0x7f7f7f00.
Q:reg0x12c4=0x3c433a45.
 RX1 :reg0x1130=0x3a453c43.
tia_cnt_i : 69 ,
tia_cnt_q : 60 ,
RX1 tia case :5,absolute value dc_i : 2 , value dc_q : -4 
RX1:reg0x12c4=0x7f7f7f00.
Q:reg0x12c8=0x3c433a45.
 RX1 :reg0x1130=0x3a453c43.
tia_cnt_i : 69 ,
tia_cnt_q : 60 ,
RX1 tia case :6,absolute value dc_i : 2 , value dc_q : -4 
RX1:reg0x12c8=0x7f7f7f00.
Q:reg0x12cc=0x3a453a45.
 RX1 :reg0x1130=0x3a453a45.
tia_cnt_i : 69 ,
tia_cnt_q : 58 ,
RX1 tia case :7,absolute value dc_i : 2 , value dc_q : -4 
RX1:reg0x12cc=0x7f7f7f00.
Q:reg0x12d0=0x38473649.
 RX1 :reg0x1130=0x36493847.
tia_cnt_i : 73 ,
tia_cnt_q : 56 ,
RX1 tia case :8,absolute value dc_i : 2 , value dc_q : -4 
RX1:reg0x12d0=0x7f7f7f00.
Q:reg0x12d4=0x3a473649.
 RX1 :reg0x1130=0x36493a47.
tia_cnt_i : 73 ,
tia_cnt_q : 56 ,
RX1 tia case :9,absolute value dc_i : 2 , value dc_q : -4 
RX1:reg0x12d4=0x7f7f7f00.
Q:reg0x12d8=0x38453649.
 RX1 :reg0x1130=0x36493845.
tia_cnt_i : 73 ,
tia_cnt_q : 58 ,
RX1 tia case :10,absolute value dc_i : 2 , value dc_q : -4 
RX1:reg0x12d8=0x7f7f7f00.
Q:reg0x12dc=0x3a453649.
 RX1 :reg0x1130=0x36493a45.
tia_cnt_i : 73 ,
tia_cnt_q : 58 ,
RX1 tia case :11,absolute value dc_i : 2 , value dc_q : -4 
RX1:reg0x12dc=0x7f7f7f00.
Q:reg0x12e0=0x38453a47.
 RX1 :reg0x1130=0x3a473845.
tia_cnt_i : 69 ,
tia_cnt_q : 58 ,
RX1 tia case :12,absolute value dc_i : 2 , value dc_q : -4 
RX1:reg0x12e0=0x7f7f7f02.
tia calibration end!
rx0 vga calibration begin
reg0x1120=0x3fc100.
vga case:1 pass.
RX0 vga case:1 ,absolute value dc_i_tmp : 4 , value dc_q_tmp : 1 ,I:reg0x1184=0x5072329.   Q:reg0x11c0=0x312f2321.
vga case:2 pass.
RX0 vga case:2 ,absolute value dc_i_tmp : 5 , value dc_q_tmp : 1 ,I:reg0x1188=0x5092329.   Q:reg0x11c4=0x312f2321.
vga case:3 pass.
RX0 vga case:3 ,absolute value dc_i_tmp : 5 , value dc_q_tmp : 0 ,I:reg0x118c=0x5092329.   Q:reg0x11c8=0x31312121.
vga case:4 pass.
RX0 vga case:4 ,absolute value dc_i_tmp : 4 , value dc_q_tmp : 0 ,I:reg0x1190=0x5092329.   Q:reg0x11cc=0x31312121.
vga case:5 pass.
RX0 vga case:5 ,absolute value dc_i_tmp : 5 , value dc_q_tmp : 0 ,I:reg0x1194=0x3092329.   Q:reg0x11d0=0x31312121.
vga case:6 pass.
RX0 vga case:6 ,absolute value dc_i_tmp : 4 , value dc_q_tmp : 0 ,I:reg0x1198=0x9052529.   Q:reg0x11d4=0x2f312121.
vga case:7 pass.
RX0 vga case:7 ,absolute value dc_i_tmp : 4 , value dc_q_tmp : 0 ,I:reg0x119c=0x30d2329.   Q:reg0x11d8=0x2b312121.
vga case:8 pass.
RX0 vga case:8 ,absolute value dc_i_tmp : 3 , value dc_q_tmp : 0 ,I:reg0x11a0=0x5072329.   Q:reg0x11dc=0x31312121.
vga case:9 pass.
RX0 vga case:9 ,absolute value dc_i_tmp : 2 , value dc_q_tmp : 0 ,I:reg0x11a4=0x709232b.   Q:reg0x11e0=0x312f2121.
vga case:10 pass.
RX0 vga case:10 ,absolute value dc_i_tmp : 3 , value dc_q_tmp : 0 ,I:reg0x11a8=0x507232d.   Q:reg0x11e4=0x352d2121.
vga case:11 pass.
RX0 vga case:11 ,absolute value dc_i_tmp : 3 , value dc_q_tmp : 0 ,I:reg0x11ac=0x907212d.   Q:reg0x11e8=0x39311f21.
vga case:12 pass.
RX0 vga case:12 ,absolute value dc_i_tmp : 2 , value dc_q_tmp : 0 ,I:reg0x11b0=0xd071f2f.   Q:reg0x11ec=0x352d2123.
vga case:13 pass.
RX0 vga case:13 ,absolute value dc_i_tmp : 1 , value dc_q_tmp : 0 ,I:reg0x11b4=0x7091d31.   Q:reg0x11f0=0x2f311d23.
vga case:14 pass.
RX0 vga case:14 ,absolute value dc_i_tmp : 1 , value dc_q_tmp : 0 ,I:reg0x11b8=0x10f1735.   Q:reg0x11f4=0x33231f25.
rx1 vga calibration begin
rx1 vga case:1 pass.
RX1 vga case:1 ,absolute value dc_i_tmp : 1 , value dc_q_tmp : 2 ,I:reg0x11fc=0x21211b1d. Q:reg0x1238=0x2f2b1d1b.
rx1 vga case:2 pass.
RX1 vga case:2 ,absolute value dc_i_tmp : 2 , value dc_q_tmp : 2 ,I:reg0x1200=0x21211b1d. Q:reg0x123c=0x2f2b1d1b.
rx1 vga case:3 pass.
RX1 vga case:3 ,absolute value dc_i_tmp : 1 , value dc_q_tmp : 0 ,I:reg0x1204=0x211f1b1d. Q:reg0x1240=0x312b1d1b.
rx1 vga case:4 pass.
RX1 vga case:4 ,absolute value dc_i_tmp : 1 , value dc_q_tmp : 1 ,I:reg0x1208=0x211f1b1d. Q:reg0x1244=0x312b1d1b.
rx1 vga case:5 pass.
RX1 vga case:5 ,absolute value dc_i_tmp : 1 , value dc_q_tmp : 1 ,I:reg0x120c=0x231f1b1d. Q:reg0x1248=0x2f291d1b.
rx1 vga case:6 pass.
RX1 vga case:6 ,absolute value dc_i_tmp : 1 , value dc_q_tmp : 1 ,I:reg0x1210=0x231f1b1d. Q:reg0x124c=0x312b1d1b.
rx1 vga case:7 pass.
RX1 vga case:7 ,absolute value dc_i_tmp : 1 , value dc_q_tmp : 0 ,I:reg0x1214=0x251f1b1d. Q:reg0x1250=0x31291d1b.
rx1 vga case:8 pass.
RX1 vga case:8 ,absolute value dc_i_tmp : 1 , value dc_q_tmp : 0 ,I:reg0x1218=0x2123191d. Q:reg0x1254=0x2f2b1d1b.
rx1 vga case:9 pass.
RX1 vga case:9 ,absolute value dc_i_tmp : 1 , value dc_q_tmp : 1 ,I:reg0x121c=0x1f25191f. Q:reg0x1258=0x2d2f1d1b.
rx1 vga case:10 pass.
RX1 vga case:10 ,absolute value dc_i_tmp : 0 , value dc_q_tmp : 1 ,I:reg0x1220=0x21231921. Q:reg0x125c=0x2f291f1b.
rx1 vga case:11 pass.
RX1 vga case:11 ,absolute value dc_i_tmp : 0 , value dc_q_tmp : 1 ,I:reg0x1224=0x21231721. Q:reg0x1260=0x31271f19.
rx1 vga case:12 pass.
RX1 vga case:12 ,absolute value dc_i_tmp : 1 , value dc_q_tmp : 1 ,I:reg0x1228=0x1f211723. Q:reg0x1264=0x2d2d1f19.
rx1 vga case:13 pass.
RX1 vga case:13 ,absolute value dc_i_tmp : 1 , value dc_q_tmp : 1 ,I:reg0x122c=0x231d1523. Q:reg0x1268=0x2d2d2119.
rx1 vga case:14 pass.
RX1 vga case:14 ,absolute value dc_i_tmp : 0 , value dc_q_tmp : 1 ,I:reg0x1230=0x21251127. Q:reg0x126c=0x2d2d2317.
reg0x1120=0x3c0100.
vga calibration end!
RX0: 0x103c : e0020000 ,0x1040 : 80001102 
RX1: 0x1054 : e0020000 ,0x1058 : 80001100 
THIS CASE J: 0 M: 8 
adc calibration begin
calibration begin
RX0 cali pre ,absolute value dc_i_tmp : 8 , value dc_q_tmp : 6 ,
reg0x1180=0x507232b.
reg0x11bc=0x312f2321.
RX1 cali pre ,absolute value dc_i_tmp : 2 , value dc_q_tmp : 3 ,reg0x11f8=0x21211b1d.
reg0x1234=0x2d2b1d1d.
rx0 tia cali begin:
####:reg0x1270=0x661b641b.
tia_cnt_i : 66 ,
tia_cnt_q : 100 ,
I:reg0x1150=0x507232b.
Q:reg0x1154=0x312f2321.
RX0 tia case :0,absolute value dc_i : -1 , value dc_q : -2 
####:reg0x1270=0x227f225d.
####:reg0x1274=0x641b621f.
tia_cnt_i : 89 ,
tia_cnt_q : 100 ,
I:reg0x1150=0x507232b.
Q:reg0x1154=0x312f2321.
RX0 tia case :1,absolute value dc_i : -1 , value dc_q : -3 
####:reg0x1274=0x97f0978.
####:reg0x1278=0x621d601f.
tia_cnt_i : 96 ,
tia_cnt_q : 1 ,
I:reg0x1150=0x507232b.
Q:reg0x1154=0x312f2321.
RX0 tia case :2,absolute value dc_i : -3 , value dc_q : -6 
####:reg0x1278=0x1e007f.
####:reg0x127c=0x5e235a25.
tia_cnt_i : 90 ,
tia_cnt_q : 1 ,
I:reg0x1150=0x507232b.
Q:reg0x1154=0x312f2321.
RX0 tia case :3,absolute value dc_i : -4 , value dc_q : -6 
####:reg0x127c=0x24007f.
####:reg0x1280=0x542b522d.
tia_cnt_i : 82 ,
tia_cnt_q : 1 ,
I:reg0x1150=0x507232b.
Q:reg0x1154=0x312f2321.
RX0 tia case :4,absolute value dc_i : -5 , value dc_q : -6 
####:reg0x1280=0x2c007f.
####:reg0x1284=0x522d542b.
tia_cnt_i : 84 ,
tia_cnt_q : 1 ,
I:reg0x1150=0x507232b.
Q:reg0x1154=0x312f2321.
RX0 tia case :5,absolute value dc_i : -5 , value dc_q : -6 
####:reg0x1284=0x2e007f.
####:reg0x1288=0x502d522d.
tia_cnt_i : 82 ,
tia_cnt_q : 1 ,
I:reg0x1150=0x507232b.
Q:reg0x1154=0x312f2321.
RX0 tia case :6,absolute value dc_i : -5 , value dc_q : -6 
####:reg0x1288=0x2e007f.
####:reg0x128c=0x522f4e31.
tia_cnt_i : 78 ,
tia_cnt_q : 1 ,
I:reg0x1150=0x507232b.
Q:reg0x1154=0x312f2321.
RX0 tia case :7,absolute value dc_i : -5 , value dc_q : -6 
####:reg0x128c=0x30007f.
####:reg0x1290=0x4a354a35.
tia_cnt_i : 74 ,
tia_cnt_q : 1 ,
I:reg0x1150=0x507232b.
Q:reg0x1154=0x312f2321.
RX0 tia case :8,absolute value dc_i : -5 , value dc_q : -6 
####:reg0x1290=0x36007f.
####:reg0x1294=0x4a354c33.
tia_cnt_i : 76 ,
tia_cnt_q : 1 ,
I:reg0x1150=0x507232b.
Q:reg0x1154=0x312f2321.
RX0 tia case :9,absolute value dc_i : -5 , value dc_q : -6 
####:reg0x1294=0x36007f.
####:reg0x1298=0x4a354c33.
tia_cnt_i : 76 ,
tia_cnt_q : 1 ,
I:reg0x1150=0x507232b.
Q:reg0x1154=0x312f2321.
RX0 tia case :10,absolute value dc_i : -5 , value dc_q : -6 
####:reg0x1298=0x36007f.
####:reg0x129c=0x4c334c33.
tia_cnt_i : 76 ,
tia_cnt_q : 1 ,
I:reg0x1150=0x507232b.
Q:reg0x1154=0x312f2321.
RX0 tia case :11,absolute value dc_i : -5 , value dc_q : -6 
####:reg0x129c=0x34007f.
####:reg0x12a0=0x4c334c33.
tia_cnt_i : 76 ,
tia_cnt_q : 1 ,
I:reg0x1150=0x507232b.
Q:reg0x1154=0x312f2321.
RX0 tia case :12,absolute value dc_i : -5 , value dc_q : -6 
####:reg0x12a0=0x34007f.
rx1 tia cali begin:
Q:reg0x12b0=0x463b463b.
 RX1 :reg0x1130=0x463b463b.
tia_cnt_i : 68 ,
tia_cnt_q : 22 ,
RX1 tia case :0,absolute value dc_i : -3 , value dc_q : 1 
RX1:reg0x12b0=0x227027f.
Q:reg0x12b4=0x443b4639.
 RX1 :reg0x1130=0x4639443b.
tia_cnt_i : 1 ,
tia_cnt_q : 29 ,
RX1 tia case :1,absolute value dc_i : -1 , value dc_q : -1 
RX1:reg0x12b4=0x4558453a.
Q:reg0x12b8=0x443b443b.
 RX1 :reg0x1130=0x443b443b.
tia_cnt_i : 68 ,
tia_cnt_q : 1 ,
RX1 tia case :2,absolute value dc_i : -2 , value dc_q : -2 
RX1:reg0x12b8=0x3c007f.
Q:reg0x12bc=0x443b463b.
 RX1 :reg0x1130=0x463b443b.
tia_cnt_i : 0 ,
tia_cnt_q : 68 ,
RX1 tia case :3,absolute value dc_i : 0 , value dc_q : -4 
RX1:reg0x12bc=0x467f463b.
Q:reg0x12c0=0x3e413e41.
 RX1 :reg0x1130=0x3e413e41.
tia_cnt_i : 0 ,
tia_cnt_q : 62 ,
RX1 tia case :4,absolute value dc_i : 0 , value dc_q : -5 
RX1:reg0x12c0=0x3e7f3e41.
Q:reg0x12c4=0x3c433c43.
 RX1 :reg0x1130=0x3c433c43.
tia_cnt_i : 60 ,
tia_cnt_q : 1 ,
RX1 tia case :5,absolute value dc_i : -2 , value dc_q : -5 
RX1:reg0x12c4=0x44007f.
Q:reg0x12c8=0x3e433a45.
 RX1 :reg0x1130=0x3a453e43.
tia_cnt_i : 0 ,
tia_cnt_q : 60 ,
RX1 tia case :6,absolute value dc_i : 0 , value dc_q : -5 
RX1:reg0x12c8=0x3a7f3a45.
Q:reg0x12cc=0x3e433a45.
 RX1 :reg0x1130=0x3a453e43.
tia_cnt_i : 0 ,
tia_cnt_q : 60 ,
RX1 tia case :7,absolute value dc_i : 0 , value dc_q : -5 
RX1:reg0x12cc=0x3a7f3a45.
Q:reg0x12d0=0x3a473649.
 RX1 :reg0x1130=0x36493a47.
tia_cnt_i : 0 ,
tia_cnt_q : 56 ,
RX1 tia case :8,absolute value dc_i : 0 , value dc_q : -5 
RX1:reg0x12d0=0x367f3649.
Q:reg0x12d4=0x38453649.
 RX1 :reg0x1130=0x36493845.
tia_cnt_i : 0 ,
tia_cnt_q : 58 ,
RX1 tia case :9,absolute value dc_i : 0 , value dc_q : -4 
RX1:reg0x12d4=0x367f3649.
Q:reg0x12d8=0x3a453847.
 RX1 :reg0x1130=0x38473a45.
tia_cnt_i : 56 ,
tia_cnt_q : 1 ,
RX1 tia case :10,absolute value dc_i : -2 , value dc_q : -6 
RX1:reg0x12d8=0x46007f.
Q:reg0x12dc=0x3a473847.
 RX1 :reg0x1130=0x38473a47.
tia_cnt_i : 56 ,
tia_cnt_q : 1 ,
RX1 tia case :11,absolute value dc_i : -2 , value dc_q : -6 
RX1:reg0x12dc=0x48007f.
Q:reg0x12e0=0x38453649.
 RX1 :reg0x1130=0x36493845.
tia_cnt_i : 0 ,
tia_cnt_q : 58 ,
RX1 tia case :12,absolute value dc_i : 0 , value dc_q : -6 
RX1:reg0x12e0=0x367f3649.
tia calibration end!
rx0 vga calibration begin
reg0x1120=0x3fc100.
vga case:1 pass.
RX0 vga case:1 ,absolute value dc_i_tmp : 9 , value dc_q_tmp : 7 ,I:reg0x1184=0x7072f21.   Q:reg0x11c0=0x31312b17.
vga case:2 pass.
RX0 vga case:2 ,absolute value dc_i_tmp : 9 , value dc_q_tmp : 7 ,I:reg0x1188=0x7072f21.   Q:reg0x11c4=0x31312b17.
vga case:3 pass.
RX0 vga case:3 ,absolute value dc_i_tmp : 9 , value dc_q_tmp : 6 ,I:reg0x118c=0x7072f21.   Q:reg0x11c8=0x31312b17.
vga case:4 pass.
RX0 vga case:4 ,absolute value dc_i_tmp : 8 , value dc_q_tmp : 6 ,I:reg0x1190=0x9072f21.   Q:reg0x11cc=0x31312b17.
vga case:5 pass.
RX0 vga case:5 ,absolute value dc_i_tmp : 8 , value dc_q_tmp : 5 ,I:reg0x1194=0x9072f21.   Q:reg0x11d0=0x31312b17.
vga case:6 pass.
RX0 vga case:6 ,absolute value dc_i_tmp : 8 , value dc_q_tmp : 5 ,I:reg0x1198=0x9072f21.   Q:reg0x11d4=0x31312b17.
vga case:7 pass.
RX0 vga case:7 ,absolute value dc_i_tmp : 8 , value dc_q_tmp : 6 ,I:reg0x119c=0xb072f21.   Q:reg0x11d8=0x2f312b17.
vga case:8 pass.
RX0 vga case:8 ,absolute value dc_i_tmp : 8 , value dc_q_tmp : 5 ,I:reg0x11a0=0x5093121.   Q:reg0x11dc=0x31312d15.
vga case:9 pass.
RX0 vga case:9 ,absolute value dc_i_tmp : 7 , value dc_q_tmp : 6 ,I:reg0x11a4=0x50b311d.   Q:reg0x11e0=0x312f3113.
vga case:10 pass.
RX0 vga case:10 ,absolute value dc_i_tmp : 7 , value dc_q_tmp : 5 ,I:reg0x11a8=0x5093319.   Q:reg0x11e4=0x3131330f.
vga case:11 pass.
RX0 vga case:11 ,absolute value dc_i_tmp : 7 , value dc_q_tmp : 6 ,I:reg0x11ac=0x7073917.   Q:reg0x11e8=0x312d390b.
vga case:12 pass.
RX0 vga case:12 ,absolute value dc_i_tmp : 6 , value dc_q_tmp : 5 ,I:reg0x11b0=0x50b3b13.   Q:reg0x11ec=0x31333d07.
vga case:13 pass.
RX0 vga case:13 ,absolute value dc_i_tmp : 6 , value dc_q_tmp : 5 ,I:reg0x11b4=0x1113f0f.   Q:reg0x11f0=0x113f3f01.
vga case:14 pass.
RX0 vga case:14 ,absolute value dc_i_tmp : 1 , value dc_q_tmp : 0 ,I:reg0x11b8=0x1393f03.   Q:reg0x11f4=0x13f3f01.
rx1 vga calibration begin
rx1 vga case:1 pass.
RX1 vga case:1 ,absolute value dc_i_tmp : 3 , value dc_q_tmp : 1 ,I:reg0x11fc=0x21212115. Q:reg0x1238=0x312b211b.
rx1 vga case:2 pass.
RX1 vga case:2 ,absolute value dc_i_tmp : 6 , value dc_q_tmp : 3 ,I:reg0x1200=0x1f212115. Q:reg0x123c=0x312b211b.
rx1 vga case:3 pass.
RX1 vga case:3 ,absolute value dc_i_tmp : 2 , value dc_q_tmp : 2 ,I:reg0x1204=0x21212317. Q:reg0x1240=0x312b211b.
rx1 vga case:4 pass.
RX1 vga case:4 ,absolute value dc_i_tmp : 4 , value dc_q_tmp : 3 ,I:reg0x1208=0x21212317. Q:reg0x1244=0x2f29211b.
rx1 vga case:5 pass.
RX1 vga case:5 ,absolute value dc_i_tmp : 5 , value dc_q_tmp : 2 ,I:reg0x120c=0x21232115. Q:reg0x1248=0x3129211b.
rx1 vga case:6 pass.
RX1 vga case:6 ,absolute value dc_i_tmp : 4 , value dc_q_tmp : 2 ,I:reg0x1210=0x21232115. Q:reg0x124c=0x3129211b.
rx1 vga case:7 pass.
RX1 vga case:7 ,absolute value dc_i_tmp : 4 , value dc_q_tmp : 2 ,I:reg0x1214=0x21212317. Q:reg0x1250=0x3329211b.
rx1 vga case:8 pass.
RX1 vga case:8 ,absolute value dc_i_tmp : 4 , value dc_q_tmp : 1 ,I:reg0x1218=0x231d2515. Q:reg0x1254=0x2f2b1f19.
rx1 vga case:9 pass.
RX1 vga case:9 ,absolute value dc_i_tmp : 3 , value dc_q_tmp : 1 ,I:reg0x121c=0x251d2713. Q:reg0x1258=0x2d2d2119.
rx1 vga case:10 pass.
RX1 vga case:10 ,absolute value dc_i_tmp : 3 , value dc_q_tmp : 1 ,I:reg0x1220=0x231f2911. Q:reg0x125c=0x2d2f2117.
rx1 vga case:11 pass.
RX1 vga case:11 ,absolute value dc_i_tmp : 4 , value dc_q_tmp : 2 ,I:reg0x1224=0x211f2b0d. Q:reg0x1260=0x2f2d2517.
rx1 vga case:12 pass.
RX1 vga case:12 ,absolute value dc_i_tmp : 2 , value dc_q_tmp : 1 ,I:reg0x1228=0x21232f0b. Q:reg0x1264=0x33292715.
rx1 vga case:13 pass.
RX1 vga case:13 ,absolute value dc_i_tmp : 2 , value dc_q_tmp : 1 ,I:reg0x122c=0x211f3305. Q:reg0x1268=0x332b2913.
rx1 vga case:14 pass.
RX1 vga case:14 ,absolute value dc_i_tmp : 2 , value dc_q_tmp : 1 ,I:reg0x1230=0x15313f01. Q:reg0x126c=0x31292d0d.
reg0x1120=0x3c0100.
vga calibration end!
RX0: 0x103c : e0024000 ,0x1040 : 90001102 
RX1: 0x1054 : e0024000 ,0x1058 : 90001100 
THIS CASE J: 0 M: 9 
adc calibration begin
calibration begin
RX0 cali pre ,absolute value dc_i_tmp : 1 , value dc_q_tmp : 1 ,
reg0x1180=0x507232b.
reg0x11bc=0x31312121.
RX1 cali pre ,absolute value dc_i_tmp : 2 , value dc_q_tmp : 2 ,reg0x11f8=0x21211b1d.
reg0x1234=0x2d2b1d1d.
rx0 tia cali begin:
####:reg0x1270=0x621f601f.
tia_cnt_i : 0 ,
tia_cnt_q : 0 ,
I:reg0x1150=0x507232b.
Q:reg0x1154=0x31312121.
RX0 tia case :0,absolute value dc_i : -1 , value dc_q : 0 
####:reg0x1270=0x621f601f.
####:reg0x1274=0x641b641b.
tia_cnt_i : 0 ,
tia_cnt_q : 0 ,
I:reg0x1150=0x507232b.
Q:reg0x1154=0x31312121.
RX0 tia case :1,absolute value dc_i : 1 , value dc_q : 0 
####:reg0x1274=0x641b641b.
####:reg0x1278=0x621d601d.
tia_cnt_i : 24 ,
tia_cnt_q : 0 ,
I:reg0x1150=0x507232b.
Q:reg0x1154=0x31312121.
RX0 tia case :2,absolute value dc_i : 1 , value dc_q : 0 
####:reg0x1278=0x621d7805.
####:reg0x127c=0x621d5e21.
tia_cnt_i : 33 ,
tia_cnt_q : 0 ,
I:reg0x1150=0x507232b.
Q:reg0x1154=0x31312121.
RX0 tia case :3,absolute value dc_i : 2 , value dc_q : 1 
####:reg0x127c=0x621d7f00.
####:reg0x1280=0x542b542b.
tia_cnt_i : 43 ,
tia_cnt_q : 1 ,
I:reg0x1150=0x507232b.
Q:reg0x1154=0x31312121.
RX0 tia case :4,absolute value dc_i : 3 , value dc_q : 0 
####:reg0x1280=0x7f2c7f00.
####:reg0x1284=0x522d522d.
tia_cnt_i : 45 ,
tia_cnt_q : 0 ,
I:reg0x1150=0x507232b.
Q:reg0x1154=0x31312121.
RX0 tia case :5,absolute value dc_i : 3 , value dc_q : 1 
####:reg0x1284=0x522d7f00.
####:reg0x1288=0x522d522d.
tia_cnt_i : 45 ,
tia_cnt_q : 0 ,
I:reg0x1150=0x507232b.
Q:reg0x1154=0x31312121.
RX0 tia case :6,absolute value dc_i : 3 , value dc_q : 1 
####:reg0x1288=0x522d7f00.
####:reg0x128c=0x522f4e31.
tia_cnt_i : 49 ,
tia_cnt_q : 0 ,
I:reg0x1150=0x507232b.
Q:reg0x1154=0x31312121.
RX0 tia case :7,absolute value dc_i : 3 , value dc_q : 1 
####:reg0x128c=0x522f7f00.
####:reg0x1290=0x4a354a35.
tia_cnt_i : 53 ,
tia_cnt_q : 0 ,
I:reg0x1150=0x507232b.
Q:reg0x1154=0x31312121.
RX0 tia case :8,absolute value dc_i : 3 , value dc_q : 1 
####:reg0x1290=0x4a357f00.
####:reg0x1294=0x4a354c33.
tia_cnt_i : 51 ,
tia_cnt_q : 0 ,
I:reg0x1150=0x507232b.
Q:reg0x1154=0x31312121.
RX0 tia case :9,absolute value dc_i : 3 , value dc_q : 1 
####:reg0x1294=0x4a357f00.
####:reg0x1298=0x4a354c33.
tia_cnt_i : 51 ,
tia_cnt_q : 0 ,
I:reg0x1150=0x507232b.
Q:reg0x1154=0x31312121.
RX0 tia case :10,absolute value dc_i : 3 , value dc_q : 1 
####:reg0x1298=0x4a357f00.
####:reg0x129c=0x4c334c33.
tia_cnt_i : 51 ,
tia_cnt_q : 0 ,
I:reg0x1150=0x507232b.
Q:reg0x1154=0x31312121.
RX0 tia case :11,absolute value dc_i : 3 , value dc_q : 1 
####:reg0x129c=0x4c337f00.
####:reg0x12a0=0x4c334c33.
tia_cnt_i : 51 ,
tia_cnt_q : 0 ,
I:reg0x1150=0x507232b.
Q:reg0x1154=0x31312121.
RX0 tia case :12,absolute value dc_i : 3 , value dc_q : 1 
####:reg0x12a0=0x4c337f00.
rx1 tia cali begin:
Q:reg0x12b0=0x443b4639.
 RX1 :reg0x1130=0x4639443b.
tia_cnt_i : 0 ,
tia_cnt_q : 24 ,
RX1 tia case :0,absolute value dc_i : 0 , value dc_q : 0 
RX1:reg0x12b0=0x46534639.
Q:reg0x12b4=0x443b463b.
 RX1 :reg0x1130=0x463b443b.
tia_cnt_i : 4 ,
tia_cnt_q : 52 ,
RX1 tia case :1,absolute value dc_i : -1 , value dc_q : 0 
RX1:reg0x12b4=0x426f423f.
Q:reg0x12b8=0x443b4639.
 RX1 :reg0x1130=0x4639443b.
tia_cnt_i : 4 ,
tia_cnt_q : 67 ,
RX1 tia case :2,absolute value dc_i : 0 , value dc_q : -1 
RX1:reg0x12b8=0x427e423d.
Q:reg0x12bc=0x3e41463b.
 RX1 :reg0x1130=0x463b3e41.
tia_cnt_i : 0 ,
tia_cnt_q : 62 ,
RX1 tia case :3,absolute value dc_i : 0 , value dc_q : -7 
RX1:reg0x12bc=0x467f463b.
Q:reg0x12c0=0x3e413e41.
 RX1 :reg0x1130=0x3e413e41.
tia_cnt_i : 1 ,
tia_cnt_q : 62 ,
RX1 tia case :4,absolute value dc_i : 1 , value dc_q : -6 
RX1:reg0x12c0=0x3f7f3f40.
Q:reg0x12c4=0x3c433a45.
 RX1 :reg0x1130=0x3a453c43.
tia_cnt_i : 1 ,
tia_cnt_q : 60 ,
RX1 tia case :5,absolute value dc_i : 0 , value dc_q : -7 
RX1:reg0x12c4=0x397f3946.
Q:reg0x12c8=0x3c433a45.
 RX1 :reg0x1130=0x3a453c43.
tia_cnt_i : 0 ,
tia_cnt_q : 60 ,
RX1 tia case :6,absolute value dc_i : -1 , value dc_q : -6 
RX1:reg0x12c8=0x3a7f3a45.
Q:reg0x12cc=0x3c433a45.
 RX1 :reg0x1130=0x3a453c43.
tia_cnt_i : 2 ,
tia_cnt_q : 60 ,
RX1 tia case :7,absolute value dc_i : 0 , value dc_q : -6 
RX1:reg0x12cc=0x387f3847.
Q:reg0x12d0=0x38473649.
 RX1 :reg0x1130=0x36493847.
tia_cnt_i : 1 ,
tia_cnt_q : 56 ,
RX1 tia case :8,absolute value dc_i : 0 , value dc_q : -5 
RX1:reg0x12d0=0x357f354a.
Q:reg0x12d4=0x38453449.
 RX1 :reg0x1130=0x34493845.
tia_cnt_i : 1 ,
tia_cnt_q : 58 ,
RX1 tia case :9,absolute value dc_i : -1 , value dc_q : -9 
RX1:reg0x12d4=0x357f3548.
Q:reg0x12d8=0x38453649.
 RX1 :reg0x1130=0x36493845.
tia_cnt_i : 1 ,
tia_cnt_q : 58 ,
RX1 tia case :10,absolute value dc_i : 1 , value dc_q : -6 
RX1:reg0x12d8=0x357f354a.
Q:reg0x12dc=0x38453847.
 RX1 :reg0x1130=0x38473845.
tia_cnt_i : 0 ,
tia_cnt_q : 58 ,
RX1 tia case :11,absolute value dc_i : 1 , value dc_q : -7 
RX1:reg0x12dc=0x387f3847.
Q:reg0x12e0=0x38453649.
 RX1 :reg0x1130=0x36493845.
tia_cnt_i : 2 ,
tia_cnt_q : 58 ,
RX1 tia case :12,absolute value dc_i : 1 , value dc_q : -7 
RX1:reg0x12e0=0x347f344b.
tia calibration end!
rx0 vga calibration begin
reg0x1120=0x3fc100.
vga case:1 pass.
RX0 vga case:1 ,absolute value dc_i_tmp : 1 , value dc_q_tmp : 0 ,I:reg0x1184=0x707252b.   Q:reg0x11c0=0x312f2321.
vga case:2 pass.
RX0 vga case:2 ,absolute value dc_i_tmp : 2 , value dc_q_tmp : 0 ,I:reg0x1188=0x5072329.   Q:reg0x11c4=0x312f2321.
vga case:3 pass.
RX0 vga case:3 ,absolute value dc_i_tmp : 1 , value dc_q_tmp : 0 ,I:reg0x118c=0x5072329.   Q:reg0x11c8=0x31312121.
vga case:4 pass.
RX0 vga case:4 ,absolute value dc_i_tmp : 1 , value dc_q_tmp : 0 ,I:reg0x1190=0x5072329.   Q:reg0x11cc=0x31312121.
vga case:5 pass.
RX0 vga case:5 ,absolute value dc_i_tmp : 1 , value dc_q_tmp : 0 ,I:reg0x1194=0x5072329.   Q:reg0x11d0=0x2f312121.
vga case:6 pass.
RX0 vga case:6 ,absolute value dc_i_tmp : 1 , value dc_q_tmp : 0 ,I:reg0x1198=0x5072329.   Q:reg0x11d4=0x31332121.
vga case:7 pass.
RX0 vga case:7 ,absolute value dc_i_tmp : 1 , value dc_q_tmp : 1 ,I:reg0x119c=0x5092329.   Q:reg0x11d8=0x31352121.
vga case:8 pass.
RX0 vga case:8 ,absolute value dc_i_tmp : 0 , value dc_q_tmp : 0 ,I:reg0x11a0=0x50b232b.   Q:reg0x11dc=0x31332121.
vga case:9 pass.
RX0 vga case:9 ,absolute value dc_i_tmp : 1 , value dc_q_tmp : 0 ,I:reg0x11a4=0x509232d.   Q:reg0x11e0=0x312f2121.
vga case:10 pass.
RX0 vga case:10 ,absolute value dc_i_tmp : 1 , value dc_q_tmp : 1 ,I:reg0x11a8=0x507212d.   Q:reg0x11e4=0x332f2121.
vga case:11 pass.
RX0 vga case:11 ,absolute value dc_i_tmp : 1 , value dc_q_tmp : 1 ,I:reg0x11ac=0xd05212f.   Q:reg0x11e8=0x352b2323.
vga case:12 pass.
RX0 vga case:12 ,absolute value dc_i_tmp : 0 , value dc_q_tmp : 0 ,I:reg0x11b0=0x10d1d31.   Q:reg0x11ec=0x312d2123.
vga case:13 pass.
RX0 vga case:13 ,absolute value dc_i_tmp : 1 , value dc_q_tmp : 0 ,I:reg0x11b4=0x1091931.   Q:reg0x11f0=0x312d1f23.
vga case:14 pass.
RX0 vga case:14 ,absolute value dc_i_tmp : 0 , value dc_q_tmp : 0 ,I:reg0x11b8=0x9091739.   Q:reg0x11f4=0x31371d25.
rx1 vga calibration begin
rx1 vga case:1 pass.
RX1 vga case:1 ,absolute value dc_i_tmp : 3 , value dc_q_tmp : 4 ,I:reg0x11fc=0x1f211b1d. Q:reg0x1238=0x2d2b1d1b.
rx1 vga case:2 pass.
RX1 vga case:2 ,absolute value dc_i_tmp : 3 , value dc_q_tmp : 3 ,I:reg0x1200=0x1f211b1d. Q:reg0x123c=0x2d2b1d1b.
rx1 vga case:3 pass.
RX1 vga case:3 ,absolute value dc_i_tmp : 3 , value dc_q_tmp : 2 ,I:reg0x1204=0x1f211b1d. Q:reg0x1240=0x2f2d1d1b.
rx1 vga case:4 pass.
RX1 vga case:4 ,absolute value dc_i_tmp : 4 , value dc_q_tmp : 3 ,I:reg0x1208=0x1f211b1d. Q:reg0x1244=0x2d2d1d1b.
rx1 vga case:5 pass.
RX1 vga case:5 ,absolute value dc_i_tmp : 2 , value dc_q_tmp : 4 ,I:reg0x120c=0x1f211b1d. Q:reg0x1248=0x2d2d1d1b.
rx1 vga case:6 pass.
RX1 vga case:6 ,absolute value dc_i_tmp : 4 , value dc_q_tmp : 3 ,I:reg0x1210=0x1f211b1d. Q:reg0x124c=0x2d2d1d1b.
rx1 vga case:7 pass.
RX1 vga case:7 ,absolute value dc_i_tmp : 3 , value dc_q_tmp : 4 ,I:reg0x1214=0x1f211b1d. Q:reg0x1250=0x2d2f1d1b.
rx1 vga case:8 pass.
RX1 vga case:8 ,absolute value dc_i_tmp : 3 , value dc_q_tmp : 3 ,I:reg0x1218=0x211d1b1d. Q:reg0x1254=0x31291f1b.
rx1 vga case:9 pass.
RX1 vga case:9 ,absolute value dc_i_tmp : 2 , value dc_q_tmp : 2 ,I:reg0x121c=0x1f21191d. Q:reg0x1258=0x3127211b.
rx1 vga case:10 pass.
RX1 vga case:10 ,absolute value dc_i_tmp : 0 , value dc_q_tmp : 3 ,I:reg0x1220=0x231d1b1f. Q:reg0x125c=0x2f2d1f19.
rx1 vga case:11 pass.
RX1 vga case:11 ,absolute value dc_i_tmp : 2 , value dc_q_tmp : 3 ,I:reg0x1224=0x1d211921. Q:reg0x1260=0x35272319.
rx1 vga case:12 pass.
RX1 vga case:12 ,absolute value dc_i_tmp : 2 , value dc_q_tmp : 2 ,I:reg0x1228=0x1f251721. Q:reg0x1264=0x33252317.
rx1 vga case:13 pass.
RX1 vga case:13 ,absolute value dc_i_tmp : 1 , value dc_q_tmp : 2 ,I:reg0x122c=0x1d231723. Q:reg0x1268=0x2d292517.
rx1 vga case:14 pass.
RX1 vga case:14 ,absolute value dc_i_tmp : 1 , value dc_q_tmp : 2 ,I:reg0x1230=0x251d1525. Q:reg0x126c=0x332b2713.
reg0x1120=0x3c0100.
vga calibration end!
RX0: 0x103c : e0028000 ,0x1040 : a0001102 
RX1: 0x1054 : e0028000 ,0x1058 : a0001100 
THIS CASE J: 0 M:10 
adc calibration begin
calibration begin
RX0 cali pre ,absolute value dc_i_tmp : 1 , value dc_q_tmp : 0 ,
reg0x1180=0x507232b.
reg0x11bc=0x312f2321.
RX1 cali pre ,absolute value dc_i_tmp : 1 , value dc_q_tmp : 1 ,reg0x11f8=0x21211b1d.
reg0x1234=0x312b1f1d.
rx0 tia cali begin:
####:reg0x1270=0x621d5e21.
tia_cnt_i : 0 ,
tia_cnt_q : 0 ,
I:reg0x1150=0x507232b.
Q:reg0x1154=0x312f2321.
RX0 tia case :0,absolute value dc_i : -1 , value dc_q : 0 
####:reg0x1270=0x621d5e21.
####:reg0x1274=0x641b621f.
tia_cnt_i : 2 ,
tia_cnt_q : 0 ,
I:reg0x1150=0x507232b.
Q:reg0x1154=0x312f2321.
RX0 tia case :1,absolute value dc_i : 1 , value dc_q : 0 
####:reg0x1274=0x641b641d.
####:reg0x1278=0x641b601d.
tia_cnt_i : 25 ,
tia_cnt_q : 0 ,
I:reg0x1150=0x507232b.
Q:reg0x1154=0x312f2321.
RX0 tia case :2,absolute value dc_i : 1 , value dc_q : 1 
####:reg0x1278=0x641b7904.
####:reg0x127c=0x621d5c21.
tia_cnt_i : 33 ,
tia_cnt_q : 0 ,
I:reg0x1150=0x507232b.
Q:reg0x1154=0x312f2321.
RX0 tia case :3,absolute value dc_i : 2 , value dc_q : 1 
####:reg0x127c=0x621d7d00.
####:reg0x1280=0x542b542b.
tia_cnt_i : 43 ,
tia_cnt_q : 0 ,
I:reg0x1150=0x507232b.
Q:reg0x1154=0x312f2321.
RX0 tia case :4,absolute value dc_i : 3 , value dc_q : 1 
####:reg0x1280=0x542b7f00.
####:reg0x1284=0x522d542b.
tia_cnt_i : 43 ,
tia_cnt_q : 0 ,
I:reg0x1150=0x507232b.
Q:reg0x1154=0x312f2321.
RX0 tia case :5,absolute value dc_i : 3 , value dc_q : 1 
####:reg0x1284=0x522d7f00.
####:reg0x1288=0x502d522d.
tia_cnt_i : 45 ,
tia_cnt_q : 0 ,
I:reg0x1150=0x507232b.
Q:reg0x1154=0x312f2321.
RX0 tia case :6,absolute value dc_i : 3 , value dc_q : 1 
####:reg0x1288=0x502d7f00.
####:reg0x128c=0x4e314e31.
tia_cnt_i : 49 ,
tia_cnt_q : 0 ,
I:reg0x1150=0x507232b.
Q:reg0x1154=0x312f2321.
RX0 tia case :7,absolute value dc_i : 3 , value dc_q : 1 
####:reg0x128c=0x4e317f00.
####:reg0x1290=0x4a354a35.
tia_cnt_i : 53 ,
tia_cnt_q : 0 ,
I:reg0x1150=0x507232b.
Q:reg0x1154=0x312f2321.
RX0 tia case :8,absolute value dc_i : 3 , value dc_q : 1 
####:reg0x1290=0x4a357f00.
####:reg0x1294=0x4a354a35.
tia_cnt_i : 53 ,
tia_cnt_q : 0 ,
I:reg0x1150=0x507232b.
Q:reg0x1154=0x312f2321.
RX0 tia case :9,absolute value dc_i : 3 , value dc_q : 1 
####:reg0x1294=0x4a357f00.
####:reg0x1298=0x4c334a35.
tia_cnt_i : 53 ,
tia_cnt_q : 0 ,
I:reg0x1150=0x507232b.
Q:reg0x1154=0x312f2321.
RX0 tia case :10,absolute value dc_i : 3 , value dc_q : 1 
####:reg0x1298=0x4c337f00.
####:reg0x129c=0x4c334c33.
tia_cnt_i : 51 ,
tia_cnt_q : 0 ,
I:reg0x1150=0x507232b.
Q:reg0x1154=0x312f2321.
RX0 tia case :11,absolute value dc_i : 3 , value dc_q : 1 
####:reg0x129c=0x4c337f00.
####:reg0x12a0=0x4c334c33.
tia_cnt_i : 51 ,
tia_cnt_q : 0 ,
I:reg0x1150=0x507232b.
Q:reg0x1154=0x312f2321.
RX0 tia case :12,absolute value dc_i : 3 , value dc_q : 1 
####:reg0x12a0=0x4c337f00.
rx1 tia cali begin:
Q:reg0x12b0=0x443b4835.
 RX1 :reg0x1130=0x4835443b.
tia_cnt_i : 5 ,
tia_cnt_q : 10 ,
RX1 tia case :0,absolute value dc_i : -1 , value dc_q : -1 
RX1:reg0x12b0=0x4345433a.
Q:reg0x12b4=0x463b4439.
 RX1 :reg0x1130=0x4439463b.
tia_cnt_i : 15 ,
tia_cnt_q : 32 ,
RX1 tia case :1,absolute value dc_i : -1 , value dc_q : -1 
RX1:reg0x12b4=0x355b3548.
Q:reg0x12b8=0x443b4639.
 RX1 :reg0x1130=0x4639443b.
tia_cnt_i : 8 ,
tia_cnt_q : 63 ,
RX1 tia case :2,absolute value dc_i : -1 , value dc_q : -1 
RX1:reg0x12b8=0x3e7a3e41.
Q:reg0x12bc=0x443b4439.
 RX1 :reg0x1130=0x4439443b.
tia_cnt_i : 13 ,
tia_cnt_q : 68 ,
RX1 tia case :3,absolute value dc_i : 0 , value dc_q : -3 
RX1:reg0x12bc=0x377f3746.
Q:reg0x12c0=0x3e413e41.
 RX1 :reg0x1130=0x3e413e41.
tia_cnt_i : 0 ,
tia_cnt_q : 62 ,
RX1 tia case :4,absolute value dc_i : -1 , value dc_q : -5 
RX1:reg0x12c0=0x3e7f3e41.
Q:reg0x12c4=0x3c413a45.
 RX1 :reg0x1130=0x3a453c41.
tia_cnt_i : 4 ,
tia_cnt_q : 62 ,
RX1 tia case :5,absolute value dc_i : -1 , value dc_q : -5 
RX1:reg0x12c4=0x367f3649.
Q:reg0x12c8=0x3c433c43.
 RX1 :reg0x1130=0x3c433c43.
tia_cnt_i : 1 ,
tia_cnt_q : 60 ,
RX1 tia case :6,absolute value dc_i : 0 , value dc_q : -8 
RX1:reg0x12c8=0x3b7f3b44.
Q:reg0x12cc=0x3c433a45.
 RX1 :reg0x1130=0x3a453c43.
tia_cnt_i : 0 ,
tia_cnt_q : 60 ,
RX1 tia case :7,absolute value dc_i : -1 , value dc_q : -7 
RX1:reg0x12cc=0x3a7f3a45.
Q:reg0x12d0=0x38453649.
 RX1 :reg0x1130=0x36493845.
tia_cnt_i : 2 ,
tia_cnt_q : 58 ,
RX1 tia case :8,absolute value dc_i : -1 , value dc_q : -4 
RX1:reg0x12d0=0x347f344b.
Q:reg0x12d4=0x38453649.
 RX1 :reg0x1130=0x36493845.
tia_cnt_i : 0 ,
tia_cnt_q : 58 ,
RX1 tia case :9,absolute value dc_i : 0 , value dc_q : -6 
RX1:reg0x12d4=0x367f3649.
Q:reg0x12d8=0x3a473449.
 RX1 :reg0x1130=0x34493a47.
tia_cnt_i : 1 ,
tia_cnt_q : 56 ,
RX1 tia case :10,absolute value dc_i : 1 , value dc_q : -4 
RX1:reg0x12d8=0x337f334a.
Q:reg0x12dc=0x3a453649.
 RX1 :reg0x1130=0x36493a45.
tia_cnt_i : 1 ,
tia_cnt_q : 58 ,
RX1 tia case :11,absolute value dc_i : -1 , value dc_q : -4 
RX1:reg0x12dc=0x357f354a.
Q:reg0x12e0=0x38453449.
 RX1 :reg0x1130=0x34493845.
tia_cnt_i : 0 ,
tia_cnt_q : 58 ,
RX1 tia case :12,absolute value dc_i : 0 , value dc_q : -6 
RX1:reg0x12e0=0x347f3449.
tia calibration end!
rx0 vga calibration begin
reg0x1120=0x3fc100.
vga case:1 pass.
RX0 vga case:1 ,absolute value dc_i_tmp : 1 , value dc_q_tmp : 1 ,I:reg0x1184=0x5072329.   Q:reg0x11c0=0x33312321.
vga case:2 pass.
RX0 vga case:2 ,absolute value dc_i_tmp : 1 , value dc_q_tmp : 0 ,I:reg0x1188=0x7092329.   Q:reg0x11c4=0x312f2321.
vga case:3 pass.
RX0 vga case:3 ,absolute value dc_i_tmp : 0 , value dc_q_tmp : 1 ,I:reg0x118c=0x7092329.   Q:reg0x11c8=0x312f2321.
vga case:4 pass.
RX0 vga case:4 ,absolute value dc_i_tmp : 1 , value dc_q_tmp : 1 ,I:reg0x1190=0x5092329.   Q:reg0x11cc=0x31312121.
vga case:5 pass.
RX0 vga case:5 ,absolute value dc_i_tmp : 1 , value dc_q_tmp : 0 ,I:reg0x1194=0x5092329.   Q:reg0x11d0=0x332f2321.
vga case:6 pass.
RX0 vga case:6 ,absolute value dc_i_tmp : 1 , value dc_q_tmp : 1 ,I:reg0x1198=0x3092329.   Q:reg0x11d4=0x2d312121.
vga case:7 pass.
RX0 vga case:7 ,absolute value dc_i_tmp : 1 , value dc_q_tmp : 1 ,I:reg0x119c=0x30b2329.   Q:reg0x11d8=0x2d332121.
vga case:8 pass.
RX0 vga case:8 ,absolute value dc_i_tmp : 1 , value dc_q_tmp : 1 ,I:reg0x11a0=0x705252b.   Q:reg0x11dc=0x2d312121.
vga case:9 pass.
RX0 vga case:9 ,absolute value dc_i_tmp : 1 , value dc_q_tmp : 0 ,I:reg0x11a4=0x707232b.   Q:reg0x11e0=0x31312121.
vga case:10 pass.
RX0 vga case:10 ,absolute value dc_i_tmp : 1 , value dc_q_tmp : 0 ,I:reg0x11a8=0x907232d.   Q:reg0x11e4=0x312d2121.
vga case:11 pass.
RX0 vga case:11 ,absolute value dc_i_tmp : 1 , value dc_q_tmp : 0 ,I:reg0x11ac=0x50b212f.   Q:reg0x11e8=0x39292121.
vga case:12 pass.
RX0 vga case:12 ,absolute value dc_i_tmp : 0 , value dc_q_tmp : 1 ,I:reg0x11b0=0x30b1d2f.   Q:reg0x11ec=0x312d2123.
vga case:13 pass.
RX0 vga case:13 ,absolute value dc_i_tmp : 0 , value dc_q_tmp : 1 ,I:reg0x11b4=0x10f1b31.   Q:reg0x11f0=0x31291f23.
vga case:14 pass.
RX0 vga case:14 ,absolute value dc_i_tmp : 1 , value dc_q_tmp : 1 ,I:reg0x11b8=0xd071735.   Q:reg0x11f4=0x29371b25.
rx1 vga calibration begin
rx1 vga case:1 pass.
RX1 vga case:1 ,absolute value dc_i_tmp : 1 , value dc_q_tmp : 3 ,I:reg0x11fc=0x211f1d1d. Q:reg0x1238=0x2f2b1d1b.
rx1 vga case:2 pass.
RX1 vga case:2 ,absolute value dc_i_tmp : 4 , value dc_q_tmp : 4 ,I:reg0x1200=0x1f211b1d. Q:reg0x123c=0x2f2b1d1b.
rx1 vga case:3 pass.
RX1 vga case:3 ,absolute value dc_i_tmp : 2 , value dc_q_tmp : 3 ,I:reg0x1204=0x1f211b1d. Q:reg0x1240=0x312b1d1b.
rx1 vga case:4 pass.
RX1 vga case:4 ,absolute value dc_i_tmp : 2 , value dc_q_tmp : 1 ,I:reg0x1208=0x1f211b1d. Q:reg0x1244=0x2f291d1b.
rx1 vga case:5 pass.
RX1 vga case:5 ,absolute value dc_i_tmp : 3 , value dc_q_tmp : 2 ,I:reg0x120c=0x1f211b1d. Q:reg0x1248=0x2f291d1b.
rx1 vga case:6 pass.
RX1 vga case:6 ,absolute value dc_i_tmp : 3 , value dc_q_tmp : 3 ,I:reg0x1210=0x1f231b1d. Q:reg0x124c=0x2f291d1b.
rx1 vga case:7 pass.
RX1 vga case:7 ,absolute value dc_i_tmp : 2 , value dc_q_tmp : 4 ,I:reg0x1214=0x1f231b1d. Q:reg0x1250=0x2f291d1b.
rx1 vga case:8 pass.
RX1 vga case:8 ,absolute value dc_i_tmp : 1 , value dc_q_tmp : 1 ,I:reg0x1218=0x23211b1d. Q:reg0x1254=0x312b1d1b.
rx1 vga case:9 pass.
RX1 vga case:9 ,absolute value dc_i_tmp : 3 , value dc_q_tmp : 3 ,I:reg0x121c=0x251d1b1d. Q:reg0x1258=0x2b2f1d1b.
rx1 vga case:10 pass.
RX1 vga case:10 ,absolute value dc_i_tmp : 0 , value dc_q_tmp : 3 ,I:reg0x1220=0x231f1b1f. Q:reg0x125c=0x312b1f1b.
rx1 vga case:11 pass.
RX1 vga case:11 ,absolute value dc_i_tmp : 0 , value dc_q_tmp : 2 ,I:reg0x1224=0x1f21191f. Q:reg0x1260=0x31271f19.
rx1 vga case:12 pass.
RX1 vga case:12 ,absolute value dc_i_tmp : 2 , value dc_q_tmp : 3 ,I:reg0x1228=0x231f1921. Q:reg0x1264=0x2b2d1f19.
rx1 vga case:13 pass.
RX1 vga case:13 ,absolute value dc_i_tmp : 0 , value dc_q_tmp : 3 ,I:reg0x122c=0x21211721. Q:reg0x1268=0x33272319.
rx1 vga case:14 pass.
RX1 vga case:14 ,absolute value dc_i_tmp : 0 , value dc_q_tmp : 3 ,I:reg0x1230=0x1f231525. Q:reg0x126c=0x2d272517.
reg0x1120=0x3c0100.
vga calibration end!
RX0: 0x103c : e002c000 ,0x1040 : b0001102 
RX1: 0x1054 : e002c000 ,0x1058 : b0001100 
THIS CASE J: 0 M:11 
adc calibration begin
calibration begin
RX0 cali pre ,absolute value dc_i_tmp : 4 , value dc_q_tmp : 1 ,
reg0x1180=0x707252b.
reg0x11bc=0x31312121.
RX1 cali pre ,absolute value dc_i_tmp : 0 , value dc_q_tmp : 2 ,reg0x11f8=0x21211b1d.
reg0x1234=0x2f2b1d1b.
rx0 tia cali begin:
####:reg0x1270=0x621d5e21.
tia_cnt_i : 3 ,
tia_cnt_q : 0 ,
I:reg0x1150=0x707252b.
Q:reg0x1154=0x31312121.
RX0 tia case :0,absolute value dc_i : -1 , value dc_q : -1 
####:reg0x1270=0x621d5b24.
####:reg0x1274=0x6419641b.
tia_cnt_i : 0 ,
tia_cnt_q : 0 ,
I:reg0x1150=0x707252b.
