
read pll state:0x77 
pll state:0x0000007F! 
RX0: 0x103c : e0000000 ,0x1040 :        0 
RX1: 0x1054 : e0000000 ,0x1058 : 0 
THIS CASE J: 0 M: 0 
adc calibration begin
calibration begin
RX0 cali pre ,absolute value dc_i_tmp : 1 , value dc_q_tmp : 0 ,
reg0x1180=0xf0f1919.
reg0x11bc=0x3133191d.
RX1 cali pre ,absolute value dc_i_tmp : 0 , value dc_q_tmp : 0 ,reg0x11f8=0x33312727.
reg0x1234=0x27272f29.
rx0 tia cali begin:
####:reg0x1270=0x621d6c13.
tia_cnt_i : 25 ,
tia_cnt_q : 0 ,
I:reg0x1150=0xf0f1919.
Q:reg0x1154=0x3133191d.
RX0 tia case :0,absolute value dc_i : -1 , value dc_q : -1 
####:reg0x1270=0x621d532c.
####:reg0x1274=0x601f6815.
tia_cnt_i : 16 ,
tia_cnt_q : 0 ,
I:reg0x1150=0xf0f1919.
Q:reg0x1154=0x3133191d.
RX0 tia case :1,absolute value dc_i : -1 , value dc_q : 1 
####:reg0x1274=0x601f5825.
####:reg0x1278=0x5c216a17.
tia_cnt_i : 7 ,
tia_cnt_q : 0 ,
I:reg0x1150=0xf0f1919.
Q:reg0x1154=0x3133191d.
RX0 tia case :2,absolute value dc_i : -1 , value dc_q : 1 
####:reg0x1278=0x5c21631e.
####:reg0x127c=0x5c236419.
tia_cnt_i : 0 ,
tia_cnt_q : 0 ,
I:reg0x1150=0xf0f1919.
Q:reg0x1154=0x3133191d.
RX0 tia case :3,absolute value dc_i : 0 , value dc_q : 1 
####:reg0x127c=0x5c236419.
####:reg0x1280=0x502d5a27.
tia_cnt_i : 0 ,
tia_cnt_q : 1 ,
I:reg0x1150=0xf0f1919.
Q:reg0x1154=0x3133191d.
RX0 tia case :4,absolute value dc_i : 1 , value dc_q : 1 
####:reg0x1280=0x5a2c5a27.
####:reg0x1284=0x502d5825.
tia_cnt_i : 0 ,
tia_cnt_q : 1 ,
I:reg0x1150=0xf0f1919.
Q:reg0x1154=0x3133191d.
RX0 tia case :5,absolute value dc_i : 1 , value dc_q : 1 
####:reg0x1284=0x582c5825.
####:reg0x1288=0x4e315629.
tia_cnt_i : 0 ,
tia_cnt_q : 1 ,
I:reg0x1150=0xf0f1919.
Q:reg0x1154=0x3133191d.
RX0 tia case :6,absolute value dc_i : 1 , value dc_q : 1 
####:reg0x1288=0x56305629.
####:reg0x128c=0x4c315429.
tia_cnt_i : 0 ,
tia_cnt_q : 1 ,
I:reg0x1150=0xf0f1919.
Q:reg0x1154=0x3133191d.
RX0 tia case :7,absolute value dc_i : 1 , value dc_q : 1 
####:reg0x128c=0x54305429.
####:reg0x1290=0x4a354e31.
tia_cnt_i : 0 ,
tia_cnt_q : 1 ,
I:reg0x1150=0xf0f1919.
Q:reg0x1154=0x3133191d.
RX0 tia case :8,absolute value dc_i : 1 , value dc_q : 1 
####:reg0x1290=0x4e344e31.
####:reg0x1294=0x4c33502d.
tia_cnt_i : 0 ,
tia_cnt_q : 1 ,
I:reg0x1150=0xf0f1919.
Q:reg0x1154=0x3133191d.
RX0 tia case :9,absolute value dc_i : 1 , value dc_q : 1 
####:reg0x1294=0x5032502d.
####:reg0x1298=0x4c33502d.
tia_cnt_i : 0 ,
tia_cnt_q : 1 ,
I:reg0x1150=0xf0f1919.
Q:reg0x1154=0x3133191d.
RX0 tia case :10,absolute value dc_i : 1 , value dc_q : 1 
####:reg0x1298=0x5032502d.
####:reg0x129c=0x4a354e31.
tia_cnt_i : 0 ,
tia_cnt_q : 1 ,
I:reg0x1150=0xf0f1919.
Q:reg0x1154=0x3133191d.
RX0 tia case :11,absolute value dc_i : 1 , value dc_q : 1 
####:reg0x129c=0x4e344e31.
####:reg0x12a0=0x4c334e31.
tia_cnt_i : 0 ,
tia_cnt_q : 0 ,
I:reg0x1150=0xf0f1919.
Q:reg0x1154=0x3133191d.
RX0 tia case :12,absolute value dc_i : 1 , value dc_q : 1 
####:reg0x12a0=0x4c334e31.
rx1 tia cali begin:
Q:reg0x12b0=0x3847344b.
 RX1 :reg0x1130=0x344b3847.
tia_cnt_i : 52 ,
tia_cnt_q : 0 ,
RX1 tia case :0,absolute value dc_i : -3 , value dc_q : 0 
RX1:reg0x12b0=0x3847007f.
Q:reg0x12b4=0x3449364b.
 RX1 :reg0x1130=0x364b3449.
tia_cnt_i : 52 ,
tia_cnt_q : 0 ,
RX1 tia case :1,absolute value dc_i : -3 , value dc_q : -1 
RX1:reg0x12b4=0x3449027f.
Q:reg0x12b8=0x344b324d.
 RX1 :reg0x1130=0x324d344b.
tia_cnt_i : 0 ,
tia_cnt_q : 6 ,
RX1 tia case :2,absolute value dc_i : -1 , value dc_q : -1 
RX1:reg0x12b8=0x3251324d.
Q:reg0x12bc=0x364b324d.
 RX1 :reg0x1130=0x324d364b.
tia_cnt_i : 0 ,
tia_cnt_q : 29 ,
RX1 tia case :3,absolute value dc_i : -1 , value dc_q : -1 
RX1:reg0x12bc=0x3268324d.
Q:reg0x12c0=0x344b324d.
 RX1 :reg0x1130=0x324d344b.
tia_cnt_i : 0 ,
tia_cnt_q : 52 ,
RX1 tia case :4,absolute value dc_i : -1 , value dc_q : -2 
RX1:reg0x12c0=0x327f324d.
Q:reg0x12c4=0x324d2e53.
 RX1 :reg0x1130=0x2e53324d.
tia_cnt_i : 0 ,
tia_cnt_q : 44 ,
RX1 tia case :5,absolute value dc_i : -1 , value dc_q : -1 
RX1:reg0x12c4=0x2e792e53.
Q:reg0x12c8=0x324d2e53.
 RX1 :reg0x1130=0x2e53324d.
tia_cnt_i : 0 ,
tia_cnt_q : 50 ,
RX1 tia case :6,absolute value dc_i : -1 , value dc_q : -2 
RX1:reg0x12c8=0x2e7f2e53.
Q:reg0x12cc=0x324d2c51.
 RX1 :reg0x1130=0x2c51324d.
tia_cnt_i : 0 ,
tia_cnt_q : 50 ,
RX1 tia case :7,absolute value dc_i : -1 , value dc_q : -2 
RX1:reg0x12cc=0x2c7f2c51.
Q:reg0x12d0=0x2e512a55.
 RX1 :reg0x1130=0x2a552e51.
tia_cnt_i : 0 ,
tia_cnt_q : 46 ,
RX1 tia case :8,absolute value dc_i : -1 , value dc_q : -2 
RX1:reg0x12d0=0x2a7f2a55.
Q:reg0x12d4=0x2e512a55.
 RX1 :reg0x1130=0x2a552e51.
tia_cnt_i : 0 ,
tia_cnt_q : 46 ,
RX1 tia case :9,absolute value dc_i : -1 , value dc_q : -2 
RX1:reg0x12d4=0x2a7f2a55.
Q:reg0x12d8=0x2e512c53.
 RX1 :reg0x1130=0x2c532e51.
tia_cnt_i : 0 ,
tia_cnt_q : 46 ,
RX1 tia case :10,absolute value dc_i : -1 , value dc_q : -2 
RX1:reg0x12d8=0x2c7f2c53.
Q:reg0x12dc=0x2e512c53.
 RX1 :reg0x1130=0x2c532e51.
tia_cnt_i : 0 ,
tia_cnt_q : 46 ,
RX1 tia case :11,absolute value dc_i : -1 , value dc_q : -2 
RX1:reg0x12dc=0x2c7f2c53.
Q:reg0x12e0=0x2e512c53.
 RX1 :reg0x1130=0x2c532e51.
tia_cnt_i : 0 ,
tia_cnt_q : 46 ,
RX1 tia case :12,absolute value dc_i : -1 , value dc_q : -2 
RX1:reg0x12e0=0x2c7f2c53.
tia calibration end!
rx0 vga calibration begin
reg0x1120=0x3fc100.
vga case:1 pass.
RX0 vga case:1 ,absolute value dc_i_tmp : 1 , value dc_q_tmp : 0 ,I:reg0x1184=0xf0f1919.   Q:reg0x11c0=0x31331b1f.
vga case:2 pass.
RX0 vga case:2 ,absolute value dc_i_tmp : 1 , value dc_q_tmp : 1 ,I:reg0x1188=0xf0f1919.   Q:reg0x11c4=0x33351b1f.
vga case:3 pass.
RX0 vga case:3 ,absolute value dc_i_tmp : 1 , value dc_q_tmp : 0 ,I:reg0x118c=0xf0f1919.   Q:reg0x11c8=0x33331d21.
vga case:4 pass.
RX0 vga case:4 ,absolute value dc_i_tmp : 1 , value dc_q_tmp : 1 ,I:reg0x1190=0xf0f1919.   Q:reg0x11cc=0x33351b1f.
vga case:5 pass.
RX0 vga case:5 ,absolute value dc_i_tmp : 1 , value dc_q_tmp : 1 ,I:reg0x1194=0xf0f1919.   Q:reg0x11d0=0x33351b1f.
vga case:6 pass.
RX0 vga case:6 ,absolute value dc_i_tmp : 1 , value dc_q_tmp : 0 ,I:reg0x1198=0xf0f1919.   Q:reg0x11d4=0x33351b1f.
vga case:7 pass.
RX0 vga case:7 ,absolute value dc_i_tmp : 1 , value dc_q_tmp : 1 ,I:reg0x119c=0xf0f1919.   Q:reg0x11d8=0x33351b1f.
vga case:8 pass.
RX0 vga case:8 ,absolute value dc_i_tmp : 0 , value dc_q_tmp : 1 ,I:reg0x11a0=0x130f1919.   Q:reg0x11dc=0x37311d21.
vga case:9 pass.
RX0 vga case:9 ,absolute value dc_i_tmp : 1 , value dc_q_tmp : 1 ,I:reg0x11a4=0x130d1919.   Q:reg0x11e0=0x33351b21.
vga case:10 pass.
RX0 vga case:10 ,absolute value dc_i_tmp : 1 , value dc_q_tmp : 1 ,I:reg0x11a8=0x170d1919.   Q:reg0x11e4=0x39331b21.
vga case:11 pass.
RX0 vga case:11 ,absolute value dc_i_tmp : 1 , value dc_q_tmp : 1 ,I:reg0x11ac=0x19091919.   Q:reg0x11e8=0x37331921.
vga case:12 pass.
RX0 vga case:12 ,absolute value dc_i_tmp : 1 , value dc_q_tmp : 0 ,I:reg0x11b0=0x1b0f191b.   Q:reg0x11ec=0x372f1921.
vga case:13 pass.
RX0 vga case:13 ,absolute value dc_i_tmp : 1 , value dc_q_tmp : 1 ,I:reg0x11b4=0x1d0b191b.   Q:reg0x11f0=0x3d2f1923.
vga case:14 pass.
RX0 vga case:14 ,absolute value dc_i_tmp : 1 , value dc_q_tmp : 0 ,I:reg0x11b8=0x310f191b.   Q:reg0x11f4=0x1f1f1523.
rx1 vga calibration begin
rx1 vga case:1 pass.
RX1 vga case:1 ,absolute value dc_i_tmp : 0 , value dc_q_tmp : 1 ,I:reg0x11fc=0x33312d21. Q:reg0x1238=0x25272d29.
rx1 vga case:2 pass.
RX1 vga case:2 ,absolute value dc_i_tmp : 0 , value dc_q_tmp : 0 ,I:reg0x1200=0x33312d21. Q:reg0x123c=0x27272d29.
rx1 vga case:3 pass.
RX1 vga case:3 ,absolute value dc_i_tmp : 1 , value dc_q_tmp : 1 ,I:reg0x1204=0x33312d21. Q:reg0x1240=0x27272d29.
rx1 vga case:4 pass.
RX1 vga case:4 ,absolute value dc_i_tmp : 1 , value dc_q_tmp : 1 ,I:reg0x1208=0x33312d21. Q:reg0x1244=0x27272d29.
rx1 vga case:5 pass.
RX1 vga case:5 ,absolute value dc_i_tmp : 1 , value dc_q_tmp : 1 ,I:reg0x120c=0x33312d21. Q:reg0x1248=0x27272d29.
rx1 vga case:6 pass.
RX1 vga case:6 ,absolute value dc_i_tmp : 0 , value dc_q_tmp : 1 ,I:reg0x1210=0x35312d21. Q:reg0x124c=0x27272d29.
rx1 vga case:7 pass.
RX1 vga case:7 ,absolute value dc_i_tmp : 0 , value dc_q_tmp : 1 ,I:reg0x1214=0x35312d21. Q:reg0x1250=0x29272d29.
rx1 vga case:8 pass.
RX1 vga case:8 ,absolute value dc_i_tmp : 0 , value dc_q_tmp : 0 ,I:reg0x1218=0x31332d1f. Q:reg0x1254=0x27272d29.
rx1 vga case:9 pass.
RX1 vga case:9 ,absolute value dc_i_tmp : 0 , value dc_q_tmp : 1 ,I:reg0x121c=0x31332f1d. Q:reg0x1258=0x27292d29.
rx1 vga case:10 pass.
RX1 vga case:10 ,absolute value dc_i_tmp : 1 , value dc_q_tmp : 1 ,I:reg0x1220=0x2d35311b. Q:reg0x125c=0x2b232f29.
rx1 vga case:11 pass.
RX1 vga case:11 ,absolute value dc_i_tmp : 1 , value dc_q_tmp : 1 ,I:reg0x1224=0x2f353317. Q:reg0x1260=0x27252f29.
rx1 vga case:12 pass.
RX1 vga case:12 ,absolute value dc_i_tmp : 1 , value dc_q_tmp : 0 ,I:reg0x1228=0x33313915. Q:reg0x1264=0x29292f29.
rx1 vga case:13 pass.
RX1 vga case:13 ,absolute value dc_i_tmp : 1 , value dc_q_tmp : 1 ,I:reg0x122c=0x33313b0f. Q:reg0x1268=0x2b232f27.
rx1 vga case:14 pass.
RX1 vga case:14 ,absolute value dc_i_tmp : 0 , value dc_q_tmp : 1 ,I:reg0x1230=0x113f3f07. Q:reg0x126c=0x252d2f27.
reg0x1120=0x3c0100.
vga calibration end!
RX0: 0x103c : e0004000 ,0x1040 : 10001102 
RX1: 0x1054 : e0004000 ,0x1058 : 10001100 
THIS CASE J: 0 M: 1 
adc calibration begin
calibration begin
RX0 cali pre ,absolute value dc_i_tmp : 10 , value dc_q_tmp : 4 ,
reg0x1180=0xf0f171d.
reg0x11bc=0x31331b1d.
RX1 cali pre ,absolute value dc_i_tmp : 15 , value dc_q_tmp : 0 ,reg0x11f8=0x33312727.
reg0x1234=0x29292f29.
rx0 tia cali begin:
####:reg0x1270=0x621f6c13.
tia_cnt_i : 108 ,
tia_cnt_q : 33 ,
I:reg0x1150=0xf0f171d.
Q:reg0x1154=0x31331b1d.
RX0 tia case :0,absolute value dc_i : -4 , value dc_q : 2 
####:reg0x1270=0x7f.
####:reg0x1274=0x5e216e13.
tia_cnt_i : 108 ,
tia_cnt_q : 2 ,
I:reg0x1150=0xf0f171d.
Q:reg0x1154=0x31331b1d.
RX0 tia case :1,absolute value dc_i : -6 , value dc_q : 1 
####:reg0x1274=0x221027f.
####:reg0x1278=0x601f6815.
tia_cnt_i : 104 ,
tia_cnt_q : 1 ,
I:reg0x1150=0xf0f171d.
Q:reg0x1154=0x31331b1d.
RX0 tia case :2,absolute value dc_i : -5 , value dc_q : 0 
####:reg0x1278=0x20007d.
####:reg0x127c=0x5a256419.
tia_cnt_i : 100 ,
tia_cnt_q : 1 ,
I:reg0x1150=0xf0f171d.
Q:reg0x1154=0x31331b1d.
RX0 tia case :3,absolute value dc_i : -6 , value dc_q : 0 
####:reg0x127c=0x26007d.
####:reg0x1280=0x502d5a25.
tia_cnt_i : 90 ,
tia_cnt_q : 0 ,
I:reg0x1150=0xf0f171d.
Q:reg0x1154=0x31331b1d.
RX0 tia case :4,absolute value dc_i : -5 , value dc_q : -1 
####:reg0x1280=0x502d007f.
####:reg0x1284=0x502d5825.
tia_cnt_i : 88 ,
tia_cnt_q : 1 ,
I:reg0x1150=0xf0f171d.
Q:reg0x1154=0x31331b1d.
RX0 tia case :5,absolute value dc_i : -7 , value dc_q : 0 
####:reg0x1284=0x2e007d.
####:reg0x1288=0x4e315629.
tia_cnt_i : 86 ,
tia_cnt_q : 0 ,
I:reg0x1150=0xf0f171d.
Q:reg0x1154=0x31331b1d.
RX0 tia case :6,absolute value dc_i : -6 , value dc_q : -1 
####:reg0x1288=0x4e31007f.
####:reg0x128c=0x4c31542b.
tia_cnt_i : 84 ,
tia_cnt_q : 0 ,
I:reg0x1150=0xf0f171d.
Q:reg0x1154=0x31331b1d.
RX0 tia case :7,absolute value dc_i : -5 , value dc_q : -1 
####:reg0x128c=0x4c31007f.
####:reg0x1290=0x4c334e31.
tia_cnt_i : 78 ,
tia_cnt_q : 0 ,
I:reg0x1150=0xf0f171d.
Q:reg0x1154=0x31331b1d.
RX0 tia case :8,absolute value dc_i : -5 , value dc_q : -1 
####:reg0x1290=0x4c33007f.
####:reg0x1294=0x48354e31.
tia_cnt_i : 78 ,
tia_cnt_q : 0 ,
I:reg0x1150=0xf0f171d.
Q:reg0x1154=0x31331b1d.
RX0 tia case :9,absolute value dc_i : -6 , value dc_q : -1 
####:reg0x1294=0x4835007f.
####:reg0x1298=0x4a354e31.
tia_cnt_i : 78 ,
tia_cnt_q : 0 ,
I:reg0x1150=0xf0f171d.
Q:reg0x1154=0x31331b1d.
RX0 tia case :10,absolute value dc_i : -6 , value dc_q : -1 
####:reg0x1298=0x4a35007f.
####:reg0x129c=0x4c334e31.
tia_cnt_i : 78 ,
tia_cnt_q : 1 ,
I:reg0x1150=0xf0f171d.
Q:reg0x1154=0x31331b1d.
RX0 tia case :11,absolute value dc_i : -5 , value dc_q : 0 
####:reg0x129c=0x34007f.
####:reg0x12a0=0x48354c31.
tia_cnt_i : 76 ,
tia_cnt_q : 0 ,
I:reg0x1150=0xf0f171d.
Q:reg0x1154=0x31331b1d.
RX0 tia case :12,absolute value dc_i : -7 , value dc_q : -1 
####:reg0x12a0=0x4835007d.
rx1 tia cali begin:
Q:reg0x12b0=0x3649344b.
 RX1 :reg0x1130=0x344b3649.
tia_cnt_i : 52 ,
tia_cnt_q : 0 ,
RX1 tia case :0,absolute value dc_i : -16 , value dc_q : -1 
RX1:reg0x12b0=0x3649007f.
Q:reg0x12b4=0x38473449.
 RX1 :reg0x1130=0x34493847.
tia_cnt_i : 52 ,
tia_cnt_q : 1 ,
RX1 tia case :1,absolute value dc_i : -16 , value dc_q : 1 
RX1:reg0x12b4=0x48007d.
Q:reg0x12b8=0x3649344b.
 RX1 :reg0x1130=0x344b3649.
tia_cnt_i : 52 ,
tia_cnt_q : 1 ,
RX1 tia case :2,absolute value dc_i : -16 , value dc_q : 0 
RX1:reg0x12b8=0x4a007f.
Q:reg0x12bc=0x344b344b.
 RX1 :reg0x1130=0x344b344b.
tia_cnt_i : 52 ,
tia_cnt_q : 1 ,
RX1 tia case :3,absolute value dc_i : -16 , value dc_q : -2 
RX1:reg0x12bc=0x4c007f.
Q:reg0x12c0=0x344b324d.
 RX1 :reg0x1130=0x324d344b.
tia_cnt_i : 50 ,
tia_cnt_q : 1 ,
RX1 tia case :4,absolute value dc_i : -16 , value dc_q : -2 
RX1:reg0x12c0=0x4c007f.
Q:reg0x12c4=0x324d2e53.
 RX1 :reg0x1130=0x2e53324d.
tia_cnt_i : 44 ,
tia_cnt_q : 50 ,
RX1 tia case :5,absolute value dc_i : -16 , value dc_q : -1 
RX1:reg0x12c4=0x27f027f.
Q:reg0x12c8=0x324d2e53.
 RX1 :reg0x1130=0x2e53324d.
tia_cnt_i : 44 ,
tia_cnt_q : 45 ,
RX1 tia case :6,absolute value dc_i : -16 , value dc_q : -1 
RX1:reg0x12c8=0x27a027f.
Q:reg0x12cc=0x304d2e53.
 RX1 :reg0x1130=0x2e53304d.
tia_cnt_i : 44 ,
tia_cnt_q : 50 ,
RX1 tia case :7,absolute value dc_i : -16 , value dc_q : -2 
RX1:reg0x12cc=0x27f027f.
Q:reg0x12d0=0x2c512c53.
 RX1 :reg0x1130=0x2c532c51.
tia_cnt_i : 44 ,
tia_cnt_q : 1 ,
RX1 tia case :8,absolute value dc_i : -16 , value dc_q : -2 
RX1:reg0x12d0=0x52007f.
Q:reg0x12d4=0x2e512c53.
 RX1 :reg0x1130=0x2c532e51.
tia_cnt_i : 44 ,
tia_cnt_q : 1 ,
RX1 tia case :9,absolute value dc_i : -16 , value dc_q : -2 
RX1:reg0x12d4=0x52007f.
Q:reg0x12d8=0x2e512a55.
 RX1 :reg0x1130=0x2a552e51.
tia_cnt_i : 42 ,
tia_cnt_q : 1 ,
RX1 tia case :10,absolute value dc_i : -16 , value dc_q : -2 
RX1:reg0x12d8=0x52007f.
Q:reg0x12dc=0x2e512c53.
 RX1 :reg0x1130=0x2c532e51.
tia_cnt_i : 44 ,
tia_cnt_q : 1 ,
RX1 tia case :11,absolute value dc_i : -16 , value dc_q : -2 
RX1:reg0x12dc=0x52007f.
Q:reg0x12e0=0x2e512a55.
 RX1 :reg0x1130=0x2a552e51.
tia_cnt_i : 42 ,
tia_cnt_q : 1 ,
RX1 tia case :12,absolute value dc_i : -16 , value dc_q : -2 
RX1:reg0x12e0=0x52007f.
tia calibration end!
rx0 vga calibration begin
reg0x1120=0x3fc100.
vga case:1 pass.
RX0 vga case:1 ,absolute value dc_i_tmp : 10 , value dc_q_tmp : 1 ,I:reg0x1184=0xf11210f.   Q:reg0x11c0=0x33351d1b.
vga case:2 pass.
RX0 vga case:2 ,absolute value dc_i_tmp : 9 , value dc_q_tmp : 3 ,I:reg0x1188=0xf11210f.   Q:reg0x11c4=0x31351d1b.
vga case:3 pass.
RX0 vga case:3 ,absolute value dc_i_tmp : 8 , value dc_q_tmp : 0 ,I:reg0x118c=0xf11210f.   Q:reg0x11c8=0x33351d1b.
vga case:4 pass.
RX0 vga case:4 ,absolute value dc_i_tmp : 9 , value dc_q_tmp : 1 ,I:reg0x1190=0xf13210f.   Q:reg0x11cc=0x33351d1b.
vga case:5 pass.
RX0 vga case:5 ,absolute value dc_i_tmp : 9 , value dc_q_tmp : 2 ,I:reg0x1194=0xf13210f.   Q:reg0x11d0=0x31351d1b.
vga case:6 pass.
RX0 vga case:6 ,absolute value dc_i_tmp : 9 , value dc_q_tmp : 1 ,I:reg0x1198=0xf13210f.   Q:reg0x11d4=0x33371d1b.
vga case:7 pass.
RX0 vga case:7 ,absolute value dc_i_tmp : 7 , value dc_q_tmp : 1 ,I:reg0x119c=0xf15210f.   Q:reg0x11d8=0x392f1f1b.
vga case:8 pass.
RX0 vga case:8 ,absolute value dc_i_tmp : 8 , value dc_q_tmp : 0 ,I:reg0x11a0=0x150f270f.   Q:reg0x11dc=0x39331f1b.
vga case:9 pass.
RX0 vga case:9 ,absolute value dc_i_tmp : 8 , value dc_q_tmp : 1 ,I:reg0x11a4=0x130d290b.   Q:reg0x11e0=0x372f1f19.
vga case:10 pass.
RX0 vga case:10 ,absolute value dc_i_tmp : 7 , value dc_q_tmp : 0 ,I:reg0x11a8=0x170d2d07.   Q:reg0x11e4=0x37352119.
vga case:11 pass.
RX0 vga case:11 ,absolute value dc_i_tmp : 6 , value dc_q_tmp : 0 ,I:reg0x11ac=0x15153103.   Q:reg0x11e8=0x37352117.
vga case:12 pass.
RX0 vga case:12 ,absolute value dc_i_tmp : 7 , value dc_q_tmp : 0 ,I:reg0x11b0=0xf0f3901.   Q:reg0x11ec=0x3b2f2517.
vga case:13 pass.
RX0 vga case:13 ,absolute value dc_i_tmp : 5 , value dc_q_tmp : 0 ,I:reg0x11b4=0x1273f01.   Q:reg0x11f0=0x392f2717.
vga case:14 pass.
RX0 vga case:14 ,absolute value dc_i_tmp : 0 , value dc_q_tmp : 0 ,I:reg0x11b8=0x13f3f01.   Q:reg0x11f4=0x213f210f.
rx1 vga calibration begin
rx1 vga case:1 pass.
RX1 vga case:1 ,absolute value dc_i_tmp : 15 , value dc_q_tmp : 1 ,I:reg0x11fc=0x33312d21. Q:reg0x1238=0x25272d29.
rx1 vga case:2 pass.
RX1 vga case:2 ,absolute value dc_i_tmp : 15 , value dc_q_tmp : 1 ,I:reg0x1200=0x33312d21. Q:reg0x123c=0x27292d29.
rx1 vga case:3 pass.
RX1 vga case:3 ,absolute value dc_i_tmp : 15 , value dc_q_tmp : 1 ,I:reg0x1204=0x33312d21. Q:reg0x1240=0x25272d29.
rx1 vga case:4 pass.
RX1 vga case:4 ,absolute value dc_i_tmp : 15 , value dc_q_tmp : 1 ,I:reg0x1208=0x33312d21. Q:reg0x1244=0x25272d29.
rx1 vga case:5 pass.
RX1 vga case:5 ,absolute value dc_i_tmp : 15 , value dc_q_tmp : 1 ,I:reg0x120c=0x33312d21. Q:reg0x1248=0x25272d29.
rx1 vga case:6 pass.
RX1 vga case:6 ,absolute value dc_i_tmp : 15 , value dc_q_tmp : 1 ,I:reg0x1210=0x35312d21. Q:reg0x124c=0x27292d29.
rx1 vga case:7 pass.
RX1 vga case:7 ,absolute value dc_i_tmp : 15 , value dc_q_tmp : 0 ,I:reg0x1214=0x35312d21. Q:reg0x1250=0x27272d29.
rx1 vga case:8 pass.
RX1 vga case:8 ,absolute value dc_i_tmp : 15 , value dc_q_tmp : 0 ,I:reg0x1218=0x31332d1f. Q:reg0x1254=0x272b2d29.
rx1 vga case:9 pass.
RX1 vga case:9 ,absolute value dc_i_tmp : 15 , value dc_q_tmp : 0 ,I:reg0x121c=0x31332f1d. Q:reg0x1258=0x2b272f29.
rx1 vga case:10 pass.
RX1 vga case:10 ,absolute value dc_i_tmp : 15 , value dc_q_tmp : 0 ,I:reg0x1220=0x2d35311b. Q:reg0x125c=0x29292f29.
rx1 vga case:11 pass.
RX1 vga case:11 ,absolute value dc_i_tmp : 15 , value dc_q_tmp : 0 ,I:reg0x1224=0x2f353317. Q:reg0x1260=0x2b252f27.
rx1 vga case:12 pass.
RX1 vga case:12 ,absolute value dc_i_tmp : 15 , value dc_q_tmp : 0 ,I:reg0x1228=0x33313915. Q:reg0x1264=0x2d233127.
rx1 vga case:13 pass.
RX1 vga case:13 ,absolute value dc_i_tmp : 15 , value dc_q_tmp : 0 ,I:reg0x122c=0x33313b0f. Q:reg0x1268=0x27273127.
rx1 vga case:14 pass.
RX1 vga case:14 ,absolute value dc_i_tmp : 15 , value dc_q_tmp : 0 ,I:reg0x1230=0x113f3f07. Q:reg0x126c=0x27253325.
reg0x1120=0x3c0100.
vga calibration end!
RX0: 0x103c : e0008000 ,0x1040 : 20001102 
RX1: 0x1054 : e0008000 ,0x1058 : 20001100 
THIS CASE J: 0 M: 2 
adc calibration begin
calibration begin
RX0 cali pre ,absolute value dc_i_tmp : 7 , value dc_q_tmp : 4 ,
reg0x1180=0xf0f171d.
reg0x11bc=0x3135191d.
RX1 cali pre ,absolute value dc_i_tmp : 15 , value dc_q_tmp : 1 ,reg0x11f8=0x33312727.
reg0x1234=0x29292f29.
rx0 tia cali begin:
####:reg0x1270=0x621f6a15.
tia_cnt_i : 61 ,
tia_cnt_q : 1 ,
I:reg0x1150=0xf0f171d.
Q:reg0x1154=0x3135191d.
RX0 tia case :0,absolute value dc_i : -1 , value dc_q : 1 
####:reg0x1270=0x2d202d52.
####:reg0x1274=0x5c216c13.
tia_cnt_i : 69 ,
tia_cnt_q : 1 ,
I:reg0x1150=0xf0f171d.
Q:reg0x1154=0x3135191d.
RX0 tia case :1,absolute value dc_i : -1 , value dc_q : 1 
####:reg0x1274=0x27222758.
####:reg0x1278=0x5c216815.
tia_cnt_i : 93 ,
tia_cnt_q : 1 ,
I:reg0x1150=0xf0f171d.
Q:reg0x1154=0x3135191d.
RX0 tia case :2,absolute value dc_i : -1 , value dc_q : 1 
####:reg0x1278=0xb220b72.
####:reg0x127c=0x5a256619.
tia_cnt_i : 74 ,
tia_cnt_q : 0 ,
I:reg0x1150=0xf0f171d.
Q:reg0x1154=0x3135191d.
RX0 tia case :3,absolute value dc_i : -1 , value dc_q : -1 
####:reg0x127c=0x5a251c63.
####:reg0x1280=0x522d5827.
tia_cnt_i : 88 ,
tia_cnt_q : 0 ,
I:reg0x1150=0xf0f171d.
Q:reg0x1154=0x3135191d.
RX0 tia case :4,absolute value dc_i : -2 , value dc_q : -1 
####:reg0x1280=0x522d007f.
####:reg0x1284=0x522d5825.
tia_cnt_i : 9 ,
tia_cnt_q : 0 ,
I:reg0x1150=0xf0f171d.
Q:reg0x1154=0x3135191d.
RX0 tia case :5,absolute value dc_i : -1 , value dc_q : 0 
####:reg0x1284=0x522d4f2e.
####:reg0x1288=0x4c315629.
tia_cnt_i : 8 ,
tia_cnt_q : 0 ,
I:reg0x1150=0xf0f171d.
Q:reg0x1154=0x3135191d.
RX0 tia case :6,absolute value dc_i : -1 , value dc_q : 0 
####:reg0x1288=0x4c314e31.
####:reg0x128c=0x4c315429.
tia_cnt_i : 16 ,
tia_cnt_q : 0 ,
I:reg0x1150=0xf0f171d.
Q:reg0x1154=0x3135191d.
RX0 tia case :7,absolute value dc_i : -1 , value dc_q : 0 
####:reg0x128c=0x4c314439.
####:reg0x1290=0x4c334e33.
tia_cnt_i : 76 ,
tia_cnt_q : 0 ,
I:reg0x1150=0xf0f171d.
Q:reg0x1154=0x3135191d.
RX0 tia case :8,absolute value dc_i : -3 , value dc_q : -1 
####:reg0x1290=0x4c33027f.
####:reg0x1294=0x4a354e31.
tia_cnt_i : 9 ,
tia_cnt_q : 0 ,
I:reg0x1150=0xf0f171d.
Q:reg0x1154=0x3135191d.
RX0 tia case :9,absolute value dc_i : -1 , value dc_q : 0 
####:reg0x1294=0x4a35453a.
####:reg0x1298=0x4a354e31.
tia_cnt_i : 1 ,
tia_cnt_q : 0 ,
I:reg0x1150=0xf0f171d.
Q:reg0x1154=0x3135191d.
RX0 tia case :10,absolute value dc_i : -1 , value dc_q : 0 
####:reg0x1298=0x4a354d32.
####:reg0x129c=0x4c334e31.
tia_cnt_i : 78 ,
tia_cnt_q : 0 ,
I:reg0x1150=0xf0f171d.
Q:reg0x1154=0x3135191d.
RX0 tia case :11,absolute value dc_i : -3 , value dc_q : -1 
####:reg0x129c=0x4c33007f.
####:reg0x12a0=0x4a354e31.
tia_cnt_i : 78 ,
tia_cnt_q : 0 ,
I:reg0x1150=0xf0f171d.
Q:reg0x1154=0x3135191d.
RX0 tia case :12,absolute value dc_i : -4 , value dc_q : -1 
####:reg0x12a0=0x4a35007f.
rx1 tia cali begin:
Q:reg0x12b0=0x3649364b.
 RX1 :reg0x1130=0x364b3649.
tia_cnt_i : 52 ,
tia_cnt_q : 0 ,
RX1 tia case :0,absolute value dc_i : -16 , value dc_q : -1 
RX1:reg0x12b0=0x3649027f.
Q:reg0x12b4=0x3847364b.
 RX1 :reg0x1130=0x364b3847.
tia_cnt_i : 52 ,
tia_cnt_q : 1 ,
RX1 tia case :1,absolute value dc_i : -16 , value dc_q : 1 
RX1:reg0x12b4=0x248027f.
Q:reg0x12b8=0x3449344b.
 RX1 :reg0x1130=0x344b3449.
tia_cnt_i : 52 ,
tia_cnt_q : 1 ,
RX1 tia case :2,absolute value dc_i : -16 , value dc_q : 0 
RX1:reg0x12b8=0x4a007f.
Q:reg0x12bc=0x344b344b.
 RX1 :reg0x1130=0x344b344b.
tia_cnt_i : 52 ,
tia_cnt_q : 1 ,
RX1 tia case :3,absolute value dc_i : -16 , value dc_q : -2 
RX1:reg0x12bc=0x4c007f.
Q:reg0x12c0=0x344b324d.
 RX1 :reg0x1130=0x324d344b.
tia_cnt_i : 50 ,
tia_cnt_q : 1 ,
RX1 tia case :4,absolute value dc_i : -16 , value dc_q : -2 
RX1:reg0x12c0=0x4c007f.
Q:reg0x12c4=0x304d2c51.
 RX1 :reg0x1130=0x2c51304d.
tia_cnt_i : 44 ,
tia_cnt_q : 1 ,
RX1 tia case :5,absolute value dc_i : -16 , value dc_q : -2 
RX1:reg0x12c4=0x4e007d.
Q:reg0x12c8=0x324d2e53.
 RX1 :reg0x1130=0x2e53324d.
tia_cnt_i : 44 ,
tia_cnt_q : 45 ,
RX1 tia case :6,absolute value dc_i : -16 , value dc_q : -1 
RX1:reg0x12c8=0x27a027f.
Q:reg0x12cc=0x324d2e51.
 RX1 :reg0x1130=0x2e51324d.
tia_cnt_i : 46 ,
tia_cnt_q : 1 ,
RX1 tia case :7,absolute value dc_i : -16 , value dc_q : -2 
RX1:reg0x12cc=0x4e007f.
Q:reg0x12d0=0x2c512c53.
 RX1 :reg0x1130=0x2c532c51.
tia_cnt_i : 44 ,
tia_cnt_q : 1 ,
RX1 tia case :8,absolute value dc_i : -16 , value dc_q : -2 
RX1:reg0x12d0=0x52007f.
Q:reg0x12d4=0x2e512c53.
 RX1 :reg0x1130=0x2c532e51.
tia_cnt_i : 44 ,
tia_cnt_q : 1 ,
RX1 tia case :9,absolute value dc_i : -16 , value dc_q : -2 
RX1:reg0x12d4=0x52007f.
Q:reg0x12d8=0x2e512c53.
 RX1 :reg0x1130=0x2c532e51.
tia_cnt_i : 44 ,
tia_cnt_q : 1 ,
RX1 tia case :10,absolute value dc_i : -16 , value dc_q : -2 
RX1:reg0x12d8=0x52007f.
Q:reg0x12dc=0x2c512a55.
 RX1 :reg0x1130=0x2a552c51.
tia_cnt_i : 42 ,
tia_cnt_q : 1 ,
RX1 tia case :11,absolute value dc_i : -16 , value dc_q : -2 
RX1:reg0x12dc=0x52007f.
Q:reg0x12e0=0x2e512a55.
 RX1 :reg0x1130=0x2a552e51.
tia_cnt_i : 42 ,
tia_cnt_q : 1 ,
RX1 tia case :12,absolute value dc_i : -16 , value dc_q : -2 
RX1:reg0x12e0=0x52007f.
tia calibration end!
rx0 vga calibration begin
reg0x1120=0x3fc100.
vga case:1 pass.
RX0 vga case:1 ,absolute value dc_i_tmp : 9 , value dc_q_tmp : 3 ,I:reg0x1184=0xf111d15.   Q:reg0x11c0=0x31331d1b.
vga case:2 pass.
RX0 vga case:2 ,absolute value dc_i_tmp : 9 , value dc_q_tmp : 1 ,I:reg0x1188=0xf111d15.   Q:reg0x11c4=0x33331d1b.
vga case:3 pass.
RX0 vga case:3 ,absolute value dc_i_tmp : 9 , value dc_q_tmp : 1 ,I:reg0x118c=0xd0f1d15.   Q:reg0x11c8=0x33331d1b.
vga case:4 pass.
RX0 vga case:4 ,absolute value dc_i_tmp : 7 , value dc_q_tmp : 2 ,I:reg0x1190=0xf111d15.   Q:reg0x11cc=0x33331d1b.
vga case:5 pass.
RX0 vga case:5 ,absolute value dc_i_tmp : 8 , value dc_q_tmp : 2 ,I:reg0x1194=0xf111d15.   Q:reg0x11d0=0x33331d1b.
vga case:6 pass.
RX0 vga case:6 ,absolute value dc_i_tmp : 8 , value dc_q_tmp : 3 ,I:reg0x1198=0xf111d15.   Q:reg0x11d4=0x33331d1b.
vga case:7 pass.
RX0 vga case:7 ,absolute value dc_i_tmp : 6 , value dc_q_tmp : 1 ,I:reg0x119c=0x11131d15.   Q:reg0x11d8=0x37331d1b.
vga case:8 pass.
RX0 vga case:8 ,absolute value dc_i_tmp : 6 , value dc_q_tmp : 0 ,I:reg0x11a0=0x11111d13.   Q:reg0x11dc=0x35371d1b.
vga case:9 pass.
RX0 vga case:9 ,absolute value dc_i_tmp : 7 , value dc_q_tmp : 0 ,I:reg0x11a4=0x110f2113.   Q:reg0x11e0=0x37331f1b.
vga case:10 pass.
RX0 vga case:10 ,absolute value dc_i_tmp : 3 , value dc_q_tmp : 1 ,I:reg0x11a8=0x150d1f0f.   Q:reg0x11e4=0x3535211b.
vga case:11 pass.
RX0 vga case:11 ,absolute value dc_i_tmp : 5 , value dc_q_tmp : 0 ,I:reg0x11ac=0x170b250f.   Q:reg0x11e8=0x37391f19.
vga case:12 pass.
RX0 vga case:12 ,absolute value dc_i_tmp : 5 , value dc_q_tmp : 0 ,I:reg0x11b0=0x1117250d.   Q:reg0x11ec=0x35312319.
vga case:13 pass.
RX0 vga case:13 ,absolute value dc_i_tmp : 5 , value dc_q_tmp : 0 ,I:reg0x11b4=0xf15290b.   Q:reg0x11f0=0x3d272517.
vga case:14 pass.
RX0 vga case:14 ,absolute value dc_i_tmp : 2 , value dc_q_tmp : 0 ,I:reg0x11b8=0x190f3105.   Q:reg0x11f4=0x393f2515.
rx1 vga calibration begin
rx1 vga case:1 pass.
RX1 vga case:1 ,absolute value dc_i_tmp : 15 , value dc_q_tmp : 1 ,I:reg0x11fc=0x33312d21. Q:reg0x1238=0x27292d29.
rx1 vga case:2 pass.
RX1 vga case:2 ,absolute value dc_i_tmp : 15 , value dc_q_tmp : 1 ,I:reg0x1200=0x33312d21. Q:reg0x123c=0x27292d29.
rx1 vga case:3 pass.
RX1 vga case:3 ,absolute value dc_i_tmp : 15 , value dc_q_tmp : 1 ,I:reg0x1204=0x33312d21. Q:reg0x1240=0x27292d29.
rx1 vga case:4 pass.
RX1 vga case:4 ,absolute value dc_i_tmp : 15 , value dc_q_tmp : 1 ,I:reg0x1208=0x33312d21. Q:reg0x1244=0x27292d29.
rx1 vga case:5 pass.
RX1 vga case:5 ,absolute value dc_i_tmp : 15 , value dc_q_tmp : 1 ,I:reg0x120c=0x33312d21. Q:reg0x1248=0x27292d29.
rx1 vga case:6 pass.
RX1 vga case:6 ,absolute value dc_i_tmp : 15 , value dc_q_tmp : 1 ,I:reg0x1210=0x35312d21. Q:reg0x124c=0x27292d29.
rx1 vga case:7 pass.
RX1 vga case:7 ,absolute value dc_i_tmp : 15 , value dc_q_tmp : 0 ,I:reg0x1214=0x35312d21. Q:reg0x1250=0x29292d29.
rx1 vga case:8 pass.
RX1 vga case:8 ,absolute value dc_i_tmp : 15 , value dc_q_tmp : 0 ,I:reg0x1218=0x31332d1f. Q:reg0x1254=0x25292d29.
rx1 vga case:9 pass.
RX1 vga case:9 ,absolute value dc_i_tmp : 15 , value dc_q_tmp : 0 ,I:reg0x121c=0x31332f1d. Q:reg0x1258=0x29252f29.
rx1 vga case:10 pass.
RX1 vga case:10 ,absolute value dc_i_tmp : 15 , value dc_q_tmp : 0 ,I:reg0x1220=0x2d35311b. Q:reg0x125c=0x27292d27.
rx1 vga case:11 pass.
RX1 vga case:11 ,absolute value dc_i_tmp : 15 , value dc_q_tmp : 0 ,I:reg0x1224=0x2f353317. Q:reg0x1260=0x2b272f27.
rx1 vga case:12 pass.
RX1 vga case:12 ,absolute value dc_i_tmp : 15 , value dc_q_tmp : 0 ,I:reg0x1228=0x33313915. Q:reg0x1264=0x27292f27.
rx1 vga case:13 pass.
RX1 vga case:13 ,absolute value dc_i_tmp : 15 , value dc_q_tmp : 0 ,I:reg0x122c=0x33313b0f. Q:reg0x1268=0x2b2b3127.
rx1 vga case:14 pass.
RX1 vga case:14 ,absolute value dc_i_tmp : 15 , value dc_q_tmp : 0 ,I:reg0x1230=0x113f3f07. Q:reg0x126c=0x29273325.
reg0x1120=0x3c0100.
vga calibration end!
RX0: 0x103c : e000c000 ,0x1040 : 30001102 
RX1: 0x1054 : e000c000 ,0x1058 : 30001100 
THIS CASE J: 0 M: 3 
adc calibration begin
calibration begin
RX0 cali pre ,absolute value dc_i_tmp : 15 , value dc_q_tmp : 15 ,
reg0x1180=0xf0f171d.
reg0x11bc=0x3135191d.
RX1 cali pre ,absolute value dc_i_tmp : 15 , value dc_q_tmp : 15 ,reg0x11f8=0x33312727.
reg0x1234=0x29292f29.
rx0 tia cali begin:
####:reg0x1270=0x621d6c13.
tia_cnt_i : 108 ,
tia_cnt_q : 1 ,
I:reg0x1150=0xf0f171d.
Q:reg0x1154=0x3135191d.
RX0 tia case :0,absolute value dc_i : -16 , value dc_q : -16 
####:reg0x1270=0x1e007f.
####:reg0x1274=0x621d6e13.
tia_cnt_i : 108 ,
tia_cnt_q : 98 ,
I:reg0x1150=0xf0f171d.
Q:reg0x1154=0x3135191d.
RX0 tia case :1,absolute value dc_i : -16 , value dc_q : -16 
####:reg0x1274=0x27f027f.
####:reg0x1278=0x601f6a15.
tia_cnt_i : 106 ,
tia_cnt_q : 1 ,
I:reg0x1150=0xf0f171d.
Q:reg0x1154=0x3135191d.
RX0 tia case :2,absolute value dc_i : -16 , value dc_q : -16 
####:reg0x1278=0x20007f.
####:reg0x127c=0x5c216619.
tia_cnt_i : 102 ,
tia_cnt_q : 1 ,
I:reg0x1150=0xf0f171d.
Q:reg0x1154=0x3135191d.
RX0 tia case :3,absolute value dc_i : -16 , value dc_q : -16 
####:reg0x127c=0x22007f.
####:reg0x1280=0x522d5a27.
tia_cnt_i : 88 ,
tia_cnt_q : 82 ,
I:reg0x1150=0xf0f171d.
Q:reg0x1154=0x3135191d.
RX0 tia case :4,absolute value dc_i : -16 , value dc_q : -16 
####:reg0x1280=0x27f027f.
####:reg0x1284=0x4e315a25.
tia_cnt_i : 90 ,
tia_cnt_q : 1 ,
I:reg0x1150=0xf0f171d.
Q:reg0x1154=0x3135191d.
RX0 tia case :5,absolute value dc_i : -16 , value dc_q : -16 
####:reg0x1284=0x32007f.
####:reg0x1288=0x4e315827.
tia_cnt_i : 88 ,
tia_cnt_q : 1 ,
I:reg0x1150=0xf0f171d.
Q:reg0x1154=0x3135191d.
RX0 tia case :6,absolute value dc_i : -16 , value dc_q : -16 
####:reg0x1288=0x32007f.
####:reg0x128c=0x4e315429.
tia_cnt_i : 84 ,
tia_cnt_q : 1 ,
I:reg0x1150=0xf0f171d.
Q:reg0x1154=0x3135191d.
RX0 tia case :7,absolute value dc_i : -16 , value dc_q : -16 
####:reg0x128c=0x32007d.
####:reg0x1290=0x4c334e31.
tia_cnt_i : 78 ,
tia_cnt_q : 1 ,
I:reg0x1150=0xf0f171d.
Q:reg0x1154=0x3135191d.
RX0 tia case :8,absolute value dc_i : -16 , value dc_q : -16 
####:reg0x1290=0x34007f.
####:reg0x1294=0x4a354e31.
tia_cnt_i : 78 ,
tia_cnt_q : 1 ,
I:reg0x1150=0xf0f171d.
Q:reg0x1154=0x3135191d.
RX0 tia case :9,absolute value dc_i : -16 , value dc_q : -16 
####:reg0x1294=0x36007f.
####:reg0x1298=0x4a354e31.
tia_cnt_i : 78 ,
tia_cnt_q : 1 ,
I:reg0x1150=0xf0f171d.
Q:reg0x1154=0x3135191d.
RX0 tia case :10,absolute value dc_i : -16 , value dc_q : -16 
####:reg0x1298=0x36007f.
####:reg0x129c=0x4c334e31.
tia_cnt_i : 78 ,
tia_cnt_q : 1 ,
I:reg0x1150=0xf0f171d.
Q:reg0x1154=0x3135191d.
RX0 tia case :11,absolute value dc_i : -16 , value dc_q : -16 
####:reg0x129c=0x34007f.
####:reg0x12a0=0x4a354e31.
tia_cnt_i : 78 ,
tia_cnt_q : 1 ,
I:reg0x1150=0xf0f171d.
Q:reg0x1154=0x3135191d.
RX0 tia case :12,absolute value dc_i : -16 , value dc_q : -16 
####:reg0x12a0=0x36007f.
rx1 tia cali begin:
Q:reg0x12b0=0x364b344b.
 RX1 :reg0x1130=0x344b364b.
tia_cnt_i : 52 ,
tia_cnt_q : 1 ,
RX1 tia case :0,absolute value dc_i : -16 , value dc_q : -16 
RX1:reg0x12b0=0x4c007f.
Q:reg0x12b4=0x3449344b.
 RX1 :reg0x1130=0x344b3449.
tia_cnt_i : 52 ,
tia_cnt_q : 1 ,
RX1 tia case :1,absolute value dc_i : -16 , value dc_q : -16 
RX1:reg0x12b4=0x4a007f.
Q:reg0x12b8=0x364b364b.
 RX1 :reg0x1130=0x364b364b.
tia_cnt_i : 52 ,
tia_cnt_q : 52 ,
RX1 tia case :2,absolute value dc_i : -16 , value dc_q : -16 
RX1:reg0x12b8=0x27f027f.
Q:reg0x12bc=0x364b344b.
 RX1 :reg0x1130=0x344b364b.
tia_cnt_i : 52 ,
tia_cnt_q : 1 ,
RX1 tia case :3,absolute value dc_i : -16 , value dc_q : -16 
RX1:reg0x12bc=0x4c007f.
Q:reg0x12c0=0x344b344b.
 RX1 :reg0x1130=0x344b344b.
tia_cnt_i : 52 ,
tia_cnt_q : 1 ,
RX1 tia case :4,absolute value dc_i : -16 , value dc_q : -16 
RX1:reg0x12c0=0x4c007f.
Q:reg0x12c4=0x324d2c53.
 RX1 :reg0x1130=0x2c53324d.
tia_cnt_i : 44 ,
tia_cnt_q : 1 ,
RX1 tia case :5,absolute value dc_i : -16 , value dc_q : -16 
RX1:reg0x12c4=0x4e007f.
Q:reg0x12c8=0x304d2c53.
 RX1 :reg0x1130=0x2c53304d.
tia_cnt_i : 44 ,
tia_cnt_q : 1 ,
RX1 tia case :6,absolute value dc_i : -16 , value dc_q : -16 
RX1:reg0x12c8=0x4e007f.
Q:reg0x12cc=0x324d2e53.
 RX1 :reg0x1130=0x2e53324d.
tia_cnt_i : 44 ,
tia_cnt_q : 50 ,
RX1 tia case :7,absolute value dc_i : -16 , value dc_q : -16 
RX1:reg0x12cc=0x27f027f.
Q:reg0x12d0=0x2c512c53.
 RX1 :reg0x1130=0x2c532c51.
tia_cnt_i : 44 ,
tia_cnt_q : 1 ,
RX1 tia case :8,absolute value dc_i : -16 , value dc_q : -16 
RX1:reg0x12d0=0x52007f.
Q:reg0x12d4=0x2e512a55.
 RX1 :reg0x1130=0x2a552e51.
tia_cnt_i : 42 ,
tia_cnt_q : 1 ,
RX1 tia case :9,absolute value dc_i : -16 , value dc_q : -16 
RX1:reg0x12d4=0x52007f.
Q:reg0x12d8=0x2e512c53.
 RX1 :reg0x1130=0x2c532e51.
tia_cnt_i : 44 ,
tia_cnt_q : 1 ,
RX1 tia case :10,absolute value dc_i : -16 , value dc_q : -16 
RX1:reg0x12d8=0x52007f.
Q:reg0x12dc=0x2e512c53.
 RX1 :reg0x1130=0x2c532e51.
tia_cnt_i : 44 ,
tia_cnt_q : 1 ,
RX1 tia case :11,absolute value dc_i : -16 , value dc_q : -16 
RX1:reg0x12dc=0x52007f.
Q:reg0x12e0=0x2e512c53.
 RX1 :reg0x1130=0x2c532e51.
tia_cnt_i : 44 ,
tia_cnt_q : 1 ,
RX1 tia case :12,absolute value dc_i : -16 , value dc_q : -16 
RX1:reg0x12e0=0x52007f.
tia calibration end!
rx0 vga calibration begin
reg0x1120=0x3fc100.
vga case:1 pass.
RX0 vga case:1 ,absolute value dc_i_tmp : 15 , value dc_q_tmp : 15 ,I:reg0x1184=0xf111d15.   Q:reg0x11c0=0x31331d1b.
vga case:2 pass.
RX0 vga case:2 ,absolute value dc_i_tmp : 15 , value dc_q_tmp : 15 ,I:reg0x1188=0xf111d15.   Q:reg0x11c4=0x33331d1b.
vga case:3 pass.
RX0 vga case:3 ,absolute value dc_i_tmp : 15 , value dc_q_tmp : 15 ,I:reg0x118c=0xd0f1d15.   Q:reg0x11c8=0x33331d1b.
vga case:4 pass.
RX0 vga case:4 ,absolute value dc_i_tmp : 15 , value dc_q_tmp : 15 ,I:reg0x1190=0xf111d15.   Q:reg0x11cc=0x33331d1b.
vga case:5 pass.
RX0 vga case:5 ,absolute value dc_i_tmp : 15 , value dc_q_tmp : 15 ,I:reg0x1194=0xf111d15.   Q:reg0x11d0=0x33331d1b.
vga case:6 pass.
RX0 vga case:6 ,absolute value dc_i_tmp : 15 , value dc_q_tmp : 15 ,I:reg0x1198=0xf111d15.   Q:reg0x11d4=0x33331d1b.
vga case:7 pass.
RX0 vga case:7 ,absolute value dc_i_tmp : 15 , value dc_q_tmp : 15 ,I:reg0x119c=0x11131d15.   Q:reg0x11d8=0x37331d1b.
vga case:8 pass.
RX0 vga case:8 ,absolute value dc_i_tmp : 15 , value dc_q_tmp : 15 ,I:reg0x11a0=0x11111d13.   Q:reg0x11dc=0x35371d1b.
vga case:9 pass.
RX0 vga case:9 ,absolute value dc_i_tmp : 15 , value dc_q_tmp : 15 ,I:reg0x11a4=0x110f2113.   Q:reg0x11e0=0x37331f1b.
vga case:10 pass.
RX0 vga case:10 ,absolute value dc_i_tmp : 15 , value dc_q_tmp : 15 ,I:reg0x11a8=0x150d1f0f.   Q:reg0x11e4=0x3535211b.
vga case:11 pass.
RX0 vga case:11 ,absolute value dc_i_tmp : 15 , value dc_q_tmp : 15 ,I:reg0x11ac=0x170b250f.   Q:reg0x11e8=0x37391f19.
vga case:12 pass.
RX0 vga case:12 ,absolute value dc_i_tmp : 15 , value dc_q_tmp : 15 ,I:reg0x11b0=0x1117250d.   Q:reg0x11ec=0x35312319.
vga case:13 pass.
RX0 vga case:13 ,absolute value dc_i_tmp : 15 , value dc_q_tmp : 15 ,I:reg0x11b4=0xf15290b.   Q:reg0x11f0=0x3d272517.
vga case:14 pass.
RX0 vga case:14 ,absolute value dc_i_tmp : 15 , value dc_q_tmp : 15 ,I:reg0x11b8=0x190f3105.   Q:reg0x11f4=0x393f2515.
rx1 vga calibration begin
rx1 vga case:1 pass.
RX1 vga case:1 ,absolute value dc_i_tmp : 15 , value dc_q_tmp : 15 ,I:reg0x11fc=0x33312d21. Q:reg0x1238=0x27292d29.
rx1 vga case:2 pass.
RX1 vga case:2 ,absolute value dc_i_tmp : 15 , value dc_q_tmp : 15 ,I:reg0x1200=0x33312d21. Q:reg0x123c=0x27292d29.
rx1 vga case:3 pass.
RX1 vga case:3 ,absolute value dc_i_tmp : 15 , value dc_q_tmp : 15 ,I:reg0x1204=0x33312d21. Q:reg0x1240=0x27292d29.
rx1 vga case:4 pass.
RX1 vga case:4 ,absolute value dc_i_tmp : 15 , value dc_q_tmp : 15 ,I:reg0x1208=0x33312d21. Q:reg0x1244=0x27292d29.
rx1 vga case:5 pass.
RX1 vga case:5 ,absolute value dc_i_tmp : 15 , value dc_q_tmp : 15 ,I:reg0x120c=0x33312d21. Q:reg0x1248=0x27292d29.
rx1 vga case:6 pass.
RX1 vga case:6 ,absolute value dc_i_tmp : 15 , value dc_q_tmp : 15 ,I:reg0x1210=0x35312d21. Q:reg0x124c=0x27292d29.
rx1 vga case:7 pass.
RX1 vga case:7 ,absolute value dc_i_tmp : 15 , value dc_q_tmp : 15 ,I:reg0x1214=0x35312d21. Q:reg0x1250=0x29292d29.
rx1 vga case:8 pass.
RX1 vga case:8 ,absolute value dc_i_tmp : 15 , value dc_q_tmp : 15 ,I:reg0x1218=0x31332d1f. Q:reg0x1254=0x25292d29.
rx1 vga case:9 pass.
RX1 vga case:9 ,absolute value dc_i_tmp : 15 , value dc_q_tmp : 15 ,I:reg0x121c=0x31332f1d. Q:reg0x1258=0x29252f29.
rx1 vga case:10 pass.
RX1 vga case:10 ,absolute value dc_i_tmp : 15 , value dc_q_tmp : 15 ,I:reg0x1220=0x2d35311b. Q:reg0x125c=0x27292d27.
rx1 vga case:11 pass.
RX1 vga case:11 ,absolute value dc_i_tmp : 15 , value dc_q_tmp : 15 ,I:reg0x1224=0x2f353317. Q:reg0x1260=0x2b272f27.
rx1 vga case:12 pass.
RX1 vga case:12 ,absolute value dc_i_tmp : 15 , value dc_q_tmp : 15 ,I:reg0x1228=0x33313915. Q:reg0x1264=0x27292f27.
rx1 vga case:13 pass.
RX1 vga case:13 ,absolute value dc_i_tmp : 15 , value dc_q_tmp : 15 ,I:reg0x122c=0x33313b0f. Q:reg0x1268=0x2b2b3127.
rx1 vga case:14 pass.
RX1 vga case:14 ,absolute value dc_i_tmp : 15 , value dc_q_tmp : 15 ,I:reg0x1230=0x113f3f07. Q:reg0x126c=0x29273325.
reg0x1120=0x3c0100.
vga calibration end!
RX0: 0x103c : e0010000 ,0x1040 : 40001102 
RX1: 0x1054 : e0010000 ,0x1058 : 40001100 
THIS CASE J: 0 M: 4 
adc calibration begin
calibration begin
RX0 cali pre ,absolute value dc_i_tmp : 8 , value dc_q_tmp : 8 ,
reg0x1180=0xf0f171d.
reg0x11bc=0x33351b1f.
RX1 cali pre ,absolute value dc_i_tmp : 0 , value dc_q_tmp : 2 ,reg0x11f8=0x33332527.
reg0x1234=0x27272f29.
rx0 tia cali begin:
####:reg0x1270=0x621f6e13.
tia_cnt_i : 78 ,
tia_cnt_q : 93 ,
I:reg0x1150=0xf0f171d.
Q:reg0x1154=0x33351b1f.
RX0 tia case :0,absolute value dc_i : -1 , value dc_q : -1 
####:reg0x1270=0x207c2061.
####:reg0x1274=0x621f6e13.
tia_cnt_i : 108 ,
tia_cnt_q : 96 ,
I:reg0x1150=0xf0f171d.
Q:reg0x1154=0x33351b1f.
RX0 tia case :1,absolute value dc_i : -2 , value dc_q : -4 
####:reg0x1274=0x27f027f.
####:reg0x1278=0x601f6a17.
tia_cnt_i : 104 ,
tia_cnt_q : 96 ,
I:reg0x1150=0xf0f171d.
Q:reg0x1154=0x33351b1f.
RX0 tia case :2,absolute value dc_i : -3 , value dc_q : -5 
####:reg0x1278=0x27f027f.
####:reg0x127c=0x5c236619.
tia_cnt_i : 102 ,
tia_cnt_q : 1 ,
I:reg0x1150=0xf0f171d.
Q:reg0x1154=0x33351b1f.
RX0 tia case :3,absolute value dc_i : -4 , value dc_q : -7 
####:reg0x127c=0x24007f.
####:reg0x1280=0x4e315629.
tia_cnt_i : 86 ,
tia_cnt_q : 1 ,
I:reg0x1150=0xf0f171d.
Q:reg0x1154=0x33351b1f.
RX0 tia case :4,absolute value dc_i : -5 , value dc_q : -7 
####:reg0x1280=0x32007f.
####:reg0x1284=0x542b5a27.
tia_cnt_i : 88 ,
tia_cnt_q : 84 ,
I:reg0x1150=0xf0f171d.
Q:reg0x1154=0x33351b1f.
RX0 tia case :5,absolute value dc_i : -5 , value dc_q : -7 
####:reg0x1284=0x27f027f.
####:reg0x1288=0x522f5827.
tia_cnt_i : 88 ,
tia_cnt_q : 1 ,
I:reg0x1150=0xf0f171d.
Q:reg0x1154=0x33351b1f.
RX0 tia case :6,absolute value dc_i : -5 , value dc_q : -7 
####:reg0x1288=0x30007f.
####:reg0x128c=0x4c315429.
tia_cnt_i : 84 ,
tia_cnt_q : 1 ,
I:reg0x1150=0xf0f171d.
Q:reg0x1154=0x33351b1f.
RX0 tia case :7,absolute value dc_i : -5 , value dc_q : -7 
####:reg0x128c=0x32007d.
####:reg0x1290=0x4a354e31.
tia_cnt_i : 78 ,
tia_cnt_q : 1 ,
I:reg0x1150=0xf0f171d.
Q:reg0x1154=0x33351b1f.
RX0 tia case :8,absolute value dc_i : -5 , value dc_q : -7 
####:reg0x1290=0x36007f.
####:reg0x1294=0x4a354c31.
tia_cnt_i : 76 ,
tia_cnt_q : 1 ,
I:reg0x1150=0xf0f171d.
Q:reg0x1154=0x33351b1f.
RX0 tia case :9,absolute value dc_i : -5 , value dc_q : -7 
####:reg0x1294=0x36007d.
####:reg0x1298=0x4c334e31.
tia_cnt_i : 78 ,
tia_cnt_q : 1 ,
I:reg0x1150=0xf0f171d.
Q:reg0x1154=0x33351b1f.
RX0 tia case :10,absolute value dc_i : -5 , value dc_q : -7 
####:reg0x1298=0x34007f.
####:reg0x129c=0x4c334e31.
tia_cnt_i : 78 ,
tia_cnt_q : 1 ,
I:reg0x1150=0xf0f171d.
Q:reg0x1154=0x33351b1f.
RX0 tia case :11,absolute value dc_i : -4 , value dc_q : -7 
####:reg0x129c=0x34007f.
####:reg0x12a0=0x4a354e31.
tia_cnt_i : 78 ,
tia_cnt_q : 1 ,
I:reg0x1150=0xf0f171d.
Q:reg0x1154=0x33351b1f.
RX0 tia case :12,absolute value dc_i : -4 , value dc_q : -7 
####:reg0x12a0=0x36007f.
rx1 tia cali begin:
Q:reg0x12b0=0x3649344b.
 RX1 :reg0x1130=0x344b3649.
tia_cnt_i : 52 ,
tia_cnt_q : 2 ,
RX1 tia case :0,absolute value dc_i : -3 , value dc_q : 0 
RX1:reg0x12b0=0x49007f.
Q:reg0x12b4=0x3649344b.
 RX1 :reg0x1130=0x344b3649.
tia_cnt_i : 14 ,
tia_cnt_q : 21 ,
RX1 tia case :1,absolute value dc_i : -1 , value dc_q : -1 
RX1:reg0x12b4=0x265e2659.
Q:reg0x12b8=0x3449344b.
 RX1 :reg0x1130=0x344b3449.
tia_cnt_i : 0 ,
tia_cnt_q : 54 ,
RX1 tia case :2,absolute value dc_i : -1 , value dc_q : -3 
RX1:reg0x12b8=0x347f344b.
Q:reg0x12bc=0x364b344b.
 RX1 :reg0x1130=0x344b364b.
tia_cnt_i : 1 ,
tia_cnt_q : 52 ,
RX1 tia case :3,absolute value dc_i : -1 , value dc_q : -3 
RX1:reg0x12bc=0x337f334c.
Q:reg0x12c0=0x324d304d.
 RX1 :reg0x1130=0x304d324d.
tia_cnt_i : 0 ,
tia_cnt_q : 50 ,
RX1 tia case :4,absolute value dc_i : -1 , value dc_q : -6 
RX1:reg0x12c0=0x307f304d.
Q:reg0x12c4=0x304d2c51.
 RX1 :reg0x1130=0x2c51304d.
tia_cnt_i : 0 ,
tia_cnt_q : 50 ,
RX1 tia case :5,absolute value dc_i : 0 , value dc_q : -5 
RX1:reg0x12c4=0x2c7f2c51.
Q:reg0x12c8=0x324d2c51.
 RX1 :reg0x1130=0x2c51324d.
tia_cnt_i : 0 ,
tia_cnt_q : 50 ,
RX1 tia case :6,absolute value dc_i : -1 , value dc_q : -5 
RX1:reg0x12c8=0x2c7f2c51.
Q:reg0x12cc=0x324d2e53.
 RX1 :reg0x1130=0x2e53324d.
tia_cnt_i : 0 ,
tia_cnt_q : 50 ,
RX1 tia case :7,absolute value dc_i : -1 , value dc_q : -5 
RX1:reg0x12cc=0x2e7f2e53.
Q:reg0x12d0=0x2e512a55.
 RX1 :reg0x1130=0x2a552e51.
tia_cnt_i : 0 ,
tia_cnt_q : 46 ,
RX1 tia case :8,absolute value dc_i : -1 , value dc_q : -5 
RX1:reg0x12d0=0x2a7f2a55.
Q:reg0x12d4=0x2e512a55.
 RX1 :reg0x1130=0x2a552e51.
tia_cnt_i : 0 ,
tia_cnt_q : 46 ,
RX1 tia case :9,absolute value dc_i : -1 , value dc_q : -4 
RX1:reg0x12d4=0x2a7f2a55.
Q:reg0x12d8=0x324f2c53.
 RX1 :reg0x1130=0x2c53324f.
tia_cnt_i : 0 ,
tia_cnt_q : 48 ,
RX1 tia case :10,absolute value dc_i : -1 , value dc_q : -5 
RX1:reg0x12d8=0x2c7f2c53.
Q:reg0x12dc=0x2e512c53.
 RX1 :reg0x1130=0x2c532e51.
tia_cnt_i : 0 ,
tia_cnt_q : 46 ,
RX1 tia case :11,absolute value dc_i : -1 , value dc_q : -4 
RX1:reg0x12dc=0x2c7f2c53.
Q:reg0x12e0=0x2c512c53.
 RX1 :reg0x1130=0x2c532c51.
tia_cnt_i : 0 ,
tia_cnt_q : 46 ,
RX1 tia case :12,absolute value dc_i : 0 , value dc_q : -5 
RX1:reg0x12e0=0x2c7f2c53.
tia calibration end!
rx0 vga calibration begin
reg0x1120=0x3fc100.
vga case:1 pass.
RX0 vga case:1 ,absolute value dc_i_tmp : 9 , value dc_q_tmp : 8 ,I:reg0x1184=0xf112113.   Q:reg0x11c0=0x33352517.
vga case:2 pass.
RX0 vga case:2 ,absolute value dc_i_tmp : 9 , value dc_q_tmp : 9 ,I:reg0x1188=0xf112113.   Q:reg0x11c4=0x33352517.
vga case:3 pass.
RX0 vga case:3 ,absolute value dc_i_tmp : 9 , value dc_q_tmp : 8 ,I:reg0x118c=0xf112113.   Q:reg0x11c8=0x33352315.
vga case:4 pass.
RX0 vga case:4 ,absolute value dc_i_tmp : 9 , value dc_q_tmp : 8 ,I:reg0x1190=0xf112113.   Q:reg0x11cc=0x33352517.
vga case:5 pass.
RX0 vga case:5 ,absolute value dc_i_tmp : 8 , value dc_q_tmp : 8 ,I:reg0x1194=0xf112113.   Q:reg0x11d0=0x33332517.
vga case:6 pass.
RX0 vga case:6 ,absolute value dc_i_tmp : 8 , value dc_q_tmp : 8 ,I:reg0x1198=0xf112113.   Q:reg0x11d4=0x35352315.
vga case:7 pass.
RX0 vga case:7 ,absolute value dc_i_tmp : 8 , value dc_q_tmp : 8 ,I:reg0x119c=0x11132113.   Q:reg0x11d8=0x33332517.
vga case:8 pass.
RX0 vga case:8 ,absolute value dc_i_tmp : 7 , value dc_q_tmp : 8 ,I:reg0x11a0=0x150b210f.   Q:reg0x11dc=0x39332715.
vga case:9 pass.
RX0 vga case:9 ,absolute value dc_i_tmp : 8 , value dc_q_tmp : 7 ,I:reg0x11a4=0xf15230f.   Q:reg0x11e0=0x35332711.
vga case:10 pass.
RX0 vga case:10 ,absolute value dc_i_tmp : 7 , value dc_q_tmp : 7 ,I:reg0x11a8=0x1113270d.   Q:reg0x11e4=0x392f2b0f.
vga case:11 pass.
RX0 vga case:11 ,absolute value dc_i_tmp : 6 , value dc_q_tmp : 7 ,I:reg0x11ac=0x170f2b09.   Q:reg0x11e8=0x372f310d.
vga case:12 pass.
RX0 vga case:12 ,absolute value dc_i_tmp : 7 , value dc_q_tmp : 5 ,I:reg0x11b0=0xf0f2f07.   Q:reg0x11ec=0x3f333307.
vga case:13 pass.
RX0 vga case:13 ,absolute value dc_i_tmp : 7 , value dc_q_tmp : 6 ,I:reg0x11b4=0x150f3301.   Q:reg0x11f0=0x3f2f3901.
vga case:14 pass.
RX0 vga case:14 ,absolute value dc_i_tmp : 4 , value dc_q_tmp : 1 ,I:reg0x11b8=0x1293f01.   Q:reg0x11f4=0x13f3f01.
rx1 vga calibration begin
rx1 vga case:1 pass.
RX1 vga case:1 ,absolute value dc_i_tmp : 0 , value dc_q_tmp : 2 ,I:reg0x11fc=0x33332d21. Q:reg0x1238=0x29293125.
rx1 vga case:2 pass.
RX1 vga case:2 ,absolute value dc_i_tmp : 0 , value dc_q_tmp : 3 ,I:reg0x1200=0x33332d21. Q:reg0x123c=0x27273125.
rx1 vga case:3 pass.
RX1 vga case:3 ,absolute value dc_i_tmp : 0 , value dc_q_tmp : 3 ,I:reg0x1204=0x33332d21. Q:reg0x1240=0x29293125.
rx1 vga case:4 pass.
RX1 vga case:4 ,absolute value dc_i_tmp : 0 , value dc_q_tmp : 2 ,I:reg0x1208=0x31332d21. Q:reg0x1244=0x27273125.
rx1 vga case:5 pass.
RX1 vga case:5 ,absolute value dc_i_tmp : 0 , value dc_q_tmp : 3 ,I:reg0x120c=0x31332d21. Q:reg0x1248=0x27273125.
rx1 vga case:6 pass.
RX1 vga case:6 ,absolute value dc_i_tmp : 1 , value dc_q_tmp : 3 ,I:reg0x1210=0x2f332d21. Q:reg0x124c=0x29273125.
rx1 vga case:7 pass.
RX1 vga case:7 ,absolute value dc_i_tmp : 1 , value dc_q_tmp : 3 ,I:reg0x1214=0x31352d21. Q:reg0x1250=0x29273125.
rx1 vga case:8 pass.
RX1 vga case:8 ,absolute value dc_i_tmp : 0 , value dc_q_tmp : 3 ,I:reg0x1218=0x33312f1f. Q:reg0x1254=0x29273325.
rx1 vga case:9 pass.
RX1 vga case:9 ,absolute value dc_i_tmp : 0 , value dc_q_tmp : 2 ,I:reg0x121c=0x3133311d. Q:reg0x1258=0x2d233523.
rx1 vga case:10 pass.
RX1 vga case:10 ,absolute value dc_i_tmp : 0 , value dc_q_tmp : 2 ,I:reg0x1220=0x332f3319. Q:reg0x125c=0x2d233721.
rx1 vga case:11 pass.
RX1 vga case:11 ,absolute value dc_i_tmp : 0 , value dc_q_tmp : 2 ,I:reg0x1224=0x372d3917. Q:reg0x1260=0x2b23391f.
rx1 vga case:12 pass.
RX1 vga case:12 ,absolute value dc_i_tmp : 0 , value dc_q_tmp : 1 ,I:reg0x1228=0x35313b13. Q:reg0x1264=0x33233d1d.
rx1 vga case:13 pass.
RX1 vga case:13 ,absolute value dc_i_tmp : 0 , value dc_q_tmp : 0 ,I:reg0x122c=0x33333f0f. Q:reg0x1268=0x31253f19.
rx1 vga case:14 pass.
RX1 vga case:14 ,absolute value dc_i_tmp : 3 , value dc_q_tmp : 0 ,I:reg0x1230=0x13f3f03. Q:reg0x126c=0x113f3f11.
reg0x1120=0x3c0100.
vga calibration end!
RX0: 0x103c : e0014000 ,0x1040 : 50001102 
RX1: 0x1054 : e0014000 ,0x1058 : 50001100 
THIS CASE J: 0 M: 5 
adc calibration begin
calibration begin
RX0 cali pre ,absolute value dc_i_tmp : 1 , value dc_q_tmp : 1 ,
reg0x1180=0xf0f171d.
reg0x11bc=0x33351b1f.
RX1 cali pre ,absolute value dc_i_tmp : 0 , value dc_q_tmp : 0 ,reg0x11f8=0x33332527.
reg0x1234=0x27272f29.
rx0 tia cali begin:
####:reg0x1270=0x601d6e13.
tia_cnt_i : 0 ,
tia_cnt_q : 0 ,
I:reg0x1150=0xf0f171d.
Q:reg0x1154=0x33351b1f.
RX0 tia case :0,absolute value dc_i : -1 , value dc_q : 0 
####:reg0x1270=0x601d6e13.
####:reg0x1274=0x601d6c13.
tia_cnt_i : 8 ,
tia_cnt_q : 0 ,
I:reg0x1150=0xf0f171d.
Q:reg0x1154=0x33351b1f.
RX0 tia case :1,absolute value dc_i : 1 , value dc_q : 1 
####:reg0x1274=0x601d740b.
####:reg0x1278=0x601d6a15.
tia_cnt_i : 21 ,
tia_cnt_q : 0 ,
I:reg0x1150=0xf0f171d.
Q:reg0x1154=0x33351b1f.
RX0 tia case :2,absolute value dc_i : 2 , value dc_q : 1 
####:reg0x1278=0x601d7f00.
####:reg0x127c=0x5c236619.
tia_cnt_i : 25 ,
tia_cnt_q : 0 ,
I:reg0x1150=0xf0f171d.
Q:reg0x1154=0x33351b1f.
RX0 tia case :3,absolute value dc_i : 4 , value dc_q : 1 
####:reg0x127c=0x5c237f00.
####:reg0x1280=0x522d5825.
tia_cnt_i : 37 ,
tia_cnt_q : 1 ,
I:reg0x1150=0xf0f171d.
Q:reg0x1154=0x33351b1f.
RX0 tia case :4,absolute value dc_i : 4 , value dc_q : 1 
####:reg0x1280=0x7d2c7d00.
####:reg0x1284=0x502d5a27.
tia_cnt_i : 37 ,
tia_cnt_q : 1 ,
I:reg0x1150=0xf0f171d.
Q:reg0x1154=0x33351b1f.
RX0 tia case :5,absolute value dc_i : 5 , value dc_q : 1 
####:reg0x1284=0x7f2c7f02.
####:reg0x1288=0x502f5827.
tia_cnt_i : 39 ,
tia_cnt_q : 1 ,
I:reg0x1150=0xf0f171d.
Q:reg0x1154=0x33351b1f.
RX0 tia case :6,absolute value dc_i : 4 , value dc_q : 1 
####:reg0x1288=0x7f2e7f00.
####:reg0x128c=0x4e31562b.
tia_cnt_i : 41 ,
tia_cnt_q : 1 ,
I:reg0x1150=0xf0f171d.
Q:reg0x1154=0x33351b1f.
RX0 tia case :7,absolute value dc_i : 4 , value dc_q : 1 
####:reg0x128c=0x7f307f02.
####:reg0x1290=0x4a354e31.
tia_cnt_i : 49 ,
tia_cnt_q : 1 ,
I:reg0x1150=0xf0f171d.
Q:reg0x1154=0x33351b1f.
RX0 tia case :8,absolute value dc_i : 4 , value dc_q : 1 
####:reg0x1290=0x7f347f00.
####:reg0x1294=0x4a354e31.
tia_cnt_i : 49 ,
tia_cnt_q : 1 ,
I:reg0x1150=0xf0f171d.
Q:reg0x1154=0x33351b1f.
RX0 tia case :9,absolute value dc_i : 4 , value dc_q : 1 
####:reg0x1294=0x7f347f00.
####:reg0x1298=0x4a354e31.
tia_cnt_i : 49 ,
tia_cnt_q : 1 ,
I:reg0x1150=0xf0f171d.
Q:reg0x1154=0x33351b1f.
RX0 tia case :10,absolute value dc_i : 4 , value dc_q : 1 
####:reg0x1298=0x7f347f00.
####:reg0x129c=0x4c334e31.
tia_cnt_i : 49 ,
tia_cnt_q : 1 ,
I:reg0x1150=0xf0f171d.
Q:reg0x1154=0x33351b1f.
RX0 tia case :11,absolute value dc_i : 5 , value dc_q : 1 
####:reg0x129c=0x7f327f00.
####:reg0x12a0=0x4c334e31.
tia_cnt_i : 49 ,
tia_cnt_q : 1 ,
I:reg0x1150=0xf0f171d.
Q:reg0x1154=0x33351b1f.
RX0 tia case :12,absolute value dc_i : 4 , value dc_q : 1 
####:reg0x12a0=0x7f327f00.
rx1 tia cali begin:
Q:reg0x12b0=0x3649324d.
 RX1 :reg0x1130=0x324d3649.
tia_cnt_i : 50 ,
tia_cnt_q : 0 ,
RX1 tia case :0,absolute value dc_i : -3 , value dc_q : 0 
RX1:reg0x12b0=0x3649007f.
Q:reg0x12b4=0x364b324d.
 RX1 :reg0x1130=0x324d364b.
tia_cnt_i : 50 ,
tia_cnt_q : 0 ,
RX1 tia case :1,absolute value dc_i : -2 , value dc_q : -1 
RX1:reg0x12b4=0x364b007f.
Q:reg0x12b8=0x364b324d.
 RX1 :reg0x1130=0x324d364b.
tia_cnt_i : 0 ,
tia_cnt_q : 8 ,
RX1 tia case :2,absolute value dc_i : -1 , value dc_q : -1 
RX1:reg0x12b8=0x3253324d.
Q:reg0x12bc=0x344b304d.
 RX1 :reg0x1130=0x304d344b.
tia_cnt_i : 0 ,
tia_cnt_q : 35 ,
RX1 tia case :3,absolute value dc_i : -1 , value dc_q : -1 
RX1:reg0x12bc=0x306e304d.
Q:reg0x12c0=0x344b324d.
 RX1 :reg0x1130=0x324d344b.
tia_cnt_i : 0 ,
tia_cnt_q : 52 ,
RX1 tia case :4,absolute value dc_i : 0 , value dc_q : -2 
RX1:reg0x12c0=0x327f324d.
Q:reg0x12c4=0x324d2c51.
 RX1 :reg0x1130=0x2c51324d.
tia_cnt_i : 0 ,
tia_cnt_q : 50 ,
RX1 tia case :5,absolute value dc_i : 0 , value dc_q : -2 
RX1:reg0x12c4=0x2c7f2c51.
Q:reg0x12c8=0x304d2c51.
 RX1 :reg0x1130=0x2c51304d.
tia_cnt_i : 0 ,
tia_cnt_q : 50 ,
RX1 tia case :6,absolute value dc_i : 0 , value dc_q : -2 
RX1:reg0x12c8=0x2c7f2c51.
Q:reg0x12cc=0x324d2c51.
 RX1 :reg0x1130=0x2c51324d.
tia_cnt_i : 0 ,
tia_cnt_q : 50 ,
RX1 tia case :7,absolute value dc_i : -1 , value dc_q : -2 
RX1:reg0x12cc=0x2c7f2c51.
Q:reg0x12d0=0x2c512e53.
 RX1 :reg0x1130=0x2e532c51.
tia_cnt_i : 0 ,
tia_cnt_q : 46 ,
RX1 tia case :8,absolute value dc_i : -1 , value dc_q : -2 
RX1:reg0x12d0=0x2e7f2e53.
Q:reg0x12d4=0x2e512c53.
 RX1 :reg0x1130=0x2c532e51.
tia_cnt_i : 0 ,
tia_cnt_q : 46 ,
RX1 tia case :9,absolute value dc_i : 0 , value dc_q : -2 
RX1:reg0x12d4=0x2c7f2c53.
Q:reg0x12d8=0x2e512a55.
 RX1 :reg0x1130=0x2a552e51.
tia_cnt_i : 0 ,
tia_cnt_q : 46 ,
RX1 tia case :10,absolute value dc_i : -1 , value dc_q : -2 
RX1:reg0x12d8=0x2a7f2a55.
Q:reg0x12dc=0x2e512a55.
 RX1 :reg0x1130=0x2a552e51.
tia_cnt_i : 0 ,
tia_cnt_q : 46 ,
RX1 tia case :11,absolute value dc_i : 0 , value dc_q : -2 
RX1:reg0x12dc=0x2a7f2a55.
Q:reg0x12e0=0x2e512a55.
 RX1 :reg0x1130=0x2a552e51.
tia_cnt_i : 0 ,
tia_cnt_q : 46 ,
RX1 tia case :12,absolute value dc_i : 0 , value dc_q : -1 
RX1:reg0x12e0=0x2a7f2a55.
tia calibration end!
rx0 vga calibration begin
reg0x1120=0x3fc100.
vga case:1 pass.
RX0 vga case:1 ,absolute value dc_i_tmp : 1 , value dc_q_tmp : 1 ,I:reg0x1184=0xf0f171d.   Q:reg0x11c0=0x3135191d.
vga case:2 pass.
RX0 vga case:2 ,absolute value dc_i_tmp : 1 , value dc_q_tmp : 0 ,I:reg0x1188=0xf0f171d.   Q:reg0x11c4=0x3335191d.
vga case:3 pass.
RX0 vga case:3 ,absolute value dc_i_tmp : 1 , value dc_q_tmp : 1 ,I:reg0x118c=0xf0f171d.   Q:reg0x11c8=0x3135191d.
vga case:4 pass.
RX0 vga case:4 ,absolute value dc_i_tmp : 1 , value dc_q_tmp : 0 ,I:reg0x1190=0xf0f171d.   Q:reg0x11cc=0x3135191d.
vga case:5 pass.
RX0 vga case:5 ,absolute value dc_i_tmp : 1 , value dc_q_tmp : 0 ,I:reg0x1194=0xf0f171d.   Q:reg0x11d0=0x3337191d.
vga case:6 pass.
RX0 vga case:6 ,absolute value dc_i_tmp : 1 , value dc_q_tmp : 1 ,I:reg0x1198=0xf0f171d.   Q:reg0x11d4=0x3137191d.
vga case:7 pass.
RX0 vga case:7 ,absolute value dc_i_tmp : 1 , value dc_q_tmp : 1 ,I:reg0x119c=0xf0f171d.   Q:reg0x11d8=0x3139191d.
vga case:8 pass.
RX0 vga case:8 ,absolute value dc_i_tmp : 1 , value dc_q_tmp : 0 ,I:reg0x11a0=0xf0f151d.   Q:reg0x11dc=0x33371b1f.
vga case:9 pass.
RX0 vga case:9 ,absolute value dc_i_tmp : 0 , value dc_q_tmp : 1 ,I:reg0x11a4=0x130f151f.   Q:reg0x11e0=0x35351b1f.
vga case:10 pass.
RX0 vga case:10 ,absolute value dc_i_tmp : 1 , value dc_q_tmp : 1 ,I:reg0x11a8=0x190f1521.   Q:reg0x11e4=0x392f1d21.
vga case:11 pass.
RX0 vga case:11 ,absolute value dc_i_tmp : 1 , value dc_q_tmp : 1 ,I:reg0x11ac=0xd0f1123.   Q:reg0x11e8=0x39371b21.
vga case:12 pass.
RX0 vga case:12 ,absolute value dc_i_tmp : 1 , value dc_q_tmp : 0 ,I:reg0x11b0=0xf110d23.   Q:reg0x11ec=0x33391921.
vga case:13 pass.
RX0 vga case:13 ,absolute value dc_i_tmp : 1 , value dc_q_tmp : 1 ,I:reg0x11b4=0x190f0d27.   Q:reg0x11f0=0x3f2f1921.
vga case:14 pass.
RX0 vga case:14 ,absolute value dc_i_tmp : 0 , value dc_q_tmp : 1 ,I:reg0x11b8=0x210f092f.   Q:reg0x11f4=0x3f2f1923.
rx1 vga calibration begin
rx1 vga case:1 pass.
RX1 vga case:1 ,absolute value dc_i_tmp : 1 , value dc_q_tmp : 1 ,I:reg0x11fc=0x31312d21. Q:reg0x1238=0x27292d29.
rx1 vga case:2 pass.
RX1 vga case:2 ,absolute value dc_i_tmp : 1 , value dc_q_tmp : 0 ,I:reg0x1200=0x31312d21. Q:reg0x123c=0x25272d29.
rx1 vga case:3 pass.
RX1 vga case:3 ,absolute value dc_i_tmp : 1 , value dc_q_tmp : 1 ,I:reg0x1204=0x31312d21. Q:reg0x1240=0x27292d29.
rx1 vga case:4 pass.
RX1 vga case:4 ,absolute value dc_i_tmp : 0 , value dc_q_tmp : 1 ,I:reg0x1208=0x33312d21. Q:reg0x1244=0x27272d29.
rx1 vga case:5 pass.
RX1 vga case:5 ,absolute value dc_i_tmp : 1 , value dc_q_tmp : 0 ,I:reg0x120c=0x33312d21. Q:reg0x1248=0x27272d29.
rx1 vga case:6 pass.
RX1 vga case:6 ,absolute value dc_i_tmp : 1 , value dc_q_tmp : 1 ,I:reg0x1210=0x33312d21. Q:reg0x124c=0x25272d29.
rx1 vga case:7 pass.
RX1 vga case:7 ,absolute value dc_i_tmp : 1 , value dc_q_tmp : 1 ,I:reg0x1214=0x33312d21. Q:reg0x1250=0x27272d29.
rx1 vga case:8 pass.
RX1 vga case:8 ,absolute value dc_i_tmp : 0 , value dc_q_tmp : 1 ,I:reg0x1218=0x31352d1f. Q:reg0x1254=0x27292d29.
rx1 vga case:9 pass.
RX1 vga case:9 ,absolute value dc_i_tmp : 1 , value dc_q_tmp : 0 ,I:reg0x121c=0x31352f1d. Q:reg0x1258=0x2b252f29.
rx1 vga case:10 pass.
RX1 vga case:10 ,absolute value dc_i_tmp : 1 , value dc_q_tmp : 1 ,I:reg0x1220=0x352f331b. Q:reg0x125c=0x27272f29.
rx1 vga case:11 pass.
RX1 vga case:11 ,absolute value dc_i_tmp : 0 , value dc_q_tmp : 1 ,I:reg0x1224=0x352f3517. Q:reg0x1260=0x272d2d27.
rx1 vga case:12 pass.
RX1 vga case:12 ,absolute value dc_i_tmp : 0 , value dc_q_tmp : 0 ,I:reg0x1228=0x31353915. Q:reg0x1264=0x23272f27.
rx1 vga case:13 pass.
RX1 vga case:13 ,absolute value dc_i_tmp : 1 , value dc_q_tmp : 1 ,I:reg0x122c=0x31333b0f. Q:reg0x1268=0x27273127.
rx1 vga case:14 pass.
RX1 vga case:14 ,absolute value dc_i_tmp : 0 , value dc_q_tmp : 0 ,I:reg0x1230=0xb3f3f07. Q:reg0x126c=0x2d233325.
reg0x1120=0x3c0100.
vga calibration end!
RX0: 0x103c : e0018000 ,0x1040 : 60001102 
RX1: 0x1054 : e0018000 ,0x1058 : 60001100 
THIS CASE J: 0 M: 6 
adc calibration begin
calibration begin
RX0 cali pre ,absolute value dc_i_tmp : 2 , value dc_q_tmp : 0 ,
reg0x1180=0xd0f151b.
reg0x11bc=0x35371b1f.
RX1 cali pre ,absolute value dc_i_tmp : 1 , value dc_q_tmp : 0 ,reg0x11f8=0x33312727.
reg0x1234=0x27272f29.
rx0 tia cali begin:
####:reg0x1270=0x621d6e11.
tia_cnt_i : 6 ,
tia_cnt_q : 0 ,
I:reg0x1150=0xd0f151b.
Q:reg0x1154=0x35371b1f.
RX0 tia case :0,absolute value dc_i : -1 , value dc_q : 0 
####:reg0x1270=0x621d6817.
####:reg0x1274=0x601d6a15.
tia_cnt_i : 0 ,
tia_cnt_q : 0 ,
I:reg0x1150=0xd0f151b.
Q:reg0x1154=0x35371b1f.
RX0 tia case :1,absolute value dc_i : 1 , value dc_q : 1 
####:reg0x1274=0x601d6a15.
####:reg0x1278=0x5e216c13.
tia_cnt_i : 13 ,
tia_cnt_q : 0 ,
I:reg0x1150=0xd0f151b.
Q:reg0x1154=0x35371b1f.
RX0 tia case :2,absolute value dc_i : 1 , value dc_q : 1 
####:reg0x1278=0x5e217906.
####:reg0x127c=0x5c216817.
tia_cnt_i : 23 ,
tia_cnt_q : 0 ,
I:reg0x1150=0xd0f151b.
Q:reg0x1154=0x35371b1f.
RX0 tia case :3,absolute value dc_i : 2 , value dc_q : 1 
####:reg0x127c=0x5c217f00.
####:reg0x1280=0x522d5a27.
tia_cnt_i : 37 ,
tia_cnt_q : 0 ,
I:reg0x1150=0xd0f151b.
Q:reg0x1154=0x35371b1f.
RX0 tia case :4,absolute value dc_i : 3 , value dc_q : 1 
####:reg0x1280=0x522d7f02.
####:reg0x1284=0x502d5a27.
tia_cnt_i : 37 ,
tia_cnt_q : 1 ,
I:reg0x1150=0xd0f151b.
Q:reg0x1154=0x35371b1f.
RX0 tia case :5,absolute value dc_i : 3 , value dc_q : 1 
####:reg0x1284=0x7f2c7f02.
####:reg0x1288=0x4e315629.
tia_cnt_i : 41 ,
tia_cnt_q : 1 ,
I:reg0x1150=0xd0f151b.
Q:reg0x1154=0x35371b1f.
RX0 tia case :6,absolute value dc_i : 3 , value dc_q : 1 
####:reg0x1288=0x7f307f00.
####:reg0x128c=0x4c315429.
tia_cnt_i : 41 ,
tia_cnt_q : 0 ,
I:reg0x1150=0xd0f151b.
Q:reg0x1154=0x35371b1f.
RX0 tia case :7,absolute value dc_i : 3 , value dc_q : 1 
####:reg0x128c=0x4c317d00.
####:reg0x1290=0x4a354c31.
tia_cnt_i : 49 ,
tia_cnt_q : 1 ,
I:reg0x1150=0xd0f151b.
Q:reg0x1154=0x35371b1f.
RX0 tia case :8,absolute value dc_i : 3 , value dc_q : 1 
####:reg0x1290=0x7d347d00.
####:reg0x1294=0x4a354c31.
tia_cnt_i : 49 ,
tia_cnt_q : 1 ,
I:reg0x1150=0xd0f151b.
Q:reg0x1154=0x35371b1f.
RX0 tia case :9,absolute value dc_i : 3 , value dc_q : 1 
####:reg0x1294=0x7d347d00.
####:reg0x1298=0x4a35502d.
tia_cnt_i : 45 ,
tia_cnt_q : 1 ,
I:reg0x1150=0xd0f151b.
Q:reg0x1154=0x35371b1f.
RX0 tia case :10,absolute value dc_i : 3 , value dc_q : 1 
####:reg0x1298=0x7d347d00.
####:reg0x129c=0x4c33522f.
tia_cnt_i : 45 ,
tia_cnt_q : 0 ,
I:reg0x1150=0xd0f151b.
Q:reg0x1154=0x35371b1f.
RX0 tia case :11,absolute value dc_i : 3 , value dc_q : 1 
####:reg0x129c=0x4c337f02.
####:reg0x12a0=0x4a35522d.
tia_cnt_i : 45 ,
tia_cnt_q : 1 ,
I:reg0x1150=0xd0f151b.
Q:reg0x1154=0x35371b1f.
RX0 tia case :12,absolute value dc_i : 3 , value dc_q : 1 
####:reg0x12a0=0x7f347f00.
rx1 tia cali begin:
Q:reg0x12b0=0x3449344b.
 RX1 :reg0x1130=0x344b3449.
tia_cnt_i : 52 ,
tia_cnt_q : 0 ,
RX1 tia case :0,absolute value dc_i : -3 , value dc_q : 0 
RX1:reg0x12b0=0x3449007f.
Q:reg0x12b4=0x344b344b.
 RX1 :reg0x1130=0x344b344b.
tia_cnt_i : 52 ,
tia_cnt_q : 0 ,
RX1 tia case :1,absolute value dc_i : -3 , value dc_q : -1 
RX1:reg0x12b4=0x344b007f.
Q:reg0x12b8=0x3449344b.
 RX1 :reg0x1130=0x344b3449.
tia_cnt_i : 10 ,
tia_cnt_q : 1 ,
RX1 tia case :2,absolute value dc_i : -1 , value dc_q : -1 
RX1:reg0x12b8=0x2a4a2a55.
Q:reg0x12bc=0x344b324d.
 RX1 :reg0x1130=0x324d344b.
tia_cnt_i : 0 ,
tia_cnt_q : 29 ,
RX1 tia case :3,absolute value dc_i : -1 , value dc_q : -1 
RX1:reg0x12bc=0x3268324d.
Q:reg0x12c0=0x324d324d.
 RX1 :reg0x1130=0x324d324d.
tia_cnt_i : 0 ,
tia_cnt_q : 50 ,
RX1 tia case :4,absolute value dc_i : -1 , value dc_q : -2 
RX1:reg0x12c0=0x327f324d.
Q:reg0x12c4=0x324d2e51.
 RX1 :reg0x1130=0x2e51324d.
tia_cnt_i : 0 ,
tia_cnt_q : 50 ,
RX1 tia case :5,absolute value dc_i : -1 , value dc_q : -2 
RX1:reg0x12c4=0x2e7f2e51.
Q:reg0x12c8=0x324d2e51.
 RX1 :reg0x1130=0x2e51324d.
tia_cnt_i : 0 ,
tia_cnt_q : 50 ,
RX1 tia case :6,absolute value dc_i : -1 , value dc_q : -2 
RX1:reg0x12c8=0x2e7f2e51.
Q:reg0x12cc=0x324d2c51.
 RX1 :reg0x1130=0x2c51324d.
tia_cnt_i : 0 ,
tia_cnt_q : 50 ,
RX1 tia case :7,absolute value dc_i : -1 , value dc_q : -2 
RX1:reg0x12cc=0x2c7f2c51.
Q:reg0x12d0=0x2c512c53.
 RX1 :reg0x1130=0x2c532c51.
tia_cnt_i : 0 ,
tia_cnt_q : 46 ,
RX1 tia case :8,absolute value dc_i : -1 , value dc_q : -2 
RX1:reg0x12d0=0x2c7f2c53.
Q:reg0x12d4=0x2e512c53.
 RX1 :reg0x1130=0x2c532e51.
tia_cnt_i : 0 ,
tia_cnt_q : 46 ,
RX1 tia case :9,absolute value dc_i : -1 , value dc_q : -2 
RX1:reg0x12d4=0x2c7f2c53.
Q:reg0x12d8=0x2e512c53.
 RX1 :reg0x1130=0x2c532e51.
tia_cnt_i : 0 ,
tia_cnt_q : 46 ,
RX1 tia case :10,absolute value dc_i : -1 , value dc_q : -2 
RX1:reg0x12d8=0x2c7f2c53.
Q:reg0x12dc=0x2e512c53.
 RX1 :reg0x1130=0x2c532e51.
tia_cnt_i : 0 ,
tia_cnt_q : 46 ,
RX1 tia case :11,absolute value dc_i : -1 , value dc_q : -2 
RX1:reg0x12dc=0x2c7f2c53.
Q:reg0x12e0=0x2e512c53.
 RX1 :reg0x1130=0x2c532e51.
tia_cnt_i : 0 ,
tia_cnt_q : 46 ,
RX1 tia case :12,absolute value dc_i : -1 , value dc_q : -2 
RX1:reg0x12e0=0x2c7f2c53.
tia calibration end!
rx0 vga calibration begin
reg0x1120=0x3fc100.
vga case:1 pass.
RX0 vga case:1 ,absolute value dc_i_tmp : 1 , value dc_q_tmp : 1 ,I:reg0x1184=0xf11151b.   Q:reg0x11c0=0x31331d21.
vga case:2 pass.
RX0 vga case:2 ,absolute value dc_i_tmp : 1 , value dc_q_tmp : 0 ,I:reg0x1188=0x110f191d.   Q:reg0x11c4=0x3335191d.
vga case:3 pass.
RX0 vga case:3 ,absolute value dc_i_tmp : 1 , value dc_q_tmp : 0 ,I:reg0x118c=0x110f191d.   Q:reg0x11c8=0x3335191d.
vga case:4 pass.
RX0 vga case:4 ,absolute value dc_i_tmp : 1 , value dc_q_tmp : 0 ,I:reg0x1190=0x130f191d.   Q:reg0x11cc=0x3335191d.
vga case:5 pass.
RX0 vga case:5 ,absolute value dc_i_tmp : 1 , value dc_q_tmp : 1 ,I:reg0x1194=0xd11151b.   Q:reg0x11d0=0x31351b1f.
vga case:6 pass.
RX0 vga case:6 ,absolute value dc_i_tmp : 0 , value dc_q_tmp : 0 ,I:reg0x1198=0x150f171b.   Q:reg0x11d4=0x37311d1f.
vga case:7 pass.
RX0 vga case:7 ,absolute value dc_i_tmp : 0 , value dc_q_tmp : 0 ,I:reg0x119c=0x150d191d.   Q:reg0x11d8=0x31351b1f.
vga case:8 pass.
RX0 vga case:8 ,absolute value dc_i_tmp : 1 , value dc_q_tmp : 0 ,I:reg0x11a0=0x130f171d.   Q:reg0x11dc=0x37311d21.
vga case:9 pass.
RX0 vga case:9 ,absolute value dc_i_tmp : 0 , value dc_q_tmp : 1 ,I:reg0x11a4=0x150f151d.   Q:reg0x11e0=0x372f1d21.
vga case:10 pass.
RX0 vga case:10 ,absolute value dc_i_tmp : 1 , value dc_q_tmp : 0 ,I:reg0x11a8=0xb111521.   Q:reg0x11e4=0x37351b21.
vga case:11 pass.
RX0 vga case:11 ,absolute value dc_i_tmp : 1 , value dc_q_tmp : 0 ,I:reg0x11ac=0xf0d1321.   Q:reg0x11e8=0x31391921.
vga case:12 pass.
RX0 vga case:12 ,absolute value dc_i_tmp : 1 , value dc_q_tmp : 1 ,I:reg0x11b0=0x7170f23.   Q:reg0x11ec=0x37351921.
vga case:13 pass.
RX0 vga case:13 ,absolute value dc_i_tmp : 0 , value dc_q_tmp : 1 ,I:reg0x11b4=0xf0d0d23.   Q:reg0x11f0=0x2f2f1923.
vga case:14 pass.
RX0 vga case:14 ,absolute value dc_i_tmp : 0 , value dc_q_tmp : 1 ,I:reg0x11b8=0x1d070d2b.   Q:reg0x11f4=0x1f1f1723.
rx1 vga calibration begin
rx1 vga case:1 pass.
RX1 vga case:1 ,absolute value dc_i_tmp : 1 , value dc_q_tmp : 0 ,I:reg0x11fc=0x31312d21. Q:reg0x1238=0x27292d29.
rx1 vga case:2 pass.
RX1 vga case:2 ,absolute value dc_i_tmp : 1 , value dc_q_tmp : 1 ,I:reg0x1200=0x31312d21. Q:reg0x123c=0x27292d29.
rx1 vga case:3 pass.
RX1 vga case:3 ,absolute value dc_i_tmp : 1 , value dc_q_tmp : 1 ,I:reg0x1204=0x31312d21. Q:reg0x1240=0x27292d29.
rx1 vga case:4 pass.
RX1 vga case:4 ,absolute value dc_i_tmp : 0 , value dc_q_tmp : 1 ,I:reg0x1208=0x33312d21. Q:reg0x1244=0x27292d29.
rx1 vga case:5 pass.
RX1 vga case:5 ,absolute value dc_i_tmp : 1 , value dc_q_tmp : 1 ,I:reg0x120c=0x33312d21. Q:reg0x1248=0x25272d29.
rx1 vga case:6 pass.
RX1 vga case:6 ,absolute value dc_i_tmp : 1 , value dc_q_tmp : 0 ,I:reg0x1210=0x33312d21. Q:reg0x124c=0x27292d29.
rx1 vga case:7 pass.
RX1 vga case:7 ,absolute value dc_i_tmp : 1 , value dc_q_tmp : 1 ,I:reg0x1214=0x33312d21. Q:reg0x1250=0x27292d29.
rx1 vga case:8 pass.
RX1 vga case:8 ,absolute value dc_i_tmp : 1 , value dc_q_tmp : 1 ,I:reg0x1218=0x2f352d1f. Q:reg0x1254=0x29232f29.
rx1 vga case:9 pass.
RX1 vga case:9 ,absolute value dc_i_tmp : 1 , value dc_q_tmp : 1 ,I:reg0x121c=0x2f352f1d. Q:reg0x1258=0x29272f29.
rx1 vga case:10 pass.
RX1 vga case:10 ,absolute value dc_i_tmp : 0 , value dc_q_tmp : 0 ,I:reg0x1220=0x352f331b. Q:reg0x125c=0x2b232f27.
rx1 vga case:11 pass.
RX1 vga case:11 ,absolute value dc_i_tmp : 1 , value dc_q_tmp : 1 ,I:reg0x1224=0x352f3517. Q:reg0x1260=0x2b292f27.
rx1 vga case:12 pass.
RX1 vga case:12 ,absolute value dc_i_tmp : 1 , value dc_q_tmp : 1 ,I:reg0x1228=0x33313713. Q:reg0x1264=0x272d2f27.
rx1 vga case:13 pass.
RX1 vga case:13 ,absolute value dc_i_tmp : 1 , value dc_q_tmp : 1 ,I:reg0x122c=0x31333b0f. Q:reg0x1268=0x2d233327.
rx1 vga case:14 pass.
RX1 vga case:14 ,absolute value dc_i_tmp : 0 , value dc_q_tmp : 1 ,I:reg0x1230=0xb3f3f07. Q:reg0x126c=0x33213525.
reg0x1120=0x3c0100.
vga calibration end!
RX0: 0x103c : e001c000 ,0x1040 : 70001102 
RX1: 0x1054 : e001c000 ,0x1058 : 70001100 
THIS CASE J: 0 M: 7 
adc calibration begin
calibration begin
RX0 cali pre ,absolute value dc_i_tmp : 8 , value dc_q_tmp : 2 ,
reg0x1180=0xf0f171d.
reg0x11bc=0x33351b1f.
RX1 cali pre ,absolute value dc_i_tmp : 15 , value dc_q_tmp : 2 ,reg0x11f8=0x33312727.
reg0x1234=0x27292d29.
rx0 tia cali begin:
####:reg0x1270=0x5e216e13.
tia_cnt_i : 104 ,
tia_cnt_q : 35 ,
I:reg0x1150=0xf0f171d.
Q:reg0x1154=0x33351b1f.
RX0 tia case :0,absolute value dc_i : -1 , value dc_q : 3 
####:reg0x1270=0x600067b.
####:reg0x1274=0x601f6e13.
tia_cnt_i : 108 ,
tia_cnt_q : 0 ,
I:reg0x1150=0xf0f171d.
Q:reg0x1154=0x33351b1f.
RX0 tia case :1,absolute value dc_i : -6 , value dc_q : -1 
####:reg0x1274=0x601f027f.
####:reg0x1278=0x5c216815.
tia_cnt_i : 104 ,
tia_cnt_q : 0 ,
I:reg0x1150=0xf0f171d.
Q:reg0x1154=0x33351b1f.
RX0 tia case :2,absolute value dc_i : -4 , value dc_q : 0 
####:reg0x1278=0x5c21007d.
####:reg0x127c=0x5a25661b.
tia_cnt_i : 100 ,
tia_cnt_q : 0 ,
I:reg0x1150=0xf0f171d.
Q:reg0x1154=0x33351b1f.
RX0 tia case :3,absolute value dc_i : -5 , value dc_q : 0 
####:reg0x127c=0x5a25027f.
####:reg0x1280=0x502d5825.
tia_cnt_i : 88 ,
tia_cnt_q : 0 ,
I:reg0x1150=0xf0f171d.
Q:reg0x1154=0x33351b1f.
RX0 tia case :4,absolute value dc_i : -5 , value dc_q : 0 
####:reg0x1280=0x502d007d.
####:reg0x1284=0x4e315a27.
tia_cnt_i : 88 ,
tia_cnt_q : 0 ,
I:reg0x1150=0xf0f171d.
Q:reg0x1154=0x33351b1f.
RX0 tia case :5,absolute value dc_i : -6 , value dc_q : 0 
####:reg0x1284=0x4e31027f.
####:reg0x1288=0x4e315629.
tia_cnt_i : 86 ,
tia_cnt_q : 0 ,
I:reg0x1150=0xf0f171d.
Q:reg0x1154=0x33351b1f.
RX0 tia case :6,absolute value dc_i : -6 , value dc_q : 0 
####:reg0x1288=0x4e31007f.
####:reg0x128c=0x4e31562b.
tia_cnt_i : 84 ,
tia_cnt_q : 0 ,
I:reg0x1150=0xf0f171d.
Q:reg0x1154=0x33351b1f.
RX0 tia case :7,absolute value dc_i : -5 , value dc_q : 0 
####:reg0x128c=0x4e31027f.
####:reg0x1290=0x4a354e33.
tia_cnt_i : 76 ,
tia_cnt_q : 0 ,
I:reg0x1150=0xf0f171d.
Q:reg0x1154=0x33351b1f.
RX0 tia case :8,absolute value dc_i : -6 , value dc_q : 0 
####:reg0x1290=0x4a35027f.
####:reg0x1294=0x4c334e31.
tia_cnt_i : 78 ,
tia_cnt_q : 0 ,
I:reg0x1150=0xf0f171d.
Q:reg0x1154=0x33351b1f.
RX0 tia case :9,absolute value dc_i : -5 , value dc_q : 0 
####:reg0x1294=0x4c33007f.
####:reg0x1298=0x4a35522f.
tia_cnt_i : 80 ,
tia_cnt_q : 0 ,
I:reg0x1150=0xf0f171d.
Q:reg0x1154=0x33351b1f.
RX0 tia case :10,absolute value dc_i : -6 , value dc_q : 0 
####:reg0x1298=0x4a35027f.
####:reg0x129c=0x4a354e31.
tia_cnt_i : 78 ,
tia_cnt_q : 0 ,
I:reg0x1150=0xf0f171d.
Q:reg0x1154=0x33351b1f.
RX0 tia case :11,absolute value dc_i : -5 , value dc_q : 0 
####:reg0x129c=0x4a35007f.
####:reg0x12a0=0x4c334e31.
tia_cnt_i : 78 ,
tia_cnt_q : 0 ,
I:reg0x1150=0xf0f171d.
Q:reg0x1154=0x33351b1f.
RX0 tia case :12,absolute value dc_i : -6 , value dc_q : 0 
####:reg0x12a0=0x4c33007f.
rx1 tia cali begin:
Q:reg0x12b0=0x36493649.
 RX1 :reg0x1130=0x36493649.
tia_cnt_i : 54 ,
tia_cnt_q : 0 ,
RX1 tia case :0,absolute value dc_i : -16 , value dc_q : 0 
RX1:reg0x12b0=0x3649007f.
Q:reg0x12b4=0x3649364b.
 RX1 :reg0x1130=0x364b3649.
tia_cnt_i : 52 ,
tia_cnt_q : 1 ,
RX1 tia case :1,absolute value dc_i : -16 , value dc_q : 1 
RX1:reg0x12b4=0x24a027f.
Q:reg0x12b8=0x364b344b.
 RX1 :reg0x1130=0x344b364b.
tia_cnt_i : 52 ,
tia_cnt_q : 1 ,
RX1 tia case :2,absolute value dc_i : -16 , value dc_q : 0 
RX1:reg0x12b8=0x4c007f.
Q:reg0x12bc=0x3649364b.
 RX1 :reg0x1130=0x364b3649.
tia_cnt_i : 52 ,
tia_cnt_q : 3 ,
RX1 tia case :3,absolute value dc_i : -16 , value dc_q : -1 
RX1:reg0x12bc=0x24c027f.
Q:reg0x12c0=0x344b324d.
 RX1 :reg0x1130=0x324d344b.
tia_cnt_i : 50 ,
tia_cnt_q : 1 ,
RX1 tia case :4,absolute value dc_i : -16 , value dc_q : -3 
RX1:reg0x12c0=0x4c007f.
Q:reg0x12c4=0x324d2e51.
 RX1 :reg0x1130=0x2e51324d.
tia_cnt_i : 46 ,
tia_cnt_q : 1 ,
RX1 tia case :5,absolute value dc_i : -16 , value dc_q : -2 
RX1:reg0x12c4=0x4e007f.
Q:reg0x12c8=0x344b2e51.
 RX1 :reg0x1130=0x2e51344b.
tia_cnt_i : 46 ,
tia_cnt_q : 1 ,
RX1 tia case :6,absolute value dc_i : -16 , value dc_q : -3 
RX1:reg0x12c8=0x4c007f.
Q:reg0x12cc=0x324d2e51.
 RX1 :reg0x1130=0x2e51324d.
tia_cnt_i : 46 ,
tia_cnt_q : 1 ,
RX1 tia case :7,absolute value dc_i : -16 , value dc_q : -2 
RX1:reg0x12cc=0x4e007f.
Q:reg0x12d0=0x2c512c53.
 RX1 :reg0x1130=0x2c532c51.
tia_cnt_i : 44 ,
tia_cnt_q : 1 ,
RX1 tia case :8,absolute value dc_i : -16 , value dc_q : -2 
RX1:reg0x12d0=0x52007f.
Q:reg0x12d4=0x2e512a55.
 RX1 :reg0x1130=0x2a552e51.
tia_cnt_i : 42 ,
tia_cnt_q : 1 ,
RX1 tia case :9,absolute value dc_i : -16 , value dc_q : -2 
RX1:reg0x12d4=0x52007f.
Q:reg0x12d8=0x2e512c53.
 RX1 :reg0x1130=0x2c532e51.
tia_cnt_i : 44 ,
tia_cnt_q : 1 ,
RX1 tia case :10,absolute value dc_i : -16 , value dc_q : -2 
RX1:reg0x12d8=0x52007f.
Q:reg0x12dc=0x2e512c53.
 RX1 :reg0x1130=0x2c532e51.
tia_cnt_i : 44 ,
tia_cnt_q : 1 ,
RX1 tia case :11,absolute value dc_i : -16 , value dc_q : -3 
RX1:reg0x12dc=0x52007f.
Q:reg0x12e0=0x2e512c53.
 RX1 :reg0x1130=0x2c532e51.
tia_cnt_i : 44 ,
tia_cnt_q : 1 ,
RX1 tia case :12,absolute value dc_i : -16 , value dc_q : -2 
RX1:reg0x12e0=0x52007f.
tia calibration end!
rx0 vga calibration begin
reg0x1120=0x3fc100.
vga case:1 pass.
RX0 vga case:1 ,absolute value dc_i_tmp : 9 , value dc_q_tmp : 3 ,I:reg0x1184=0xf0f210f.   Q:reg0x11c0=0x33351d1b.
vga case:2 pass.
RX0 vga case:2 ,absolute value dc_i_tmp : 9 , value dc_q_tmp : 3 ,I:reg0x1188=0xf0f210f.   Q:reg0x11c4=0x33351d1b.
vga case:3 pass.
RX0 vga case:3 ,absolute value dc_i_tmp : 9 , value dc_q_tmp : 3 ,I:reg0x118c=0xf0f210f.   Q:reg0x11c8=0x33351d1b.
vga case:4 pass.
RX0 vga case:4 ,absolute value dc_i_tmp : 10 , value dc_q_tmp : 3 ,I:reg0x1190=0xf0f210f.   Q:reg0x11cc=0x33351d1b.
vga case:5 pass.
RX0 vga case:5 ,absolute value dc_i_tmp : 10 , value dc_q_tmp : 2 ,I:reg0x1194=0xf0f210f.   Q:reg0x11d0=0x33331d1b.
vga case:6 pass.
RX0 vga case:6 ,absolute value dc_i_tmp : 10 , value dc_q_tmp : 0 ,I:reg0x1198=0xf0f210f.   Q:reg0x11d4=0x37351d1b.
vga case:7 pass.
RX0 vga case:7 ,absolute value dc_i_tmp : 9 , value dc_q_tmp : 0 ,I:reg0x119c=0x110f210f.   Q:reg0x11d8=0x35331d1b.
vga case:8 pass.
RX0 vga case:8 ,absolute value dc_i_tmp : 9 , value dc_q_tmp : 1 ,I:reg0x11a0=0xf0f250f.   Q:reg0x11dc=0x3b311f1b.
vga case:9 pass.
RX0 vga case:9 ,absolute value dc_i_tmp : 7 , value dc_q_tmp : 0 ,I:reg0x11a4=0x150f290d.   Q:reg0x11e0=0x3931211b.
vga case:10 pass.
RX0 vga case:10 ,absolute value dc_i_tmp : 6 , value dc_q_tmp : 1 ,I:reg0x11a8=0x190b2d09.   Q:reg0x11e4=0x3d331f19.
vga case:11 pass.
RX0 vga case:11 ,absolute value dc_i_tmp : 7 , value dc_q_tmp : 1 ,I:reg0x11ac=0x150f3105.   Q:reg0x11e8=0x31332119.
vga case:12 pass.
RX0 vga case:12 ,absolute value dc_i_tmp : 7 , value dc_q_tmp : 0 ,I:reg0x11b0=0xf0f3501.   Q:reg0x11ec=0x373b2117.
vga case:13 pass.
RX0 vga case:13 ,absolute value dc_i_tmp : 7 , value dc_q_tmp : 0 ,I:reg0x11b4=0xd193f01.   Q:reg0x11f0=0x3d312517.
vga case:14 pass.
RX0 vga case:14 ,absolute value dc_i_tmp : 0 , value dc_q_tmp : 0 ,I:reg0x11b8=0x13f3f01.   Q:reg0x11f4=0x373d2513.
rx1 vga calibration begin
rx1 vga case:1 pass.
RX1 vga case:1 ,absolute value dc_i_tmp : 15 , value dc_q_tmp : 2 ,I:reg0x11fc=0x31312d21. Q:reg0x1238=0x27292d29.
rx1 vga case:2 pass.
RX1 vga case:2 ,absolute value dc_i_tmp : 15 , value dc_q_tmp : 2 ,I:reg0x1200=0x31312d21. Q:reg0x123c=0x27292d29.
rx1 vga case:3 pass.
RX1 vga case:3 ,absolute value dc_i_tmp : 15 , value dc_q_tmp : 2 ,I:reg0x1204=0x31312d21. Q:reg0x1240=0x27292d29.
rx1 vga case:4 pass.
RX1 vga case:4 ,absolute value dc_i_tmp : 15 , value dc_q_tmp : 1 ,I:reg0x1208=0x33312d21. Q:reg0x1244=0x25272d29.
rx1 vga case:5 pass.
RX1 vga case:5 ,absolute value dc_i_tmp : 15 , value dc_q_tmp : 0 ,I:reg0x120c=0x33312d21. Q:reg0x1248=0x27272d29.
rx1 vga case:6 pass.
RX1 vga case:6 ,absolute value dc_i_tmp : 15 , value dc_q_tmp : 0 ,I:reg0x1210=0x33312d21. Q:reg0x124c=0x27272d29.
rx1 vga case:7 pass.
RX1 vga case:7 ,absolute value dc_i_tmp : 15 , value dc_q_tmp : 0 ,I:reg0x1214=0x33312d21. Q:reg0x1250=0x29292d29.
rx1 vga case:8 pass.
RX1 vga case:8 ,absolute value dc_i_tmp : 15 , value dc_q_tmp : 0 ,I:reg0x1218=0x2f352d1f. Q:reg0x1254=0x2d232f29.
rx1 vga case:9 pass.
RX1 vga case:9 ,absolute value dc_i_tmp : 15 , value dc_q_tmp : 0 ,I:reg0x121c=0x2f352f1d. Q:reg0x1258=0x2d272f29.
rx1 vga case:10 pass.
RX1 vga case:10 ,absolute value dc_i_tmp : 15 , value dc_q_tmp : 0 ,I:reg0x1220=0x352f331b. Q:reg0x125c=0x29292f29.
rx1 vga case:11 pass.
RX1 vga case:11 ,absolute value dc_i_tmp : 15 , value dc_q_tmp : 0 ,I:reg0x1224=0x352f3517. Q:reg0x1260=0x2d272f27.
rx1 vga case:12 pass.
RX1 vga case:12 ,absolute value dc_i_tmp : 15 , value dc_q_tmp : 0 ,I:reg0x1228=0x33313713. Q:reg0x1264=0x25292f27.
rx1 vga case:13 pass.
RX1 vga case:13 ,absolute value dc_i_tmp : 15 , value dc_q_tmp : 0 ,I:reg0x122c=0x31333b0f. Q:reg0x1268=0x29293127.
rx1 vga case:14 pass.
RX1 vga case:14 ,absolute value dc_i_tmp : 15 , value dc_q_tmp : 0 ,I:reg0x1230=0xb3f3f07. Q:reg0x126c=0x2d273325.
reg0x1120=0x3c0100.
vga calibration end!
RX0: 0x103c : e0020000 ,0x1040 : 80001102 
RX1: 0x1054 : e0020000 ,0x1058 : 80001100 
THIS CASE J: 0 M: 8 
adc calibration begin
calibration begin
RX0 cali pre ,absolute value dc_i_tmp : 9 , value dc_q_tmp : 8 ,
reg0x1180=0x5091119.
reg0x11bc=0x33351b1f.
RX1 cali pre ,absolute value dc_i_tmp : 0 , value dc_q_tmp : 4 ,reg0x11f8=0x33312727.
reg0x1234=0x29292f29.
rx0 tia cali begin:
####:reg0x1270=0x621d6a15.
tia_cnt_i : 76 ,
tia_cnt_q : 98 ,
I:reg0x1150=0x5091119.
Q:reg0x1154=0x33351b1f.
RX0 tia case :0,absolute value dc_i : -1 , value dc_q : -1 
####:reg0x1270=0x1e7f1e61.
####:reg0x1274=0x601d6c11.
tia_cnt_i : 108 ,
tia_cnt_q : 1 ,
I:reg0x1150=0x5091119.
Q:reg0x1154=0x33351b1f.
RX0 tia case :1,absolute value dc_i : -2 , value dc_q : -6 
####:reg0x1274=0x1e007d.
####:reg0x1278=0x601f6c13.
tia_cnt_i : 108 ,
tia_cnt_q : 1 ,
I:reg0x1150=0x5091119.
Q:reg0x1154=0x33351b1f.
RX0 tia case :2,absolute value dc_i : -4 , value dc_q : -6 
####:reg0x1278=0x20007f.
####:reg0x127c=0x5c236619.
tia_cnt_i : 102 ,
tia_cnt_q : 1 ,
I:reg0x1150=0x5091119.
Q:reg0x1154=0x33351b1f.
RX0 tia case :3,absolute value dc_i : -4 , value dc_q : -7 
####:reg0x127c=0x24007f.
####:reg0x1280=0x4e315a27.
tia_cnt_i : 88 ,
tia_cnt_q : 78 ,
I:reg0x1150=0x5091119.
Q:reg0x1154=0x33351b1f.
RX0 tia case :4,absolute value dc_i : -5 , value dc_q : -7 
####:reg0x1280=0x27f027f.
####:reg0x1284=0x522d5a27.
tia_cnt_i : 88 ,
tia_cnt_q : 82 ,
I:reg0x1150=0x5091119.
Q:reg0x1154=0x33351b1f.
RX0 tia case :5,absolute value dc_i : -5 , value dc_q : -7 
####:reg0x1284=0x27f027f.
####:reg0x1288=0x502f5629.
tia_cnt_i : 86 ,
tia_cnt_q : 1 ,
I:reg0x1150=0x5091119.
Q:reg0x1154=0x33351b1f.
RX0 tia case :6,absolute value dc_i : -5 , value dc_q : -7 
####:reg0x1288=0x30007f.
####:reg0x128c=0x4e31562b.
tia_cnt_i : 84 ,
tia_cnt_q : 78 ,
I:reg0x1150=0x5091119.
Q:reg0x1154=0x33351b1f.
RX0 tia case :7,absolute value dc_i : -5 , value dc_q : -7 
####:reg0x128c=0x27f027f.
####:reg0x1290=0x4a354e31.
tia_cnt_i : 78 ,
tia_cnt_q : 1 ,
I:reg0x1150=0x5091119.
Q:reg0x1154=0x33351b1f.
RX0 tia case :8,absolute value dc_i : -5 , value dc_q : -7 
####:reg0x1290=0x36007f.
####:reg0x1294=0x4a35522f.
tia_cnt_i : 80 ,
tia_cnt_q : 74 ,
I:reg0x1150=0x5091119.
Q:reg0x1154=0x33351b1f.
RX0 tia case :9,absolute value dc_i : -5 , value dc_q : -7 
####:reg0x1294=0x27f027f.
####:reg0x1298=0x4a354c31.
tia_cnt_i : 76 ,
tia_cnt_q : 1 ,
I:reg0x1150=0x5091119.
Q:reg0x1154=0x33351b1f.
RX0 tia case :10,absolute value dc_i : -5 , value dc_q : -7 
####:reg0x1298=0x36007d.
####:reg0x129c=0x4c334e31.
tia_cnt_i : 78 ,
tia_cnt_q : 1 ,
I:reg0x1150=0x5091119.
Q:reg0x1154=0x33351b1f.
RX0 tia case :11,absolute value dc_i : -5 , value dc_q : -7 
####:reg0x129c=0x34007f.
####:reg0x12a0=0x4a354e31.
tia_cnt_i : 78 ,
tia_cnt_q : 1 ,
I:reg0x1150=0x5091119.
Q:reg0x1154=0x33351b1f.
RX0 tia case :12,absolute value dc_i : -5 , value dc_q : -7 
####:reg0x12a0=0x36007f.
rx1 tia cali begin:
Q:reg0x12b0=0x3449364b.
 RX1 :reg0x1130=0x364b3449.
tia_cnt_i : 52 ,
tia_cnt_q : 1 ,
RX1 tia case :0,absolute value dc_i : -4 , value dc_q : 0 
RX1:reg0x12b0=0x24a027f.
Q:reg0x12b4=0x34493449.
 RX1 :reg0x1130=0x34493449.
tia_cnt_i : 52 ,
tia_cnt_q : 1 ,
RX1 tia case :1,absolute value dc_i : -3 , value dc_q : -3 
RX1:reg0x12b4=0x4a007d.
Q:reg0x12b8=0x344b344b.
 RX1 :reg0x1130=0x344b344b.
tia_cnt_i : 52 ,
tia_cnt_q : 1 ,
RX1 tia case :2,absolute value dc_i : -5 , value dc_q : -4 
RX1:reg0x12b8=0x4c007f.
Q:reg0x12bc=0x364b344b.
 RX1 :reg0x1130=0x344b364b.
tia_cnt_i : 52 ,
tia_cnt_q : 1 ,
RX1 tia case :3,absolute value dc_i : -5 , value dc_q : -6 
RX1:reg0x12bc=0x4c007f.
Q:reg0x12c0=0x344b324d.
 RX1 :reg0x1130=0x324d344b.
tia_cnt_i : 4 ,
tia_cnt_q : 52 ,
RX1 tia case :4,absolute value dc_i : -1 , value dc_q : -7 
RX1:reg0x12c0=0x2e7f2e51.
Q:reg0x12c4=0x324d2e51.
 RX1 :reg0x1130=0x2e51324d.
tia_cnt_i : 2 ,
tia_cnt_q : 50 ,
RX1 tia case :5,absolute value dc_i : -1 , value dc_q : -6 
RX1:reg0x12c4=0x2c7f2c53.
Q:reg0x12c8=0x324d2e53.
 RX1 :reg0x1130=0x2e53324d.
tia_cnt_i : 27 ,
tia_cnt_q : 50 ,
RX1 tia case :6,absolute value dc_i : -1 , value dc_q : -6 
RX1:reg0x12c8=0x137f136e.
Q:reg0x12cc=0x324d2c51.
 RX1 :reg0x1130=0x2c51324d.
tia_cnt_i : 17 ,
tia_cnt_q : 50 ,
RX1 tia case :7,absolute value dc_i : -1 , value dc_q : -7 
RX1:reg0x12cc=0x1b7f1b62.
Q:reg0x12d0=0x2e512a55.
 RX1 :reg0x1130=0x2a552e51.
tia_cnt_i : 10 ,
tia_cnt_q : 46 ,
RX1 tia case :8,absolute value dc_i : -1 , value dc_q : -6 
RX1:reg0x12d0=0x207f205f.
Q:reg0x12d4=0x2e512a55.
 RX1 :reg0x1130=0x2a552e51.
tia_cnt_i : 41 ,
tia_cnt_q : 46 ,
RX1 tia case :9,absolute value dc_i : -1 , value dc_q : -5 
RX1:reg0x12d4=0x17f017e.
Q:reg0x12d8=0x2e512a55.
 RX1 :reg0x1130=0x2a552e51.
tia_cnt_i : 21 ,
tia_cnt_q : 46 ,
RX1 tia case :10,absolute value dc_i : -1 , value dc_q : -6 
RX1:reg0x12d8=0x157f156a.
Q:reg0x12dc=0x2e512a55.
 RX1 :reg0x1130=0x2a552e51.
tia_cnt_i : 40 ,
tia_cnt_q : 46 ,
RX1 tia case :11,absolute value dc_i : -1 , value dc_q : -6 
RX1:reg0x12dc=0x27f027d.
Q:reg0x12e0=0x2e512a55.
 RX1 :reg0x1130=0x2a552e51.
tia_cnt_i : 5 ,
tia_cnt_q : 46 ,
RX1 tia case :12,absolute value dc_i : -1 , value dc_q : -8 
RX1:reg0x12e0=0x257f255a.
tia calibration end!
rx0 vga calibration begin
reg0x1120=0x3fc100.
vga case:1 pass.
RX0 vga case:1 ,absolute value dc_i_tmp : 9 , value dc_q_tmp : 8 ,I:reg0x1184=0xf112113.   Q:reg0x11c0=0x33352517.
vga case:2 pass.
RX0 vga case:2 ,absolute value dc_i_tmp : 9 , value dc_q_tmp : 8 ,I:reg0x1188=0xf112113.   Q:reg0x11c4=0x35372315.
vga case:3 pass.
RX0 vga case:3 ,absolute value dc_i_tmp : 8 , value dc_q_tmp : 8 ,I:reg0x118c=0xf112113.   Q:reg0x11c8=0x33352315.
vga case:4 pass.
RX0 vga case:4 ,absolute value dc_i_tmp : 8 , value dc_q_tmp : 8 ,I:reg0x1190=0xf112113.   Q:reg0x11cc=0x35372315.
vga case:5 pass.
RX0 vga case:5 ,absolute value dc_i_tmp : 8 , value dc_q_tmp : 8 ,I:reg0x1194=0xf112113.   Q:reg0x11d0=0x33352517.
vga case:6 pass.
RX0 vga case:6 ,absolute value dc_i_tmp : 8 , value dc_q_tmp : 8 ,I:reg0x1198=0xf132113.   Q:reg0x11d4=0x33372315.
vga case:7 pass.
RX0 vga case:7 ,absolute value dc_i_tmp : 8 , value dc_q_tmp : 8 ,I:reg0x119c=0xf132113.   Q:reg0x11d8=0x33372315.
vga case:8 pass.
RX0 vga case:8 ,absolute value dc_i_tmp : 8 , value dc_q_tmp : 8 ,I:reg0x11a0=0x170f210f.   Q:reg0x11dc=0x37372513.
vga case:9 pass.
RX0 vga case:9 ,absolute value dc_i_tmp : 8 , value dc_q_tmp : 8 ,I:reg0x11a4=0x130f250f.   Q:reg0x11e0=0x31392711.
vga case:10 pass.
RX0 vga case:10 ,absolute value dc_i_tmp : 7 , value dc_q_tmp : 7 ,I:reg0x11a8=0xf15270d.   Q:reg0x11e4=0x35332b0f.
vga case:11 pass.
RX0 vga case:11 ,absolute value dc_i_tmp : 7 , value dc_q_tmp : 5 ,I:reg0x11ac=0x1b0b2d09.   Q:reg0x11e8=0x3f2f310b.
vga case:12 pass.
RX0 vga case:12 ,absolute value dc_i_tmp : 7 , value dc_q_tmp : 7 ,I:reg0x11b0=0x190f2f05.   Q:reg0x11ec=0x372f3507.
vga case:13 pass.
RX0 vga case:13 ,absolute value dc_i_tmp : 6 , value dc_q_tmp : 4 ,I:reg0x11b4=0x170f3501.   Q:reg0x11f0=0x3d393b03.
vga case:14 pass.
RX0 vga case:14 ,absolute value dc_i_tmp : 3 , value dc_q_tmp : 1 ,I:reg0x11b8=0x1293f01.   Q:reg0x11f4=0x13f3f01.
rx1 vga calibration begin
rx1 vga case:1 pass.
RX1 vga case:1 ,absolute value dc_i_tmp : 0 , value dc_q_tmp : 4 ,I:reg0x11fc=0x31312d21. Q:reg0x1238=0x27273125.
rx1 vga case:2 pass.
RX1 vga case:2 ,absolute value dc_i_tmp : 1 , value dc_q_tmp : 4 ,I:reg0x1200=0x33332d21. Q:reg0x123c=0x29293125.
rx1 vga case:3 pass.
RX1 vga case:3 ,absolute value dc_i_tmp : 2 , value dc_q_tmp : 4 ,I:reg0x1204=0x31332d21. Q:reg0x1240=0x27273125.
rx1 vga case:4 pass.
RX1 vga case:4 ,absolute value dc_i_tmp : 1 , value dc_q_tmp : 3 ,I:reg0x1208=0x31332d21. Q:reg0x1244=0x29273125.
rx1 vga case:5 pass.
RX1 vga case:5 ,absolute value dc_i_tmp : 2 , value dc_q_tmp : 3 ,I:reg0x120c=0x31332d21. Q:reg0x1248=0x29273125.
rx1 vga case:6 pass.
RX1 vga case:6 ,absolute value dc_i_tmp : 1 , value dc_q_tmp : 4 ,I:reg0x1210=0x31332d21. Q:reg0x124c=0x29273125.
rx1 vga case:7 pass.
RX1 vga case:7 ,absolute value dc_i_tmp : 1 , value dc_q_tmp : 3 ,I:reg0x1214=0x31352d21. Q:reg0x1250=0x2b273125.
rx1 vga case:8 pass.
RX1 vga case:8 ,absolute value dc_i_tmp : 1 , value dc_q_tmp : 3 ,I:reg0x1218=0x33312f1f. Q:reg0x1254=0x29273325.
rx1 vga case:9 pass.
RX1 vga case:9 ,absolute value dc_i_tmp : 2 , value dc_q_tmp : 2 ,I:reg0x121c=0x3333311d. Q:reg0x1258=0x272b3323.
rx1 vga case:10 pass.
RX1 vga case:10 ,absolute value dc_i_tmp : 1 , value dc_q_tmp : 3 ,I:reg0x1220=0x352f3319. Q:reg0x125c=0x29293521.
rx1 vga case:11 pass.
RX1 vga case:11 ,absolute value dc_i_tmp : 0 , value dc_q_tmp : 2 ,I:reg0x1224=0x372f3717. Q:reg0x1260=0x2f23391f.
rx1 vga case:12 pass.
RX1 vga case:12 ,absolute value dc_i_tmp : 1 , value dc_q_tmp : 4 ,I:reg0x1228=0x332f3b13. Q:reg0x1264=0x29273b1d.
rx1 vga case:13 pass.
RX1 vga case:13 ,absolute value dc_i_tmp : 1 , value dc_q_tmp : 1 ,I:reg0x122c=0x332f3f0f. Q:reg0x1268=0x31233f19.
rx1 vga case:14 pass.
RX1 vga case:14 ,absolute value dc_i_tmp : 1 , value dc_q_tmp : 1 ,I:reg0x1230=0x13f3f03. Q:reg0x126c=0x113b3f11.
reg0x1120=0x3c0100.
vga calibration end!
RX0: 0x103c : e0024000 ,0x1040 : 90001102 
RX1: 0x1054 : e0024000 ,0x1058 : 90001100 
THIS CASE J: 0 M: 9 
adc calibration begin
calibration begin
RX0 cali pre ,absolute value dc_i_tmp : 0 , value dc_q_tmp : 1 ,
reg0x1180=0x1b17070d.
reg0x11bc=0x3337171b.
RX1 cali pre ,absolute value dc_i_tmp : 0 , value dc_q_tmp : 0 ,reg0x11f8=0x33332527.
reg0x1234=0x27272f29.
rx0 tia cali begin:
####:reg0x1270=0x621f700f.
tia_cnt_i : 1 ,
tia_cnt_q : 0 ,
I:reg0x1150=0x1b17070d.
Q:reg0x1154=0x3337171b.
RX0 tia case :0,absolute value dc_i : -1 , value dc_q : -1 
####:reg0x1270=0x621f6f10.
####:reg0x1274=0x621f700f.
tia_cnt_i : 15 ,
tia_cnt_q : 0 ,
I:reg0x1150=0x1b17070d.
Q:reg0x1154=0x3337171b.
RX0 tia case :1,absolute value dc_i : 2 , value dc_q : 0 
####:reg0x1274=0x621f7f00.
####:reg0x1278=0x601f6815.
tia_cnt_i : 21 ,
tia_cnt_q : 0 ,
I:reg0x1150=0x1b17070d.
Q:reg0x1154=0x3337171b.
RX0 tia case :2,absolute value dc_i : 9 , value dc_q : 0 
####:reg0x1278=0x601f7d00.
####:reg0x127c=0x5c216419.
tia_cnt_i : 25 ,
tia_cnt_q : 0 ,
I:reg0x1150=0x1b17070d.
Q:reg0x1154=0x3337171b.
RX0 tia case :3,absolute value dc_i : 12 , value dc_q : 0 
####:reg0x127c=0x5c217d00.
####:reg0x1280=0x522d5a27.
tia_cnt_i : 37 ,
tia_cnt_q : 0 ,
I:reg0x1150=0x1b17070d.
Q:reg0x1154=0x3337171b.
RX0 tia case :4,absolute value dc_i : 13 , value dc_q : 1 
####:reg0x1280=0x522d7f02.
####:reg0x1284=0x522d5825.
tia_cnt_i : 37 ,
tia_cnt_q : 0 ,
I:reg0x1150=0x1b17070d.
Q:reg0x1154=0x3337171b.
RX0 tia case :5,absolute value dc_i : 13 , value dc_q : 1 
####:reg0x1284=0x522d7d00.
####:reg0x1288=0x522d5629.
tia_cnt_i : 41 ,
tia_cnt_q : 0 ,
I:reg0x1150=0x1b17070d.
Q:reg0x1154=0x3337171b.
RX0 tia case :6,absolute value dc_i : 14 , value dc_q : 0 
####:reg0x1288=0x522d7f00.
####:reg0x128c=0x4e315629.
tia_cnt_i : 41 ,
tia_cnt_q : 0 ,
I:reg0x1150=0x1b17070d.
Q:reg0x1154=0x3337171b.
RX0 tia case :7,absolute value dc_i : 13 , value dc_q : 1 
####:reg0x128c=0x4e317f00.
####:reg0x1290=0x4a354e31.
tia_cnt_i : 49 ,
tia_cnt_q : 0 ,
I:reg0x1150=0x1b17070d.
Q:reg0x1154=0x3337171b.
RX0 tia case :8,absolute value dc_i : 13 , value dc_q : 1 
####:reg0x1290=0x4a357f00.
####:reg0x1294=0x4a35502d.
tia_cnt_i : 45 ,
tia_cnt_q : 0 ,
I:reg0x1150=0x1b17070d.
Q:reg0x1154=0x3337171b.
RX0 tia case :9,absolute value dc_i : 14 , value dc_q : 1 
####:reg0x1294=0x4a357d00.
####:reg0x1298=0x4a354e31.
tia_cnt_i : 49 ,
tia_cnt_q : 0 ,
I:reg0x1150=0x1b17070d.
Q:reg0x1154=0x3337171b.
RX0 tia case :10,absolute value dc_i : 14 , value dc_q : 1 
####:reg0x1298=0x4a357f00.
####:reg0x129c=0x4c334e31.
tia_cnt_i : 49 ,
tia_cnt_q : 0 ,
I:reg0x1150=0x1b17070d.
Q:reg0x1154=0x3337171b.
RX0 tia case :11,absolute value dc_i : 14 , value dc_q : 1 
####:reg0x129c=0x4c337f00.
####:reg0x12a0=0x4a354e31.
tia_cnt_i : 49 ,
tia_cnt_q : 0 ,
I:reg0x1150=0x1b17070d.
Q:reg0x1154=0x3337171b.
RX0 tia case :12,absolute value dc_i : 14 , value dc_q : 0 
####:reg0x12a0=0x4a357f00.
rx1 tia cali begin:
Q:reg0x12b0=0x3449324d.
 RX1 :reg0x1130=0x324d3449.
tia_cnt_i : 50 ,
tia_cnt_q : 0 ,
RX1 tia case :0,absolute value dc_i : -2 , value dc_q : 0 
RX1:reg0x12b0=0x3449007f.
Q:reg0x12b4=0x3449324d.
 RX1 :reg0x1130=0x324d3449.
tia_cnt_i : 50 ,
tia_cnt_q : 0 ,
RX1 tia case :1,absolute value dc_i : -2 , value dc_q : -1 
RX1:reg0x12b4=0x3449007f.
Q:reg0x12b8=0x3449324d.
 RX1 :reg0x1130=0x324d3449.
tia_cnt_i : 0 ,
tia_cnt_q : 9 ,
RX1 tia case :2,absolute value dc_i : -1 , value dc_q : -1 
RX1:reg0x12b8=0x3252324d.
Q:reg0x12bc=0x344b344b.
 RX1 :reg0x1130=0x344b344b.
tia_cnt_i : 0 ,
tia_cnt_q : 30 ,
RX1 tia case :3,absolute value dc_i : -1 , value dc_q : -1 
RX1:reg0x12bc=0x3469344b.
Q:reg0x12c0=0x344b324d.
 RX1 :reg0x1130=0x324d344b.
tia_cnt_i : 0 ,
tia_cnt_q : 52 ,
RX1 tia case :4,absolute value dc_i : 0 , value dc_q : -2 
RX1:reg0x12c0=0x327f324d.
Q:reg0x12c4=0x304d2e51.
 RX1 :reg0x1130=0x2e51304d.
tia_cnt_i : 0 ,
tia_cnt_q : 50 ,
RX1 tia case :5,absolute value dc_i : 0 , value dc_q : -2 
RX1:reg0x12c4=0x2e7f2e51.
Q:reg0x12c8=0x304d2e51.
 RX1 :reg0x1130=0x2e51304d.
tia_cnt_i : 0 ,
tia_cnt_q : 50 ,
RX1 tia case :6,absolute value dc_i : 0 , value dc_q : -2 
RX1:reg0x12c8=0x2e7f2e51.
Q:reg0x12cc=0x304d2c51.
 RX1 :reg0x1130=0x2c51304d.
tia_cnt_i : 0 ,
tia_cnt_q : 50 ,
RX1 tia case :7,absolute value dc_i : 0 , value dc_q : -2 
RX1:reg0x12cc=0x2c7f2c51.
Q:reg0x12d0=0x2c512c53.
 RX1 :reg0x1130=0x2c532c51.
tia_cnt_i : 0 ,
tia_cnt_q : 46 ,
RX1 tia case :8,absolute value dc_i : 0 , value dc_q : -2 
RX1:reg0x12d0=0x2c7f2c53.
Q:reg0x12d4=0x2e512a55.
 RX1 :reg0x1130=0x2a552e51.
tia_cnt_i : 0 ,
tia_cnt_q : 46 ,
RX1 tia case :9,absolute value dc_i : 0 , value dc_q : -2 
RX1:reg0x12d4=0x2a7f2a55.
Q:reg0x12d8=0x2e512c53.
 RX1 :reg0x1130=0x2c532e51.
tia_cnt_i : 0 ,
tia_cnt_q : 46 ,
RX1 tia case :10,absolute value dc_i : 0 , value dc_q : -2 
RX1:reg0x12d8=0x2c7f2c53.
Q:reg0x12dc=0x2e512a55.
 RX1 :reg0x1130=0x2a552e51.
tia_cnt_i : 0 ,
tia_cnt_q : 46 ,
RX1 tia case :11,absolute value dc_i : 0 , value dc_q : -2 
RX1:reg0x12dc=0x2a7f2a55.
Q:reg0x12e0=0x2e512c53.
 RX1 :reg0x1130=0x2c532e51.
tia_cnt_i : 0 ,
tia_cnt_q : 46 ,
RX1 tia case :12,absolute value dc_i : 0 , value dc_q : -2 
RX1:reg0x12e0=0x2c7f2c53.
tia calibration end!
rx0 vga calibration begin
reg0x1120=0x3fc100.
vga case:1 pass.
RX0 vga case:1 ,absolute value dc_i_tmp : 1 , value dc_q_tmp : 1 ,I:reg0x1184=0xf0f171d.   Q:reg0x11c0=0x33351d21.
vga case:2 pass.
RX0 vga case:2 ,absolute value dc_i_tmp : 1 , value dc_q_tmp : 1 ,I:reg0x1188=0xf0f171d.   Q:reg0x11c4=0x3135191d.
vga case:3 pass.
RX0 vga case:3 ,absolute value dc_i_tmp : 1 , value dc_q_tmp : 0 ,I:reg0x118c=0xf0f171d.   Q:reg0x11c8=0x35331d1f.
vga case:4 pass.
RX0 vga case:4 ,absolute value dc_i_tmp : 1 , value dc_q_tmp : 0 ,I:reg0x1190=0x110f171d.   Q:reg0x11cc=0x3337191d.
vga case:5 pass.
RX0 vga case:5 ,absolute value dc_i_tmp : 1 , value dc_q_tmp : 0 ,I:reg0x1194=0x110f171d.   Q:reg0x11d0=0x3135191d.
vga case:6 pass.
RX0 vga case:6 ,absolute value dc_i_tmp : 1 , value dc_q_tmp : 1 ,I:reg0x1198=0x110f171d.   Q:reg0x11d4=0x31371b1f.
vga case:7 pass.
RX0 vga case:7 ,absolute value dc_i_tmp : 1 , value dc_q_tmp : 1 ,I:reg0x119c=0x130f171d.   Q:reg0x11d8=0x3137191d.
vga case:8 pass.
RX0 vga case:8 ,absolute value dc_i_tmp : 0 , value dc_q_tmp : 0 ,I:reg0x11a0=0x110f151d.   Q:reg0x11dc=0x33371b1f.
vga case:9 pass.
RX0 vga case:9 ,absolute value dc_i_tmp : 0 , value dc_q_tmp : 0 ,I:reg0x11a4=0x150d1721.   Q:reg0x11e0=0x39311d21.
vga case:10 pass.
RX0 vga case:10 ,absolute value dc_i_tmp : 1 , value dc_q_tmp : 1 ,I:reg0x11a8=0x110f1321.   Q:reg0x11e4=0x392f1d21.
vga case:11 pass.
RX0 vga case:11 ,absolute value dc_i_tmp : 0 , value dc_q_tmp : 0 ,I:reg0x11ac=0xd170f23.   Q:reg0x11e8=0x312f1b21.
vga case:12 pass.
RX0 vga case:12 ,absolute value dc_i_tmp : 1 , value dc_q_tmp : 1 ,I:reg0x11b0=0x150f0d23.   Q:reg0x11ec=0x2f371921.
vga case:13 pass.
RX0 vga case:13 ,absolute value dc_i_tmp : 1 , value dc_q_tmp : 0 ,I:reg0x11b4=0x130f0b27.   Q:reg0x11f0=0x37311921.
vga case:14 pass.
RX0 vga case:14 ,absolute value dc_i_tmp : 0 , value dc_q_tmp : 2 ,I:reg0x11b8=0x1f07092f.   Q:reg0x11f4=0x3f2d1923.
rx1 vga calibration begin
rx1 vga case:1 pass.
RX1 vga case:1 ,absolute value dc_i_tmp : 0 , value dc_q_tmp : 1 ,I:reg0x11fc=0x33312d21. Q:reg0x1238=0x27292d29.
rx1 vga case:2 pass.
RX1 vga case:2 ,absolute value dc_i_tmp : 0 , value dc_q_tmp : 1 ,I:reg0x1200=0x33312d21. Q:reg0x123c=0x27292d29.
rx1 vga case:3 pass.
RX1 vga case:3 ,absolute value dc_i_tmp : 1 , value dc_q_tmp : 1 ,I:reg0x1204=0x31312d21. Q:reg0x1240=0x27292d29.
rx1 vga case:4 pass.
RX1 vga case:4 ,absolute value dc_i_tmp : 1 , value dc_q_tmp : 0 ,I:reg0x1208=0x31312d21. Q:reg0x1244=0x27292d29.
rx1 vga case:5 pass.
RX1 vga case:5 ,absolute value dc_i_tmp : 1 , value dc_q_tmp : 1 ,I:reg0x120c=0x31312d21. Q:reg0x1248=0x27292d29.
rx1 vga case:6 pass.
RX1 vga case:6 ,absolute value dc_i_tmp : 0 , value dc_q_tmp : 1 ,I:reg0x1210=0x33312d21. Q:reg0x124c=0x27292d29.
rx1 vga case:7 pass.
RX1 vga case:7 ,absolute value dc_i_tmp : 0 , value dc_q_tmp : 1 ,I:reg0x1214=0x33312d21. Q:reg0x1250=0x25292d29.
rx1 vga case:8 pass.
RX1 vga case:8 ,absolute value dc_i_tmp : 0 , value dc_q_tmp : 1 ,I:reg0x1218=0x31352d1f. Q:reg0x1254=0x29232f29.
rx1 vga case:9 pass.
RX1 vga case:9 ,absolute value dc_i_tmp : 1 , value dc_q_tmp : 0 ,I:reg0x121c=0x2f352f1d. Q:reg0x1258=0x27252f29.
rx1 vga case:10 pass.
RX1 vga case:10 ,absolute value dc_i_tmp : 0 , value dc_q_tmp : 1 ,I:reg0x1220=0x352f331b. Q:reg0x125c=0x27292d27.
rx1 vga case:11 pass.
RX1 vga case:11 ,absolute value dc_i_tmp : 0 , value dc_q_tmp : 1 ,I:reg0x1224=0x352f3517. Q:reg0x1260=0x29272f27.
rx1 vga case:12 pass.
RX1 vga case:12 ,absolute value dc_i_tmp : 1 , value dc_q_tmp : 0 ,I:reg0x1228=0x2d353915. Q:reg0x1264=0x2b253127.
rx1 vga case:13 pass.
RX1 vga case:13 ,absolute value dc_i_tmp : 1 , value dc_q_tmp : 1 ,I:reg0x122c=0x372d3d0f. Q:reg0x1268=0x292d3127.
rx1 vga case:14 pass.
RX1 vga case:14 ,absolute value dc_i_tmp : 1 , value dc_q_tmp : 1 ,I:reg0x1230=0x13f3f07. Q:reg0x126c=0x27293325.
reg0x1120=0x3c0100.
vga calibration end!
RX0: 0x103c : e0028000 ,0x1040 : a0001102 
RX1: 0x1054 : e0028000 ,0x1058 : a0001100 
THIS CASE J: 0 M:10 
adc calibration begin
calibration begin
RX0 cali pre ,absolute value dc_i_tmp : 1 , value dc_q_tmp : 1 ,
reg0x1180=0xf11151d.
reg0x11bc=0x3135191d.
RX1 cali pre ,absolute value dc_i_tmp : 0 , value dc_q_tmp : 0 ,reg0x11f8=0x33332527.
reg0x1234=0x29292f29.
rx0 tia cali begin:
####:reg0x1270=0x601d6e13.
tia_cnt_i : 0 ,
tia_cnt_q : 0 ,
I:reg0x1150=0xf11151d.
Q:reg0x1154=0x3135191d.
RX0 tia case :0,absolute value dc_i : -1 , value dc_q : -1 
####:reg0x1270=0x601d6e13.
####:reg0x1274=0x601d6c11.
tia_cnt_i : 10 ,
tia_cnt_q : 0 ,
I:reg0x1150=0xf11151d.
Q:reg0x1154=0x3135191d.
RX0 tia case :1,absolute value dc_i : 1 , value dc_q : -1 
####:reg0x1274=0x601d7607.
####:reg0x1278=0x5e216c13.
tia_cnt_i : 19 ,
tia_cnt_q : 0 ,
I:reg0x1150=0xf11151d.
Q:reg0x1154=0x3135191d.
RX0 tia case :2,absolute value dc_i : 3 , value dc_q : 0 
####:reg0x1278=0x5e217f00.
####:reg0x127c=0x5e23661b.
tia_cnt_i : 25 ,
tia_cnt_q : 0 ,
I:reg0x1150=0xf11151d.
Q:reg0x1154=0x3135191d.
RX0 tia case :3,absolute value dc_i : 4 , value dc_q : 0 
####:reg0x127c=0x5e237f02.
####:reg0x1280=0x522d5a27.
tia_cnt_i : 37 ,
tia_cnt_q : 0 ,
I:reg0x1150=0xf11151d.
Q:reg0x1154=0x3135191d.
RX0 tia case :4,absolute value dc_i : 5 , value dc_q : 0 
####:reg0x1280=0x522d7f02.
####:reg0x1284=0x522d5825.
tia_cnt_i : 37 ,
tia_cnt_q : 0 ,
I:reg0x1150=0xf11151d.
Q:reg0x1154=0x3135191d.
RX0 tia case :5,absolute value dc_i : 5 , value dc_q : 0 
####:reg0x1284=0x522d7d00.
####:reg0x1288=0x502f5827.
tia_cnt_i : 39 ,
tia_cnt_q : 0 ,
I:reg0x1150=0xf11151d.
Q:reg0x1154=0x3135191d.
RX0 tia case :6,absolute value dc_i : 5 , value dc_q : 0 
####:reg0x1288=0x502f7f00.
####:reg0x128c=0x4c315629.
tia_cnt_i : 41 ,
tia_cnt_q : 0 ,
I:reg0x1150=0xf11151d.
Q:reg0x1154=0x3135191d.
RX0 tia case :7,absolute value dc_i : 5 , value dc_q : 0 
####:reg0x128c=0x4c317f00.
####:reg0x1290=0x4a354c31.
tia_cnt_i : 49 ,
tia_cnt_q : 0 ,
I:reg0x1150=0xf11151d.
Q:reg0x1154=0x3135191d.
RX0 tia case :8,absolute value dc_i : 5 , value dc_q : 0 
####:reg0x1290=0x4a357d00.
####:reg0x1294=0x4a354e31.
tia_cnt_i : 49 ,
tia_cnt_q : 0 ,
I:reg0x1150=0xf11151d.
Q:reg0x1154=0x3135191d.
RX0 tia case :9,absolute value dc_i : 5 , value dc_q : 0 
####:reg0x1294=0x4a357f00.
####:reg0x1298=0x4a354e31.
tia_cnt_i : 49 ,
tia_cnt_q : 0 ,
I:reg0x1150=0xf11151d.
Q:reg0x1154=0x3135191d.
RX0 tia case :10,absolute value dc_i : 5 , value dc_q : 0 
####:reg0x1298=0x4a357f00.
####:reg0x129c=0x4a35502d.
tia_cnt_i : 45 ,
tia_cnt_q : 0 ,
I:reg0x1150=0xf11151d.
Q:reg0x1154=0x3135191d.
RX0 tia case :11,absolute value dc_i : 5 , value dc_q : 0 
####:reg0x129c=0x4a357d00.
####:reg0x12a0=0x4c334e31.
tia_cnt_i : 49 ,
tia_cnt_q : 0 ,
I:reg0x1150=0xf11151d.
Q:reg0x1154=0x3135191d.
RX0 tia case :12,absolute value dc_i : 5 , value dc_q : 0 
####:reg0x12a0=0x4c337f00.
rx1 tia cali begin:
Q:reg0x12b0=0x344b324d.
 RX1 :reg0x1130=0x324d344b.
tia_cnt_i : 50 ,
tia_cnt_q : 0 ,
RX1 tia case :0,absolute value dc_i : -2 , value dc_q : 0 
RX1:reg0x12b0=0x344b007f.
Q:reg0x12b4=0x3449324d.
 RX1 :reg0x1130=0x324d3449.
tia_cnt_i : 8 ,
tia_cnt_q : 0 ,
RX1 tia case :1,absolute value dc_i : -1 , value dc_q : -1 
RX1:reg0x12b4=0x34492a55.
Q:reg0x12b8=0x364b324d.
 RX1 :reg0x1130=0x324d364b.
tia_cnt_i : 0 ,
tia_cnt_q : 9 ,
RX1 tia case :2,absolute value dc_i : -1 , value dc_q : -1 
RX1:reg0x12b8=0x3254324d.
Q:reg0x12bc=0x364b344b.
 RX1 :reg0x1130=0x344b364b.
tia_cnt_i : 0 ,
tia_cnt_q : 42 ,
RX1 tia case :3,absolute value dc_i : 0 , value dc_q : -1 
RX1:reg0x12bc=0x3475344b.
Q:reg0x12c0=0x344b304d.
 RX1 :reg0x1130=0x304d344b.
tia_cnt_i : 0 ,
tia_cnt_q : 52 ,
RX1 tia case :4,absolute value dc_i : 0 , value dc_q : -2 
RX1:reg0x12c0=0x307f304d.
Q:reg0x12c4=0x2e512e53.
 RX1 :reg0x1130=0x2e532e51.
tia_cnt_i : 0 ,
tia_cnt_q : 46 ,
RX1 tia case :5,absolute value dc_i : 0 , value dc_q : -2 
RX1:reg0x12c4=0x2e7f2e53.
Q:reg0x12c8=0x324d2e51.
 RX1 :reg0x1130=0x2e51324d.
tia_cnt_i : 0 ,
tia_cnt_q : 50 ,
RX1 tia case :6,absolute value dc_i : 0 , value dc_q : -2 
RX1:reg0x12c8=0x2e7f2e51.
Q:reg0x12cc=0x2e512c51.
 RX1 :reg0x1130=0x2c512e51.
tia_cnt_i : 0 ,
tia_cnt_q : 46 ,
RX1 tia case :7,absolute value dc_i : 0 , value dc_q : -2 
RX1:reg0x12cc=0x2c7f2c51.
Q:reg0x12d0=0x2e512c53.
 RX1 :reg0x1130=0x2c532e51.
tia_cnt_i : 0 ,
tia_cnt_q : 46 ,
RX1 tia case :8,absolute value dc_i : 0 , value dc_q : -2 
RX1:reg0x12d0=0x2c7f2c53.
Q:reg0x12d4=0x2e512c53.
 RX1 :reg0x1130=0x2c532e51.
tia_cnt_i : 0 ,
tia_cnt_q : 46 ,
RX1 tia case :9,absolute value dc_i : 0 , value dc_q : -2 
RX1:reg0x12d4=0x2c7f2c53.
Q:reg0x12d8=0x304f2a55.
 RX1 :reg0x1130=0x2a55304f.
tia_cnt_i : 0 ,
tia_cnt_q : 48 ,
RX1 tia case :10,absolute value dc_i : -1 , value dc_q : -2 
RX1:reg0x12d8=0x2a7f2a55.
Q:reg0x12dc=0x2e512c53.
 RX1 :reg0x1130=0x2c532e51.
tia_cnt_i : 0 ,
tia_cnt_q : 46 ,
RX1 tia case :11,absolute value dc_i : -1 , value dc_q : -2 
RX1:reg0x12dc=0x2c7f2c53.
Q:reg0x12e0=0x2e512c53.
 RX1 :reg0x1130=0x2c532e51.
tia_cnt_i : 0 ,
tia_cnt_q : 46 ,
RX1 tia case :12,absolute value dc_i : 0 , value dc_q : -2 
RX1:reg0x12e0=0x2c7f2c53.
tia calibration end!
rx0 vga calibration begin
reg0x1120=0x3fc100.
vga case:1 pass.
RX0 vga case:1 ,absolute value dc_i_tmp : 1 , value dc_q_tmp : 1 ,I:reg0x1184=0xf0f171d.   Q:reg0x11c0=0x33351d21.
vga case:2 pass.
RX0 vga case:2 ,absolute value dc_i_tmp : 1 , value dc_q_tmp : 1 ,I:reg0x1188=0x1111171d.   Q:reg0x11c4=0x33351d21.
vga case:3 pass.
RX0 vga case:3 ,absolute value dc_i_tmp : 1 , value dc_q_tmp : 1 ,I:reg0x118c=0xf0f171d.   Q:reg0x11c8=0x33351d21.
vga case:4 pass.
RX0 vga case:4 ,absolute value dc_i_tmp : 1 , value dc_q_tmp : 1 ,I:reg0x1190=0xf0f171d.   Q:reg0x11cc=0x3337191d.
vga case:5 pass.
RX0 vga case:5 ,absolute value dc_i_tmp : 1 , value dc_q_tmp : 1 ,I:reg0x1194=0x1111171d.   Q:reg0x11d0=0x3135191d.
vga case:6 pass.
RX0 vga case:6 ,absolute value dc_i_tmp : 1 , value dc_q_tmp : 1 ,I:reg0x1198=0xf0f171d.   Q:reg0x11d4=0x33351d21.
vga case:7 pass.
RX0 vga case:7 ,absolute value dc_i_tmp : 1 , value dc_q_tmp : 0 ,I:reg0x119c=0xf0f171d.   Q:reg0x11d8=0x3339191d.
vga case:8 pass.
RX0 vga case:8 ,absolute value dc_i_tmp : 1 , value dc_q_tmp : 1 ,I:reg0x11a0=0xf11151d.   Q:reg0x11dc=0x31351b1f.
vga case:9 pass.
RX0 vga case:9 ,absolute value dc_i_tmp : 1 , value dc_q_tmp : 0 ,I:reg0x11a4=0xf0f151f.   Q:reg0x11e0=0x37351b1f.
vga case:10 pass.
RX0 vga case:10 ,absolute value dc_i_tmp : 0 , value dc_q_tmp : 1 ,I:reg0x11a8=0x170d1521.   Q:reg0x11e4=0x3f311d21.
vga case:11 pass.
RX0 vga case:11 ,absolute value dc_i_tmp : 1 , value dc_q_tmp : 0 ,I:reg0x11ac=0xf0f1123.   Q:reg0x11e8=0x2f3d1921.
vga case:12 pass.
RX0 vga case:12 ,absolute value dc_i_tmp : 1 , value dc_q_tmp : 1 ,I:reg0x11b0=0x1d0b0f23.   Q:reg0x11ec=0x3d2f1b21.
vga case:13 pass.
RX0 vga case:13 ,absolute value dc_i_tmp : 1 , value dc_q_tmp : 0 ,I:reg0x11b4=0x1d0f0d27.   Q:reg0x11f0=0x3d2f1921.
vga case:14 pass.
RX0 vga case:14 ,absolute value dc_i_tmp : 0 , value dc_q_tmp : 1 ,I:reg0x11b8=0x2107092d.   Q:reg0x11f4=0x1f1f1923.
rx1 vga calibration begin
rx1 vga case:1 pass.
RX1 vga case:1 ,absolute value dc_i_tmp : 1 , value dc_q_tmp : 0 ,I:reg0x11fc=0x31312d21. Q:reg0x1238=0x27292d29.
rx1 vga case:2 pass.
RX1 vga case:2 ,absolute value dc_i_tmp : 1 , value dc_q_tmp : 0 ,I:reg0x1200=0x31312d21. Q:reg0x123c=0x27292d29.
rx1 vga case:3 pass.
RX1 vga case:3 ,absolute value dc_i_tmp : 1 , value dc_q_tmp : 0 ,I:reg0x1204=0x31312d21. Q:reg0x1240=0x27292d29.
rx1 vga case:4 pass.
RX1 vga case:4 ,absolute value dc_i_tmp : 1 , value dc_q_tmp : 0 ,I:reg0x1208=0x31312d21. Q:reg0x1244=0x27292d29.
rx1 vga case:5 pass.
RX1 vga case:5 ,absolute value dc_i_tmp : 0 , value dc_q_tmp : 1 ,I:reg0x120c=0x33312d21. Q:reg0x1248=0x25292d29.
rx1 vga case:6 pass.
RX1 vga case:6 ,absolute value dc_i_tmp : 1 , value dc_q_tmp : 1 ,I:reg0x1210=0x33312d21. Q:reg0x124c=0x25292d29.
rx1 vga case:7 pass.
RX1 vga case:7 ,absolute value dc_i_tmp : 0 , value dc_q_tmp : 1 ,I:reg0x1214=0x33312d21. Q:reg0x1250=0x272b2d29.
rx1 vga case:8 pass.
RX1 vga case:8 ,absolute value dc_i_tmp : 1 , value dc_q_tmp : 1 ,I:reg0x1218=0x2f352d1f. Q:reg0x1254=0x29252f29.
rx1 vga case:9 pass.
RX1 vga case:9 ,absolute value dc_i_tmp : 1 , value dc_q_tmp : 1 ,I:reg0x121c=0x2f352f1d. Q:reg0x1258=0x27292f29.
rx1 vga case:10 pass.
RX1 vga case:10 ,absolute value dc_i_tmp : 1 , value dc_q_tmp : 0 ,I:reg0x1220=0x332f331b. Q:reg0x125c=0x2d272f27.
rx1 vga case:11 pass.
RX1 vga case:11 ,absolute value dc_i_tmp : 0 , value dc_q_tmp : 0 ,I:reg0x1224=0x35313517. Q:reg0x1260=0x27292f27.
rx1 vga case:12 pass.
RX1 vga case:12 ,absolute value dc_i_tmp : 0 , value dc_q_tmp : 1 ,I:reg0x1228=0x372f3913. Q:reg0x1264=0x29273127.
rx1 vga case:13 pass.
RX1 vga case:13 ,absolute value dc_i_tmp : 1 , value dc_q_tmp : 1 ,I:reg0x122c=0x2f333b0f. Q:reg0x1268=0x2d273125.
rx1 vga case:14 pass.
RX1 vga case:14 ,absolute value dc_i_tmp : 1 , value dc_q_tmp : 0 ,I:reg0x1230=0x13f3f07. Q:reg0x126c=0x33213523.
reg0x1120=0x3c0100.
vga calibration end!
RX0: 0x103c : e002c000 ,0x1040 : b0001102 
RX1: 0x1054 : e002c000 ,0x1058 : b0001100 
THIS CASE J: 0 M:11 
adc calibration begin
calibration begin
RX0 cali pre ,absolute value dc_i_tmp : 10 , value dc_q_tmp : 2 ,
reg0x1180=0xf0f171d.
reg0x11bc=0x3335191d.
RX1 cali pre ,absolute value dc_i_tmp : 15 , value dc_q_tmp : 0 ,reg0x11f8=0x33332527.
reg0x1234=0x27272f29.
rx0 tia cali begin:
####:reg0x1270=0x621d6a15.
tia_cnt_i : 106 ,
tia_cnt_q : 31 ,
I:reg0x1150=0xf0f171d.
