
read pll state:0x77 
pll state:0x0000007F! 
RX0: 0x103c : e0000000 ,0x1040 :        0 
RX1: 0x1054 : e0000000 ,0x1058 : 0 
THIS CASE J: 0 M: 0 
adc calibration begin
calibration begin
RX0 cali pre ,absolute value dc_i_tmp : 1 , value dc_q_tmp : 1 ,

reg0x1180=0x27292523.
reg0x11bc=0x17172527.
RX1 cali pre ,absolute value dc_i_tmp : 2 , value dc_q_tmp : 1 ,reg0x11f8=0x292b1f1d.
reg0x1234=0x3f3f1f1b.
rx0 tia cali begin:
####:reg0x1270=0x4a374c31.
tia_cnt_i : 1 ,
tia_cnt_q : 1 ,
I:reg0x1150=0x27292523.
Q:reg0x1154=0x17172527.
RX0 tia case :0,absolute value dc_i : -1 , value dc_q : -1 
####:reg0x1270=0x4b384b32.
####:reg0x1274=0x4a374c33.
tia_cnt_i : 0 ,
tia_cnt_q : 0 ,
I:reg0x1150=0x27292523.
Q:reg0x1154=0x17172527.
RX0 tia case :1,absolute value dc_i : -1 , value dc_q : 1 
####:reg0x1274=0x4a374c33.
####:reg0x1278=0x4a374c33.
tia_cnt_i : 1 ,
tia_cnt_q : 0 ,
I:reg0x1150=0x27292523.
Q:reg0x1154=0x17172527.
RX0 tia case :2,absolute value dc_i : -1 , value dc_q : 1 
####:reg0x1278=0x4a374b34.
####:reg0x127c=0x46394835.
tia_cnt_i : 1 ,
tia_cnt_q : 5 ,
I:reg0x1150=0x27292523.
Q:reg0x1154=0x17172527.
RX0 tia case :3,absolute value dc_i : -1 , value dc_q : 1 
####:reg0x127c=0x47344736.
####:reg0x1280=0x443b443b.
tia_cnt_i : 5 ,
tia_cnt_q : 0 ,
I:reg0x1150=0x27292523.
Q:reg0x1154=0x17172527.
RX0 tia case :4,absolute value dc_i : -1 , value dc_q : -1 
####:reg0x1280=0x443b3f40.
####:reg0x1284=0x423d3e41.
tia_cnt_i : 2 ,
tia_cnt_q : 38 ,
I:reg0x1150=0x27292523.
Q:reg0x1154=0x17172527.
RX0 tia case :5,absolute value dc_i : -1 , value dc_q : 1 
####:reg0x1284=0x3c173c43.
####:reg0x1288=0x3e413e41.
tia_cnt_i : 1 ,
tia_cnt_q : 33 ,
I:reg0x1150=0x27292523.
Q:reg0x1154=0x17172527.
RX0 tia case :6,absolute value dc_i : -1 , value dc_q : 1 
####:reg0x1288=0x3d203d42.
####:reg0x128c=0x3e433c41.
tia_cnt_i : 2 ,
tia_cnt_q : 0 ,
I:reg0x1150=0x27292523.
Q:reg0x1154=0x17172527.
RX0 tia case :7,absolute value dc_i : -1 , value dc_q : -1 
####:reg0x128c=0x3e433a43.
####:reg0x1290=0x3c413a45.
tia_cnt_i : 1 ,
tia_cnt_q : 0 ,
I:reg0x1150=0x27292523.
Q:reg0x1154=0x17172527.
RX0 tia case :8,absolute value dc_i : -1 , value dc_q : -1 
####:reg0x1290=0x3c413946.
####:reg0x1294=0x3c433c41.
tia_cnt_i : 1 ,
tia_cnt_q : 0 ,
I:reg0x1150=0x27292523.
Q:reg0x1154=0x17172527.
RX0 tia case :9,absolute value dc_i : -1 , value dc_q : -1 
####:reg0x1294=0x3c433b42.
####:reg0x1298=0x3c433e43.
tia_cnt_i : 3 ,
tia_cnt_q : 0 ,
I:reg0x1150=0x27292523.
Q:reg0x1154=0x17172527.
RX0 tia case :10,absolute value dc_i : -1 , value dc_q : -1 
####:reg0x1298=0x3c433b46.
####:reg0x129c=0x3c433c43.
tia_cnt_i : 1 ,
tia_cnt_q : 47 ,
I:reg0x1150=0x27292523.
Q:reg0x1154=0x17172527.
RX0 tia case :11,absolute value dc_i : -1 , value dc_q : 1 
####:reg0x129c=0x3b143b44.
####:reg0x12a0=0x3c433c43.
tia_cnt_i : 3 ,
tia_cnt_q : 0 ,
I:reg0x1150=0x27292523.
Q:reg0x1154=0x17172527.
RX0 tia case :12,absolute value dc_i : -1 , value dc_q : -1 
####:reg0x12a0=0x3c433946.
rx1 tia cali begin:
Q:reg0x12b0=0x4439463b.
 RX1 :reg0x1130=0x463b4439.
tia_cnt_i : 0 ,
tia_cnt_q : 0 ,
RX1 tia case :0,absolute value dc_i : -1 , value dc_q : -1 
RX1:reg0x12b0=0x4439463b.
Q:reg0x12b4=0x4439463b.
 RX1 :reg0x1130=0x463b4439.
tia_cnt_i : 0 ,
tia_cnt_q : 0 ,
RX1 tia case :1,absolute value dc_i : -1 , value dc_q : 0 
RX1:reg0x12b4=0x4439463b.
Q:reg0x12b8=0x4439443b.
 RX1 :reg0x1130=0x443b4439.
tia_cnt_i : 68 ,
tia_cnt_q : 0 ,
RX1 tia case :2,absolute value dc_i : -2 , value dc_q : 0 
RX1:reg0x12b8=0x4439007f.
Q:reg0x12bc=0x463b4439.
 RX1 :reg0x1130=0x4439463b.
tia_cnt_i : 68 ,
tia_cnt_q : 0 ,
RX1 tia case :3,absolute value dc_i : -2 , value dc_q : 0 
RX1:reg0x12bc=0x463b007d.
Q:reg0x12c0=0x44393e41.
 RX1 :reg0x1130=0x3e414439.
tia_cnt_i : 62 ,
tia_cnt_q : 0 ,
RX1 tia case :4,absolute value dc_i : -2 , value dc_q : 0 
RX1:reg0x12c0=0x4439007f.
Q:reg0x12c4=0x3e433e43.
 RX1 :reg0x1130=0x3e433e43.
tia_cnt_i : 60 ,
tia_cnt_q : 0 ,
RX1 tia case :5,absolute value dc_i : -2 , value dc_q : 0 
RX1:reg0x12c4=0x3e43027f.
Q:reg0x12c8=0x3c433e43.
 RX1 :reg0x1130=0x3e433c43.
tia_cnt_i : 60 ,
tia_cnt_q : 0 ,
RX1 tia case :6,absolute value dc_i : -2 , value dc_q : 0 
RX1:reg0x12c8=0x3c43027f.
Q:reg0x12cc=0x3c413c41.
 RX1 :reg0x1130=0x3c413c41.
tia_cnt_i : 60 ,
tia_cnt_q : 0 ,
RX1 tia case :7,absolute value dc_i : -2 , value dc_q : 0 
RX1:reg0x12cc=0x3c41007d.
Q:reg0x12d0=0x3c433a45.
 RX1 :reg0x1130=0x3a453c43.
tia_cnt_i : 58 ,
tia_cnt_q : 0 ,
RX1 tia case :8,absolute value dc_i : -2 , value dc_q : 0 
RX1:reg0x12d0=0x3c43007f.
Q:reg0x12d4=0x3c433c43.
 RX1 :reg0x1130=0x3c433c43.
tia_cnt_i : 60 ,
tia_cnt_q : 0 ,
RX1 tia case :9,absolute value dc_i : -2 , value dc_q : 0 
RX1:reg0x12d4=0x3c43007f.
Q:reg0x12d8=0x3c433c43.
 RX1 :reg0x1130=0x3c433c43.
tia_cnt_i : 60 ,
tia_cnt_q : 0 ,
RX1 tia case :10,absolute value dc_i : -2 , value dc_q : 0 
RX1:reg0x12d8=0x3c43007f.
Q:reg0x12dc=0x3c433a45.
 RX1 :reg0x1130=0x3a453c43.
tia_cnt_i : 58 ,
tia_cnt_q : 0 ,
RX1 tia case :11,absolute value dc_i : -2 , value dc_q : 0 
RX1:reg0x12dc=0x3c43007f.
Q:reg0x12e0=0x3a453a45.
 RX1 :reg0x1130=0x3a453a45.
tia_cnt_i : 58 ,
tia_cnt_q : 0 ,
RX1 tia case :12,absolute value dc_i : -2 , value dc_q : 0 
RX1:reg0x12e0=0x3a45007f.
tia calibration end!
rx0 vga calibration begin
reg0x1120=0x3fc100.
vga case:1 pass.
RX0 vga case:1 ,absolute value dc_i_tmp : 1 , value dc_q_tmp : 1 ,I:reg0x1184=0x29292723.   Q:reg0x11c0=0x17192327.
vga case:2 pass.
RX0 vga case:2 ,absolute value dc_i_tmp : 1 , value dc_q_tmp : 0 ,I:reg0x1188=0x29292723.   Q:reg0x11c4=0x17192327.
vga case:3 pass.
RX0 vga case:3 ,absolute value dc_i_tmp : 0 , value dc_q_tmp : 1 ,I:reg0x118c=0x29292723.   Q:reg0x11c8=0x19172729.
vga case:4 pass.
RX0 vga case:4 ,absolute value dc_i_tmp : 1 , value dc_q_tmp : 1 ,I:reg0x1190=0x29292723.   Q:reg0x11cc=0x15192529.
vga case:5 pass.
RX0 vga case:5 ,absolute value dc_i_tmp : 1 , value dc_q_tmp : 1 ,I:reg0x1194=0x29292723.   Q:reg0x11d0=0x15192327.
vga case:6 pass.
RX0 vga case:6 ,absolute value dc_i_tmp : 1 , value dc_q_tmp : 1 ,I:reg0x1198=0x29292723.   Q:reg0x11d4=0x19152729.
vga case:7 pass.
RX0 vga case:7 ,absolute value dc_i_tmp : 0 , value dc_q_tmp : 1 ,I:reg0x119c=0x2b292723.   Q:reg0x11d8=0x19132729.
vga case:8 pass.
RX0 vga case:8 ,absolute value dc_i_tmp : 1 , value dc_q_tmp : 1 ,I:reg0x11a0=0x292b2723.   Q:reg0x11dc=0x15172529.
vga case:9 pass.
RX0 vga case:9 ,absolute value dc_i_tmp : 1 , value dc_q_tmp : 1 ,I:reg0x11a4=0x292d2723.   Q:reg0x11e0=0x19132529.
vga case:10 pass.
RX0 vga case:10 ,absolute value dc_i_tmp : 1 , value dc_q_tmp : 1 ,I:reg0x11a8=0x2d292721.   Q:reg0x11e4=0x1917252b.
vga case:11 pass.
RX0 vga case:11 ,absolute value dc_i_tmp : 0 , value dc_q_tmp : 0 ,I:reg0x11ac=0x29292721.   Q:reg0x11e8=0x1917232b.
vga case:12 pass.
RX0 vga case:12 ,absolute value dc_i_tmp : 1 , value dc_q_tmp : 1 ,I:reg0x11b0=0x272b2721.   Q:reg0x11ec=0x1515232d.
vga case:13 pass.
RX0 vga case:13 ,absolute value dc_i_tmp : 0 , value dc_q_tmp : 0 ,I:reg0x11b4=0x23312721.   Q:reg0x11f0=0x1d17212d.
vga case:14 pass.
RX0 vga case:14 ,absolute value dc_i_tmp : 0 , value dc_q_tmp : 0 ,I:reg0x11b8=0x29292b21.   Q:reg0x11f4=0x15171b2f.
rx1 vga calibration begin
rx1 vga case:1 pass.
RX1 vga case:1 ,absolute value dc_i_tmp : 0 , value dc_q_tmp : 0 ,I:reg0x11fc=0x29291f1d. Q:reg0x1238=0x3f3f1f1b.
rx1 vga case:2 pass.
RX1 vga case:2 ,absolute value dc_i_tmp : 0 , value dc_q_tmp : 1 ,I:reg0x1200=0x29291f1d. Q:reg0x123c=0x3f3f1f1b.
rx1 vga case:3 pass.
RX1 vga case:3 ,absolute value dc_i_tmp : 0 , value dc_q_tmp : 1 ,I:reg0x1204=0x29291f1d. Q:reg0x1240=0x3f3f1f1b.
rx1 vga case:4 pass.
RX1 vga case:4 ,absolute value dc_i_tmp : 0 , value dc_q_tmp : 1 ,I:reg0x1208=0x29291f1d. Q:reg0x1244=0x3f3f1f1b.
rx1 vga case:5 pass.
RX1 vga case:5 ,absolute value dc_i_tmp : 0 , value dc_q_tmp : 0 ,I:reg0x120c=0x29291f1d. Q:reg0x1248=0x3f3f1f1b.
rx1 vga case:6 pass.
RX1 vga case:6 ,absolute value dc_i_tmp : 1 , value dc_q_tmp : 1 ,I:reg0x1210=0x29291f1d. Q:reg0x124c=0x3f3f1f1b.
rx1 vga case:7 pass.
RX1 vga case:7 ,absolute value dc_i_tmp : 1 , value dc_q_tmp : 1 ,I:reg0x1214=0x29291f1d. Q:reg0x1250=0x3d3f1f1b.
rx1 vga case:8 pass.
RX1 vga case:8 ,absolute value dc_i_tmp : 0 , value dc_q_tmp : 1 ,I:reg0x1218=0x2b291f1d. Q:reg0x1254=0x3f3f1f1b.
rx1 vga case:9 pass.
RX1 vga case:9 ,absolute value dc_i_tmp : 0 , value dc_q_tmp : 1 ,I:reg0x121c=0x2d291f1d. Q:reg0x1258=0x3f3f211d.
rx1 vga case:10 pass.
RX1 vga case:10 ,absolute value dc_i_tmp : 0 , value dc_q_tmp : 2 ,I:reg0x1220=0x272f1d1d. Q:reg0x125c=0x3f3f211d.
rx1 vga case:11 pass.
RX1 vga case:11 ,absolute value dc_i_tmp : 0 , value dc_q_tmp : 1 ,I:reg0x1224=0x272d1d1d. Q:reg0x1260=0x373f1d1b.
rx1 vga case:12 pass.
RX1 vga case:12 ,absolute value dc_i_tmp : 0 , value dc_q_tmp : 0 ,I:reg0x1228=0x272b1d1d. Q:reg0x1264=0x3b3f1f1d.
rx1 vga case:13 pass.
RX1 vga case:13 ,absolute value dc_i_tmp : 1 , value dc_q_tmp : 0 ,I:reg0x122c=0x29291d1d. Q:reg0x1268=0x3d3f1f1d.
rx1 vga case:14 pass.
RX1 vga case:14 ,absolute value dc_i_tmp : 1 , value dc_q_tmp : 1 ,I:reg0x1230=0x252f1d1f. Q:reg0x126c=0x373f1d1d.
reg0x1120=0x3c0100.
vga calibration end!
RX0: 0x103c : e0004000 ,0x1040 : 10001102 
RX1: 0x1054 : e0004000 ,0x1058 : 10001100 
THIS CASE J: 0 M: 1 
adc calibration begin
calibration begin
RX0 cali pre ,absolute value dc_i_tmp : 5 , value dc_q_tmp : 3 ,

reg0x1180=0x27292523.
reg0x11bc=0x17192327.
RX1 cali pre ,absolute value dc_i_tmp : 3 , value dc_q_tmp : 11 ,reg0x11f8=0x29291f1d.
reg0x1234=0x3f3f1f1b.
rx0 tia cali begin:
####:reg0x1270=0x4a354e31.
tia_cnt_i : 9 ,
tia_cnt_q : 7 ,
I:reg0x1150=0x27292523.
Q:reg0x1154=0x17192327.
RX0 tia case :0,absolute value dc_i : -1 , value dc_q : -1 
####:reg0x1270=0x453c453a.
####:reg0x1274=0x4a354c31.
tia_cnt_i : 11 ,
tia_cnt_q : 0 ,
I:reg0x1150=0x27292523.
Q:reg0x1154=0x17192327.
RX0 tia case :1,absolute value dc_i : -1 , value dc_q : -1 
####:reg0x1274=0x4a35413c.
####:reg0x1278=0x48374a35.
tia_cnt_i : 15 ,
tia_cnt_q : 0 ,
I:reg0x1150=0x27292523.
Q:reg0x1154=0x17192327.
RX0 tia case :2,absolute value dc_i : -1 , value dc_q : 0 
####:reg0x1278=0x48373b44.
####:reg0x127c=0x48374c33.
tia_cnt_i : 27 ,
tia_cnt_q : 0 ,
I:reg0x1150=0x27292523.
Q:reg0x1154=0x17192327.
RX0 tia case :3,absolute value dc_i : -1 , value dc_q : 1 
####:reg0x127c=0x4837314e.
####:reg0x1280=0x443b443b.
tia_cnt_i : 29 ,
tia_cnt_q : 0 ,
I:reg0x1150=0x27292523.
Q:reg0x1154=0x17192327.
RX0 tia case :4,absolute value dc_i : -1 , value dc_q : 1 
####:reg0x1280=0x443b2758.
####:reg0x1284=0x443b4439.
tia_cnt_i : 34 ,
tia_cnt_q : 0 ,
I:reg0x1150=0x27292523.
Q:reg0x1154=0x17192327.
RX0 tia case :5,absolute value dc_i : -1 , value dc_q : 1 
####:reg0x1284=0x443b225b.
####:reg0x1288=0x3e413e41.
tia_cnt_i : 30 ,
tia_cnt_q : 0 ,
I:reg0x1150=0x27292523.
Q:reg0x1154=0x17192327.
RX0 tia case :6,absolute value dc_i : -1 , value dc_q : 1 
####:reg0x1288=0x3e41205f.
####:reg0x128c=0x3e413c41.
tia_cnt_i : 28 ,
tia_cnt_q : 0 ,
I:reg0x1150=0x27292523.
Q:reg0x1154=0x17192327.
RX0 tia case :7,absolute value dc_i : -1 , value dc_q : 1 
####:reg0x128c=0x3e41205d.
####:reg0x1290=0x3c433e43.
tia_cnt_i : 27 ,
tia_cnt_q : 0 ,
I:reg0x1150=0x27292523.
Q:reg0x1154=0x17192327.
RX0 tia case :8,absolute value dc_i : -1 , value dc_q : 1 
####:reg0x1290=0x3c43235e.
####:reg0x1294=0x3e433a45.
tia_cnt_i : 25 ,
tia_cnt_q : 0 ,
I:reg0x1150=0x27292523.
Q:reg0x1154=0x17192327.
RX0 tia case :9,absolute value dc_i : -1 , value dc_q : 1 
####:reg0x1294=0x3e43215e.
####:reg0x1298=0x3e433c43.
tia_cnt_i : 25 ,
tia_cnt_q : 0 ,
I:reg0x1150=0x27292523.
Q:reg0x1154=0x17192327.
RX0 tia case :10,absolute value dc_i : -1 , value dc_q : 1 
####:reg0x1298=0x3e43235c.
####:reg0x129c=0x3c413c43.
tia_cnt_i : 26 ,
tia_cnt_q : 0 ,
I:reg0x1150=0x27292523.
Q:reg0x1154=0x17192327.
RX0 tia case :11,absolute value dc_i : -1 , value dc_q : 1 
####:reg0x129c=0x3c41225d.
####:reg0x12a0=0x3c433a45.
tia_cnt_i : 27 ,
tia_cnt_q : 0 ,
I:reg0x1150=0x27292523.
Q:reg0x1154=0x17192327.
RX0 tia case :12,absolute value dc_i : -1 , value dc_q : 0 
####:reg0x12a0=0x3c431f60.
rx1 tia cali begin:
Q:reg0x12b0=0x463b463b.
 RX1 :reg0x1130=0x463b463b.
tia_cnt_i : 68 ,
tia_cnt_q : 68 ,
RX1 tia case :0,absolute value dc_i : -3 , value dc_q : -12 
RX1:reg0x12b0=0x27f027f.
Q:reg0x12b4=0x4439463b.
 RX1 :reg0x1130=0x463b4439.
tia_cnt_i : 68 ,
tia_cnt_q : 70 ,
RX1 tia case :1,absolute value dc_i : -2 , value dc_q : -10 
RX1:reg0x12b4=0x27f027f.
Q:reg0x12b8=0x443b463b.
 RX1 :reg0x1130=0x463b443b.
tia_cnt_i : 46 ,
tia_cnt_q : 68 ,
RX1 tia case :2,absolute value dc_i : -1 , value dc_q : -10 
RX1:reg0x12b8=0x187f1869.
Q:reg0x12bc=0x443b423d.
 RX1 :reg0x1130=0x423d443b.
tia_cnt_i : 66 ,
tia_cnt_q : 1 ,
RX1 tia case :3,absolute value dc_i : -2 , value dc_q : -9 
RX1:reg0x12bc=0x3c007f.
Q:reg0x12c0=0x443b3e41.
 RX1 :reg0x1130=0x3e41443b.
tia_cnt_i : 51 ,
tia_cnt_q : 68 ,
RX1 tia case :4,absolute value dc_i : -1 , value dc_q : -10 
RX1:reg0x12c0=0xb7f0b74.
Q:reg0x12c4=0x3c413c41.
 RX1 :reg0x1130=0x3c413c41.
tia_cnt_i : 18 ,
tia_cnt_q : 62 ,
RX1 tia case :5,absolute value dc_i : -1 , value dc_q : -10 
RX1:reg0x12c4=0x2a7f2a53.
Q:reg0x12c8=0x3c413c43.
 RX1 :reg0x1130=0x3c433c41.
tia_cnt_i : 60 ,
tia_cnt_q : 1 ,
RX1 tia case :6,absolute value dc_i : -2 , value dc_q : -10 
RX1:reg0x12c8=0x42007f.
Q:reg0x12cc=0x3c433c43.
 RX1 :reg0x1130=0x3c433c43.
tia_cnt_i : 60 ,
tia_cnt_q : 1 ,
RX1 tia case :7,absolute value dc_i : -2 , value dc_q : -10 
RX1:reg0x12cc=0x44007f.
Q:reg0x12d0=0x3a453c43.
 RX1 :reg0x1130=0x3c433a45.
tia_cnt_i : 60 ,
tia_cnt_q : 1 ,
RX1 tia case :8,absolute value dc_i : -2 , value dc_q : -10 
RX1:reg0x12d0=0x46007f.
Q:reg0x12d4=0x3c433c43.
 RX1 :reg0x1130=0x3c433c43.
tia_cnt_i : 60 ,
tia_cnt_q : 1 ,
RX1 tia case :9,absolute value dc_i : -2 , value dc_q : -10 
RX1:reg0x12d4=0x44007f.
Q:reg0x12d8=0x3c433c43.
 RX1 :reg0x1130=0x3c433c43.
tia_cnt_i : 60 ,
tia_cnt_q : 1 ,
RX1 tia case :10,absolute value dc_i : -2 , value dc_q : -11 
RX1:reg0x12d8=0x44007f.
Q:reg0x12dc=0x3c433c43.
 RX1 :reg0x1130=0x3c433c43.
tia_cnt_i : 17 ,
tia_cnt_q : 60 ,
RX1 tia case :11,absolute value dc_i : -1 , value dc_q : -10 
RX1:reg0x12dc=0x2b7f2b54.
Q:reg0x12e0=0x3c433c43.
 RX1 :reg0x1130=0x3c433c43.
tia_cnt_i : 60 ,
tia_cnt_q : 1 ,
RX1 tia case :12,absolute value dc_i : -3 , value dc_q : -10 
RX1:reg0x12e0=0x44007f.
tia calibration end!
rx0 vga calibration begin
reg0x1120=0x3fc100.
vga case:1 pass.
RX0 vga case:1 ,absolute value dc_i_tmp : 4 , value dc_q_tmp : 4 ,I:reg0x1184=0x29292721.   Q:reg0x11c0=0x17192527.
vga case:2 pass.
RX0 vga case:2 ,absolute value dc_i_tmp : 4 , value dc_q_tmp : 3 ,I:reg0x1188=0x29292721.   Q:reg0x11c4=0x17192527.
vga case:3 pass.
RX0 vga case:3 ,absolute value dc_i_tmp : 4 , value dc_q_tmp : 3 ,I:reg0x118c=0x29292721.   Q:reg0x11c8=0x15172527.
vga case:4 pass.
RX0 vga case:4 ,absolute value dc_i_tmp : 4 , value dc_q_tmp : 3 ,I:reg0x1190=0x27272721.   Q:reg0x11cc=0x17192527.
vga case:5 pass.
RX0 vga case:5 ,absolute value dc_i_tmp : 3 , value dc_q_tmp : 2 ,I:reg0x1194=0x29292721.   Q:reg0x11d0=0x17192527.
vga case:6 pass.
RX0 vga case:6 ,absolute value dc_i_tmp : 4 , value dc_q_tmp : 2 ,I:reg0x1198=0x29292721.   Q:reg0x11d4=0x17192527.
vga case:7 pass.
RX0 vga case:7 ,absolute value dc_i_tmp : 3 , value dc_q_tmp : 2 ,I:reg0x119c=0x29272721.   Q:reg0x11d8=0x15192527.
vga case:8 pass.
RX0 vga case:8 ,absolute value dc_i_tmp : 3 , value dc_q_tmp : 2 ,I:reg0x11a0=0x272d2721.   Q:reg0x11dc=0x17172527.
vga case:9 pass.
RX0 vga case:9 ,absolute value dc_i_tmp : 2 , value dc_q_tmp : 1 ,I:reg0x11a4=0x29272921.   Q:reg0x11e0=0x1d172527.
vga case:10 pass.
RX0 vga case:10 ,absolute value dc_i_tmp : 1 , value dc_q_tmp : 1 ,I:reg0x11a8=0x2f272b21.   Q:reg0x11e4=0x15192529.
vga case:11 pass.
RX0 vga case:11 ,absolute value dc_i_tmp : 1 , value dc_q_tmp : 1 ,I:reg0x11ac=0x31272d21.   Q:reg0x11e8=0x1b172529.
vga case:12 pass.
RX0 vga case:12 ,absolute value dc_i_tmp : 1 , value dc_q_tmp : 1 ,I:reg0x11b0=0x2b272b1d.   Q:reg0x11ec=0x15192329.
vga case:13 pass.
RX0 vga case:13 ,absolute value dc_i_tmp : 1 , value dc_q_tmp : 1 ,I:reg0x11b4=0x2f212f1d.   Q:reg0x11f0=0x1319232b.
vga case:14 pass.
RX0 vga case:14 ,absolute value dc_i_tmp : 0 , value dc_q_tmp : 0 ,I:reg0x11b8=0x2d2b2f19.   Q:reg0x11f4=0x1b19232d.
rx1 vga calibration begin
rx1 vga case:1 pass.
RX1 vga case:1 ,absolute value dc_i_tmp : 5 , value dc_q_tmp : 11 ,I:reg0x11fc=0x292b2515. Q:reg0x1238=0x3d3f2715.
rx1 vga case:2 pass.
RX1 vga case:2 ,absolute value dc_i_tmp : 5 , value dc_q_tmp : 11 ,I:reg0x1200=0x292b2515. Q:reg0x123c=0x3d3f2715.
rx1 vga case:3 pass.
RX1 vga case:3 ,absolute value dc_i_tmp : 4 , value dc_q_tmp : 13 ,I:reg0x1204=0x292b2515. Q:reg0x1240=0x3b3f2715.
rx1 vga case:4 pass.
RX1 vga case:4 ,absolute value dc_i_tmp : 4 , value dc_q_tmp : 12 ,I:reg0x1208=0x292b2515. Q:reg0x1244=0x3b3f2715.
rx1 vga case:5 pass.
RX1 vga case:5 ,absolute value dc_i_tmp : 6 , value dc_q_tmp : 12 ,I:reg0x120c=0x272b2515. Q:reg0x1248=0x3b3f2715.
rx1 vga case:6 pass.
RX1 vga case:6 ,absolute value dc_i_tmp : 5 , value dc_q_tmp : 12 ,I:reg0x1210=0x272b2515. Q:reg0x124c=0x393f2715.
rx1 vga case:7 pass.
RX1 vga case:7 ,absolute value dc_i_tmp : 5 , value dc_q_tmp : 12 ,I:reg0x1214=0x272d2515. Q:reg0x1250=0x373f2715.
rx1 vga case:8 pass.
RX1 vga case:8 ,absolute value dc_i_tmp : 4 , value dc_q_tmp : 11 ,I:reg0x1218=0x29292915. Q:reg0x1254=0x3d3f2913.
rx1 vga case:9 pass.
RX1 vga case:9 ,absolute value dc_i_tmp : 4 , value dc_q_tmp : 13 ,I:reg0x121c=0x292d2911. Q:reg0x1258=0x3f3f2d11.
rx1 vga case:10 pass.
RX1 vga case:10 ,absolute value dc_i_tmp : 3 , value dc_q_tmp : 13 ,I:reg0x1220=0x2d292d0f. Q:reg0x125c=0x3f3f2f0d.
rx1 vga case:11 pass.
RX1 vga case:11 ,absolute value dc_i_tmp : 4 , value dc_q_tmp : 12 ,I:reg0x1224=0x292b310d. Q:reg0x1260=0x393f330b.
rx1 vga case:12 pass.
RX1 vga case:12 ,absolute value dc_i_tmp : 4 , value dc_q_tmp : 11 ,I:reg0x1228=0x292b3509. Q:reg0x1264=0x393f3707.
rx1 vga case:13 pass.
RX1 vga case:13 ,absolute value dc_i_tmp : 4 , value dc_q_tmp : 12 ,I:reg0x122c=0x2d273b03. Q:reg0x1268=0x3d3f3d01.
rx1 vga case:14 pass.
RX1 vga case:14 ,absolute value dc_i_tmp : 6 , value dc_q_tmp : 10 ,I:reg0x1230=0x13f3f01. Q:reg0x126c=0x13f3f01.
reg0x1120=0x3c0100.
vga calibration end!
RX0: 0x103c : e0008000 ,0x1040 : 20001102 
RX1: 0x1054 : e0008000 ,0x1058 : 20001100 
THIS CASE J: 0 M: 2 
adc calibration begin
calibration begin
RX0 cali pre ,absolute value dc_i_tmp : 7 , value dc_q_tmp : 2 ,

reg0x1180=0x27292523.
reg0x11bc=0x17192327.
RX1 cali pre ,absolute value dc_i_tmp : 4 , value dc_q_tmp : 10 ,reg0x11f8=0x29291f1d.
reg0x1234=0x3f3f1f1b.
rx0 tia cali begin:
####:reg0x1270=0x48354c33.
tia_cnt_i : 13 ,
tia_cnt_q : 1 ,
I:reg0x1150=0x27292523.
Q:reg0x1154=0x17192327.
RX0 tia case :0,absolute value dc_i : -1 , value dc_q : -1 
####:reg0x1270=0x3f363f40.
####:reg0x1274=0x48354a35.
tia_cnt_i : 19 ,
tia_cnt_q : 0 ,
I:reg0x1150=0x27292523.
Q:reg0x1154=0x17192327.
RX0 tia case :1,absolute value dc_i : -1 , value dc_q : 0 
####:reg0x1274=0x48353748.
####:reg0x1278=0x4a374a35.
tia_cnt_i : 35 ,
tia_cnt_q : 0 ,
I:reg0x1150=0x27292523.
Q:reg0x1154=0x17192327.
RX0 tia case :2,absolute value dc_i : -1 , value dc_q : 1 
####:reg0x1278=0x4a372758.
####:reg0x127c=0x48374a35.
tia_cnt_i : 55 ,
tia_cnt_q : 0 ,
I:reg0x1150=0x27292523.
Q:reg0x1154=0x17192327.
RX0 tia case :3,absolute value dc_i : -1 , value dc_q : 1 
####:reg0x127c=0x4837136c.
####:reg0x1280=0x443b443b.
tia_cnt_i : 68 ,
tia_cnt_q : 0 ,
I:reg0x1150=0x27292523.
Q:reg0x1154=0x17192327.
RX0 tia case :4,absolute value dc_i : -2 , value dc_q : 1 
####:reg0x1280=0x443b007f.
####:reg0x1284=0x443b463b.
tia_cnt_i : 68 ,
tia_cnt_q : 0 ,
I:reg0x1150=0x27292523.
Q:reg0x1154=0x17192327.
RX0 tia case :5,absolute value dc_i : -2 , value dc_q : 1 
####:reg0x1284=0x443b027f.
####:reg0x1288=0x3e413e41.
tia_cnt_i : 62 ,
tia_cnt_q : 0 ,
I:reg0x1150=0x27292523.
Q:reg0x1154=0x17192327.
RX0 tia case :6,absolute value dc_i : -3 , value dc_q : 1 
####:reg0x1288=0x3e41007f.
####:reg0x128c=0x3c413e41.
tia_cnt_i : 62 ,
tia_cnt_q : 0 ,
I:reg0x1150=0x27292523.
Q:reg0x1154=0x17192327.
RX0 tia case :7,absolute value dc_i : -2 , value dc_q : 1 
####:reg0x128c=0x3c41007f.
####:reg0x1290=0x3c433c43.
tia_cnt_i : 60 ,
tia_cnt_q : 0 ,
I:reg0x1150=0x27292523.
Q:reg0x1154=0x17192327.
RX0 tia case :8,absolute value dc_i : -2 , value dc_q : 1 
####:reg0x1290=0x3c43007f.
####:reg0x1294=0x3e433a45.
tia_cnt_i : 58 ,
tia_cnt_q : 0 ,
I:reg0x1150=0x27292523.
Q:reg0x1154=0x17192327.
RX0 tia case :9,absolute value dc_i : -3 , value dc_q : 1 
####:reg0x1294=0x3e43007f.
####:reg0x1298=0x3e433c43.
tia_cnt_i : 60 ,
tia_cnt_q : 0 ,
I:reg0x1150=0x27292523.
Q:reg0x1154=0x17192327.
RX0 tia case :10,absolute value dc_i : -2 , value dc_q : 1 
####:reg0x1298=0x3e43007f.
####:reg0x129c=0x3e433c43.
tia_cnt_i : 60 ,
tia_cnt_q : 0 ,
I:reg0x1150=0x27292523.
Q:reg0x1154=0x17192327.
RX0 tia case :11,absolute value dc_i : -3 , value dc_q : 1 
####:reg0x129c=0x3e43007f.
####:reg0x12a0=0x3c433c43.
tia_cnt_i : 60 ,
tia_cnt_q : 0 ,
I:reg0x1150=0x27292523.
Q:reg0x1154=0x17192327.
RX0 tia case :12,absolute value dc_i : -2 , value dc_q : 1 
####:reg0x12a0=0x3c43007f.
rx1 tia cali begin:
Q:reg0x12b0=0x46394639.
 RX1 :reg0x1130=0x46394639.
tia_cnt_i : 70 ,
tia_cnt_q : 1 ,
RX1 tia case :0,absolute value dc_i : -3 , value dc_q : -9 
RX1:reg0x12b0=0x3a007f.
Q:reg0x12b4=0x4439443b.
 RX1 :reg0x1130=0x443b4439.
tia_cnt_i : 68 ,
tia_cnt_q : 1 ,
RX1 tia case :1,absolute value dc_i : -3 , value dc_q : -9 
RX1:reg0x12b4=0x3a007f.
Q:reg0x12b8=0x4439443b.
 RX1 :reg0x1130=0x443b4439.
tia_cnt_i : 68 ,
tia_cnt_q : 1 ,
RX1 tia case :2,absolute value dc_i : -3 , value dc_q : -10 
RX1:reg0x12b8=0x3a007f.
Q:reg0x12bc=0x443b443b.
 RX1 :reg0x1130=0x443b443b.
tia_cnt_i : 68 ,
tia_cnt_q : 1 ,
RX1 tia case :3,absolute value dc_i : -3 , value dc_q : -10 
RX1:reg0x12bc=0x3c007f.
Q:reg0x12c0=0x3e41443b.
 RX1 :reg0x1130=0x443b3e41.
tia_cnt_i : 68 ,
tia_cnt_q : 1 ,
RX1 tia case :4,absolute value dc_i : -3 , value dc_q : -10 
RX1:reg0x12c0=0x42007f.
Q:reg0x12c4=0x3c413c43.
 RX1 :reg0x1130=0x3c433c41.
tia_cnt_i : 60 ,
tia_cnt_q : 1 ,
RX1 tia case :5,absolute value dc_i : -3 , value dc_q : -9 
RX1:reg0x12c4=0x42007f.
Q:reg0x12c8=0x3e433c43.
 RX1 :reg0x1130=0x3c433e43.
tia_cnt_i : 60 ,
tia_cnt_q : 1 ,
RX1 tia case :6,absolute value dc_i : -3 , value dc_q : -10 
RX1:reg0x12c8=0x44007f.
Q:reg0x12cc=0x3e433c43.
 RX1 :reg0x1130=0x3c433e43.
tia_cnt_i : 60 ,
tia_cnt_q : 1 ,
RX1 tia case :7,absolute value dc_i : -3 , value dc_q : -10 
RX1:reg0x12cc=0x44007f.
Q:reg0x12d0=0x3c433c43.
 RX1 :reg0x1130=0x3c433c43.
tia_cnt_i : 60 ,
tia_cnt_q : 1 ,
RX1 tia case :8,absolute value dc_i : -3 , value dc_q : -10 
RX1:reg0x12d0=0x44007f.
Q:reg0x12d4=0x3c433a45.
 RX1 :reg0x1130=0x3a453c43.
tia_cnt_i : 58 ,
tia_cnt_q : 1 ,
RX1 tia case :9,absolute value dc_i : -3 , value dc_q : -10 
RX1:reg0x12d4=0x44007f.
Q:reg0x12d8=0x3c433c43.
 RX1 :reg0x1130=0x3c433c43.
tia_cnt_i : 60 ,
tia_cnt_q : 1 ,
RX1 tia case :10,absolute value dc_i : -3 , value dc_q : -10 
RX1:reg0x12d8=0x44007f.
Q:reg0x12dc=0x3c433a45.
 RX1 :reg0x1130=0x3a453c43.
tia_cnt_i : 58 ,
tia_cnt_q : 1 ,
RX1 tia case :11,absolute value dc_i : -3 , value dc_q : -10 
RX1:reg0x12dc=0x44007f.
Q:reg0x12e0=0x3c433c43.
 RX1 :reg0x1130=0x3c433c43.
tia_cnt_i : 60 ,
tia_cnt_q : 1 ,
RX1 tia case :12,absolute value dc_i : -3 , value dc_q : -10 
RX1:reg0x12e0=0x44007f.
tia calibration end!
rx0 vga calibration begin
reg0x1120=0x3fc100.
vga case:1 pass.
RX0 vga case:1 ,absolute value dc_i_tmp : 6 , value dc_q_tmp : 1 ,I:reg0x1184=0x292b2721.   Q:reg0x11c0=0x19192527.
vga case:2 pass.
RX0 vga case:2 ,absolute value dc_i_tmp : 6 , value dc_q_tmp : 1 ,I:reg0x1188=0x292b2721.   Q:reg0x11c4=0x19192527.
vga case:3 pass.
RX0 vga case:3 ,absolute value dc_i_tmp : 4 , value dc_q_tmp : 1 ,I:reg0x118c=0x292b2721.   Q:reg0x11c8=0x19192527.
vga case:4 pass.
RX0 vga case:4 ,absolute value dc_i_tmp : 5 , value dc_q_tmp : 1 ,I:reg0x1190=0x292b2721.   Q:reg0x11cc=0x19192527.
vga case:5 pass.
RX0 vga case:5 ,absolute value dc_i_tmp : 5 , value dc_q_tmp : 1 ,I:reg0x1194=0x272b2721.   Q:reg0x11d0=0x19192527.
vga case:6 pass.
RX0 vga case:6 ,absolute value dc_i_tmp : 4 , value dc_q_tmp : 1 ,I:reg0x1198=0x272b2721.   Q:reg0x11d4=0x19192527.
vga case:7 pass.
RX0 vga case:7 ,absolute value dc_i_tmp : 5 , value dc_q_tmp : 0 ,I:reg0x119c=0x272d2721.   Q:reg0x11d8=0x19192527.
vga case:8 pass.
RX0 vga case:8 ,absolute value dc_i_tmp : 4 , value dc_q_tmp : 0 ,I:reg0x11a0=0x27272921.   Q:reg0x11dc=0x1b172527.
vga case:9 pass.
RX0 vga case:9 ,absolute value dc_i_tmp : 5 , value dc_q_tmp : 0 ,I:reg0x11a4=0x2b272b21.   Q:reg0x11e0=0x1b132729.
vga case:10 pass.
RX0 vga case:10 ,absolute value dc_i_tmp : 2 , value dc_q_tmp : 0 ,I:reg0x11a8=0x31272d21.   Q:reg0x11e4=0x17152529.
vga case:11 pass.
RX0 vga case:11 ,absolute value dc_i_tmp : 3 , value dc_q_tmp : 0 ,I:reg0x11ac=0x2f232d1d.   Q:reg0x11e8=0x17192329.
vga case:12 pass.
RX0 vga case:12 ,absolute value dc_i_tmp : 1 , value dc_q_tmp : 0 ,I:reg0x11b0=0x2d312b1b.   Q:reg0x11ec=0x131b232b.
vga case:13 pass.
RX0 vga case:13 ,absolute value dc_i_tmp : 2 , value dc_q_tmp : 0 ,I:reg0x11b4=0x2d2f2d19.   Q:reg0x11f0=0x1713232b.
vga case:14 pass.
RX0 vga case:14 ,absolute value dc_i_tmp : 3 , value dc_q_tmp : 0 ,I:reg0x11b8=0x29312f15.   Q:reg0x11f4=0x191b1f2d.
rx1 vga calibration begin
rx1 vga case:1 pass.
RX1 vga case:1 ,absolute value dc_i_tmp : 4 , value dc_q_tmp : 13 ,I:reg0x11fc=0x2b2b2515. Q:reg0x1238=0x3f3f2519.
rx1 vga case:2 pass.
RX1 vga case:2 ,absolute value dc_i_tmp : 4 , value dc_q_tmp : 13 ,I:reg0x1200=0x2b2b2515. Q:reg0x123c=0x3d3f2117.
rx1 vga case:3 pass.
RX1 vga case:3 ,absolute value dc_i_tmp : 6 , value dc_q_tmp : 12 ,I:reg0x1204=0x292b2717. Q:reg0x1240=0x3d3f2117.
rx1 vga case:4 pass.
RX1 vga case:4 ,absolute value dc_i_tmp : 6 , value dc_q_tmp : 13 ,I:reg0x1208=0x292b2717. Q:reg0x1244=0x3f3f2519.
rx1 vga case:5 pass.
RX1 vga case:5 ,absolute value dc_i_tmp : 6 , value dc_q_tmp : 12 ,I:reg0x120c=0x27292717. Q:reg0x1248=0x3b3f2117.
rx1 vga case:6 pass.
RX1 vga case:6 ,absolute value dc_i_tmp : 5 , value dc_q_tmp : 13 ,I:reg0x1210=0x292b2717. Q:reg0x124c=0x3f3f2519.
rx1 vga case:7 pass.
RX1 vga case:7 ,absolute value dc_i_tmp : 5 , value dc_q_tmp : 13 ,I:reg0x1214=0x292b2717. Q:reg0x1250=0x3f3f2519.
rx1 vga case:8 pass.
RX1 vga case:8 ,absolute value dc_i_tmp : 5 , value dc_q_tmp : 12 ,I:reg0x1218=0x2b272915. Q:reg0x1254=0x3b3f2317.
rx1 vga case:9 pass.
RX1 vga case:9 ,absolute value dc_i_tmp : 5 , value dc_q_tmp : 12 ,I:reg0x121c=0x2b2b2b13. Q:reg0x1258=0x3b3f2517.
rx1 vga case:10 pass.
RX1 vga case:10 ,absolute value dc_i_tmp : 5 , value dc_q_tmp : 13 ,I:reg0x1220=0x292b2b0f. Q:reg0x125c=0x3f3f2715.
rx1 vga case:11 pass.
RX1 vga case:11 ,absolute value dc_i_tmp : 4 , value dc_q_tmp : 13 ,I:reg0x1224=0x252f2f0d. Q:reg0x1260=0x353f2713.
rx1 vga case:12 pass.
RX1 vga case:12 ,absolute value dc_i_tmp : 5 , value dc_q_tmp : 14 ,I:reg0x1228=0x272b3309. Q:reg0x1264=0x3f3f2b11.
rx1 vga case:13 pass.
RX1 vga case:13 ,absolute value dc_i_tmp : 4 , value dc_q_tmp : 12 ,I:reg0x122c=0x2b253903. Q:reg0x1268=0x3f3f2d0f.
rx1 vga case:14 pass.
RX1 vga case:14 ,absolute value dc_i_tmp : 3 , value dc_q_tmp : 14 ,I:reg0x1230=0x13f3f01. Q:reg0x126c=0x3d3f3309.
reg0x1120=0x3c0100.
vga calibration end!
RX0: 0x103c : e000c000 ,0x1040 : 30001102 
RX1: 0x1054 : e000c000 ,0x1058 : 30001100 
THIS CASE J: 0 M: 3 
adc calibration begin
calibration begin
RX0 cali pre ,absolute value dc_i_tmp : 15 , value dc_q_tmp : 15 ,

reg0x1180=0x27292523.
reg0x11bc=0x17192327.
RX1 cali pre ,absolute value dc_i_tmp : 15 , value dc_q_tmp : 15 ,reg0x11f8=0x29291f1d.
reg0x1234=0x3f3f1f1b.
rx0 tia cali begin:
####:reg0x1270=0x4a374c33.
tia_cnt_i : 76 ,
tia_cnt_q : 1 ,
I:reg0x1150=0x27292523.
Q:reg0x1154=0x17192327.
RX0 tia case :0,absolute value dc_i : -16 , value dc_q : -16 
####:reg0x1270=0x38007f.
####:reg0x1274=0x4a374c33.
tia_cnt_i : 76 ,
tia_cnt_q : 1 ,
I:reg0x1150=0x27292523.
Q:reg0x1154=0x17192327.
RX0 tia case :1,absolute value dc_i : -16 , value dc_q : -16 
####:reg0x1274=0x38007f.
####:reg0x1278=0x46394a35.
tia_cnt_i : 74 ,
tia_cnt_q : 1 ,
I:reg0x1150=0x27292523.
Q:reg0x1154=0x17192327.
RX0 tia case :2,absolute value dc_i : -16 , value dc_q : -16 
####:reg0x1278=0x3a007f.
####:reg0x127c=0x46394835.
tia_cnt_i : 72 ,
tia_cnt_q : 1 ,
I:reg0x1150=0x27292523.
Q:reg0x1154=0x17192327.
RX0 tia case :3,absolute value dc_i : -16 , value dc_q : -16 
####:reg0x127c=0x3a007d.
####:reg0x1280=0x3e414439.
tia_cnt_i : 68 ,
tia_cnt_q : 1 ,
I:reg0x1150=0x27292523.
Q:reg0x1154=0x17192327.
RX0 tia case :4,absolute value dc_i : -16 , value dc_q : -16 
####:reg0x1280=0x42007d.
####:reg0x1284=0x3e41443b.
tia_cnt_i : 68 ,
tia_cnt_q : 1 ,
I:reg0x1150=0x27292523.
Q:reg0x1154=0x17192327.
RX0 tia case :5,absolute value dc_i : -16 , value dc_q : -16 
####:reg0x1284=0x42007f.
####:reg0x1288=0x3e413e41.
tia_cnt_i : 62 ,
tia_cnt_q : 1 ,
I:reg0x1150=0x27292523.
Q:reg0x1154=0x17192327.
RX0 tia case :6,absolute value dc_i : -16 , value dc_q : -16 
####:reg0x1288=0x42007f.
####:reg0x128c=0x3c413c41.
tia_cnt_i : 60 ,
tia_cnt_q : 1 ,
I:reg0x1150=0x27292523.
Q:reg0x1154=0x17192327.
RX0 tia case :7,absolute value dc_i : -16 , value dc_q : -16 
####:reg0x128c=0x42007d.
####:reg0x1290=0x3c433c43.
tia_cnt_i : 60 ,
tia_cnt_q : 1 ,
I:reg0x1150=0x27292523.
Q:reg0x1154=0x17192327.
RX0 tia case :8,absolute value dc_i : -16 , value dc_q : -16 
####:reg0x1290=0x44007f.
####:reg0x1294=0x3c433c43.
tia_cnt_i : 60 ,
tia_cnt_q : 1 ,
I:reg0x1150=0x27292523.
Q:reg0x1154=0x17192327.
RX0 tia case :9,absolute value dc_i : -16 , value dc_q : -16 
####:reg0x1294=0x44007f.
####:reg0x1298=0x3c433c43.
tia_cnt_i : 60 ,
tia_cnt_q : 1 ,
I:reg0x1150=0x27292523.
Q:reg0x1154=0x17192327.
RX0 tia case :10,absolute value dc_i : -16 , value dc_q : -16 
####:reg0x1298=0x44007f.
####:reg0x129c=0x3c433c43.
tia_cnt_i : 60 ,
tia_cnt_q : 1 ,
I:reg0x1150=0x27292523.
Q:reg0x1154=0x17192327.
RX0 tia case :11,absolute value dc_i : -16 , value dc_q : -16 
####:reg0x129c=0x44007f.
####:reg0x12a0=0x3c433c43.
tia_cnt_i : 60 ,
tia_cnt_q : 1 ,
I:reg0x1150=0x27292523.
Q:reg0x1154=0x17192327.
RX0 tia case :12,absolute value dc_i : -16 , value dc_q : -16 
####:reg0x12a0=0x44007f.
rx1 tia cali begin:
Q:reg0x12b0=0x44394639.
 RX1 :reg0x1130=0x46394439.
tia_cnt_i : 70 ,
tia_cnt_q : 1 ,
RX1 tia case :0,absolute value dc_i : -16 , value dc_q : -16 
RX1:reg0x12b0=0x3a007f.
Q:reg0x12b4=0x443b443b.
 RX1 :reg0x1130=0x443b443b.
tia_cnt_i : 68 ,
tia_cnt_q : 1 ,
RX1 tia case :1,absolute value dc_i : -16 , value dc_q : -16 
RX1:reg0x12b4=0x3c007f.
Q:reg0x12b8=0x443b443b.
 RX1 :reg0x1130=0x443b443b.
tia_cnt_i : 68 ,
tia_cnt_q : 1 ,
RX1 tia case :2,absolute value dc_i : -16 , value dc_q : -16 
RX1:reg0x12b8=0x3c007f.
Q:reg0x12bc=0x463b463b.
 RX1 :reg0x1130=0x463b463b.
tia_cnt_i : 68 ,
tia_cnt_q : 68 ,
RX1 tia case :3,absolute value dc_i : -16 , value dc_q : -16 
RX1:reg0x12bc=0x27f027f.
Q:reg0x12c0=0x3e413e41.
 RX1 :reg0x1130=0x3e413e41.
tia_cnt_i : 62 ,
tia_cnt_q : 1 ,
RX1 tia case :4,absolute value dc_i : -16 , value dc_q : -16 
RX1:reg0x12c0=0x42007f.
Q:reg0x12c4=0x3c413c43.
 RX1 :reg0x1130=0x3c433c41.
tia_cnt_i : 60 ,
tia_cnt_q : 1 ,
RX1 tia case :5,absolute value dc_i : -16 , value dc_q : -16 
RX1:reg0x12c4=0x42007f.
Q:reg0x12c8=0x3e433e43.
 RX1 :reg0x1130=0x3e433e43.
tia_cnt_i : 60 ,
tia_cnt_q : 60 ,
RX1 tia case :6,absolute value dc_i : -16 , value dc_q : -16 
RX1:reg0x12c8=0x27f027f.
Q:reg0x12cc=0x3e433e43.
 RX1 :reg0x1130=0x3e433e43.
tia_cnt_i : 60 ,
tia_cnt_q : 60 ,
RX1 tia case :7,absolute value dc_i : -16 , value dc_q : -16 
RX1:reg0x12cc=0x27f027f.
Q:reg0x12d0=0x3a453a45.
 RX1 :reg0x1130=0x3a453a45.
tia_cnt_i : 58 ,
tia_cnt_q : 1 ,
RX1 tia case :8,absolute value dc_i : -16 , value dc_q : -16 
RX1:reg0x12d0=0x46007f.
Q:reg0x12d4=0x3c433c43.
 RX1 :reg0x1130=0x3c433c43.
tia_cnt_i : 60 ,
tia_cnt_q : 1 ,
RX1 tia case :9,absolute value dc_i : -16 , value dc_q : -16 
RX1:reg0x12d4=0x44007f.
Q:reg0x12d8=0x3a453c43.
 RX1 :reg0x1130=0x3c433a45.
tia_cnt_i : 60 ,
tia_cnt_q : 1 ,
RX1 tia case :10,absolute value dc_i : -16 , value dc_q : -16 
RX1:reg0x12d8=0x46007f.
Q:reg0x12dc=0x3a453c43.
 RX1 :reg0x1130=0x3c433a45.
tia_cnt_i : 60 ,
tia_cnt_q : 1 ,
RX1 tia case :11,absolute value dc_i : -16 , value dc_q : -16 
RX1:reg0x12dc=0x46007f.
Q:reg0x12e0=0x3a453a45.
 RX1 :reg0x1130=0x3a453a45.
tia_cnt_i : 58 ,
tia_cnt_q : 1 ,
RX1 tia case :12,absolute value dc_i : -16 , value dc_q : -16 
RX1:reg0x12e0=0x46007f.
tia calibration end!
rx0 vga calibration begin
reg0x1120=0x3fc100.
vga case:1 pass.
RX0 vga case:1 ,absolute value dc_i_tmp : 15 , value dc_q_tmp : 15 ,I:reg0x1184=0x292b2721.   Q:reg0x11c0=0x19192527.
vga case:2 pass.
RX0 vga case:2 ,absolute value dc_i_tmp : 15 , value dc_q_tmp : 15 ,I:reg0x1188=0x292b2721.   Q:reg0x11c4=0x19192527.
vga case:3 pass.
RX0 vga case:3 ,absolute value dc_i_tmp : 15 , value dc_q_tmp : 15 ,I:reg0x118c=0x292b2721.   Q:reg0x11c8=0x19192527.
vga case:4 pass.
RX0 vga case:4 ,absolute value dc_i_tmp : 15 , value dc_q_tmp : 15 ,I:reg0x1190=0x292b2721.   Q:reg0x11cc=0x19192527.
vga case:5 pass.
RX0 vga case:5 ,absolute value dc_i_tmp : 15 , value dc_q_tmp : 15 ,I:reg0x1194=0x272b2721.   Q:reg0x11d0=0x19192527.
vga case:6 pass.
RX0 vga case:6 ,absolute value dc_i_tmp : 15 , value dc_q_tmp : 15 ,I:reg0x1198=0x272b2721.   Q:reg0x11d4=0x19192527.
vga case:7 pass.
RX0 vga case:7 ,absolute value dc_i_tmp : 15 , value dc_q_tmp : 15 ,I:reg0x119c=0x272d2721.   Q:reg0x11d8=0x19192527.
vga case:8 pass.
RX0 vga case:8 ,absolute value dc_i_tmp : 15 , value dc_q_tmp : 15 ,I:reg0x11a0=0x27272921.   Q:reg0x11dc=0x1b172527.
vga case:9 pass.
RX0 vga case:9 ,absolute value dc_i_tmp : 15 , value dc_q_tmp : 15 ,I:reg0x11a4=0x2b272b21.   Q:reg0x11e0=0x1b132729.
vga case:10 pass.
RX0 vga case:10 ,absolute value dc_i_tmp : 15 , value dc_q_tmp : 15 ,I:reg0x11a8=0x31272d21.   Q:reg0x11e4=0x17152529.
vga case:11 pass.
RX0 vga case:11 ,absolute value dc_i_tmp : 15 , value dc_q_tmp : 15 ,I:reg0x11ac=0x2f232d1d.   Q:reg0x11e8=0x17192329.
vga case:12 pass.
RX0 vga case:12 ,absolute value dc_i_tmp : 15 , value dc_q_tmp : 15 ,I:reg0x11b0=0x2d312b1b.   Q:reg0x11ec=0x131b232b.
vga case:13 pass.
RX0 vga case:13 ,absolute value dc_i_tmp : 15 , value dc_q_tmp : 15 ,I:reg0x11b4=0x2d2f2d19.   Q:reg0x11f0=0x1713232b.
vga case:14 pass.
RX0 vga case:14 ,absolute value dc_i_tmp : 15 , value dc_q_tmp : 15 ,I:reg0x11b8=0x29312f15.   Q:reg0x11f4=0x191b1f2d.
rx1 vga calibration begin
rx1 vga case:1 pass.
RX1 vga case:1 ,absolute value dc_i_tmp : 15 , value dc_q_tmp : 15 ,I:reg0x11fc=0x2b2b2515. Q:reg0x1238=0x3f3f2519.
rx1 vga case:2 pass.
RX1 vga case:2 ,absolute value dc_i_tmp : 15 , value dc_q_tmp : 15 ,I:reg0x1200=0x2b2b2515. Q:reg0x123c=0x3d3f2117.
rx1 vga case:3 pass.
RX1 vga case:3 ,absolute value dc_i_tmp : 15 , value dc_q_tmp : 15 ,I:reg0x1204=0x292b2717. Q:reg0x1240=0x3d3f2117.
rx1 vga case:4 pass.
RX1 vga case:4 ,absolute value dc_i_tmp : 15 , value dc_q_tmp : 15 ,I:reg0x1208=0x292b2717. Q:reg0x1244=0x3f3f2519.
rx1 vga case:5 pass.
RX1 vga case:5 ,absolute value dc_i_tmp : 15 , value dc_q_tmp : 15 ,I:reg0x120c=0x27292717. Q:reg0x1248=0x3b3f2117.
rx1 vga case:6 pass.
RX1 vga case:6 ,absolute value dc_i_tmp : 15 , value dc_q_tmp : 15 ,I:reg0x1210=0x292b2717. Q:reg0x124c=0x3f3f2519.
rx1 vga case:7 pass.
RX1 vga case:7 ,absolute value dc_i_tmp : 15 , value dc_q_tmp : 15 ,I:reg0x1214=0x292b2717. Q:reg0x1250=0x3f3f2519.
rx1 vga case:8 pass.
RX1 vga case:8 ,absolute value dc_i_tmp : 15 , value dc_q_tmp : 15 ,I:reg0x1218=0x2b272915. Q:reg0x1254=0x3b3f2317.
rx1 vga case:9 pass.
RX1 vga case:9 ,absolute value dc_i_tmp : 15 , value dc_q_tmp : 15 ,I:reg0x121c=0x2b2b2b13. Q:reg0x1258=0x3b3f2517.
rx1 vga case:10 pass.
RX1 vga case:10 ,absolute value dc_i_tmp : 15 , value dc_q_tmp : 15 ,I:reg0x1220=0x292b2b0f. Q:reg0x125c=0x3f3f2715.
rx1 vga case:11 pass.
RX1 vga case:11 ,absolute value dc_i_tmp : 15 , value dc_q_tmp : 15 ,I:reg0x1224=0x252f2f0d. Q:reg0x1260=0x353f2713.
rx1 vga case:12 pass.
RX1 vga case:12 ,absolute value dc_i_tmp : 15 , value dc_q_tmp : 15 ,I:reg0x1228=0x272b3309. Q:reg0x1264=0x3f3f2b11.
rx1 vga case:13 pass.
RX1 vga case:13 ,absolute value dc_i_tmp : 15 , value dc_q_tmp : 15 ,I:reg0x122c=0x2b253903. Q:reg0x1268=0x3f3f2d0f.
rx1 vga case:14 pass.
RX1 vga case:14 ,absolute value dc_i_tmp : 15 , value dc_q_tmp : 15 ,I:reg0x1230=0x13f3f01. Q:reg0x126c=0x3d3f3309.
reg0x1120=0x3c0100.
vga calibration end!
RX0: 0x103c : e0010000 ,0x1040 : 40001102 
RX1: 0x1054 : e0010000 ,0x1058 : 40001100 
THIS CASE J: 0 M: 4 
adc calibration begin
calibration begin
RX0 cali pre ,absolute value dc_i_tmp : 9 , value dc_q_tmp : 5 ,

reg0x1180=0x29292723.
reg0x11bc=0x17172729.
RX1 cali pre ,absolute value dc_i_tmp : 5 , value dc_q_tmp : 4 ,reg0x11f8=0x29291f1d.
reg0x1234=0x3f3f1f1b.
rx0 tia cali begin:
####:reg0x1270=0x4a374c33.
tia_cnt_i : 76 ,
tia_cnt_q : 1 ,
I:reg0x1150=0x29292723.
Q:reg0x1154=0x17172729.
RX0 tia case :0,absolute value dc_i : -3 , value dc_q : -1 
####:reg0x1270=0x38007f.
####:reg0x1274=0x4a374c33.
tia_cnt_i : 76 ,
tia_cnt_q : 1 ,
I:reg0x1150=0x29292723.
Q:reg0x1154=0x17172729.
RX0 tia case :1,absolute value dc_i : -5 , value dc_q : -2 
####:reg0x1274=0x38007f.
####:reg0x1278=0x48374a35.
tia_cnt_i : 74 ,
tia_cnt_q : 1 ,
I:reg0x1150=0x29292723.
Q:reg0x1154=0x17172729.
RX0 tia case :2,absolute value dc_i : -7 , value dc_q : -3 
####:reg0x1278=0x38007f.
####:reg0x127c=0x46394835.
tia_cnt_i : 72 ,
tia_cnt_q : 1 ,
I:reg0x1150=0x29292723.
Q:reg0x1154=0x17172729.
RX0 tia case :3,absolute value dc_i : -8 , value dc_q : -4 
####:reg0x127c=0x3a007d.
####:reg0x1280=0x3e413e41.
tia_cnt_i : 62 ,
tia_cnt_q : 1 ,
I:reg0x1150=0x29292723.
Q:reg0x1154=0x17172729.
RX0 tia case :4,absolute value dc_i : -8 , value dc_q : -5 
####:reg0x1280=0x42007f.
####:reg0x1284=0x443b443b.
tia_cnt_i : 68 ,
tia_cnt_q : 1 ,
I:reg0x1150=0x29292723.
Q:reg0x1154=0x17172729.
RX0 tia case :5,absolute value dc_i : -8 , value dc_q : -3 
####:reg0x1284=0x3c007f.
####:reg0x1288=0x3e413e41.
tia_cnt_i : 62 ,
tia_cnt_q : 1 ,
I:reg0x1150=0x29292723.
Q:reg0x1154=0x17172729.
RX0 tia case :6,absolute value dc_i : -8 , value dc_q : -3 
####:reg0x1288=0x42007f.
####:reg0x128c=0x3e413e41.
tia_cnt_i : 62 ,
tia_cnt_q : 1 ,
I:reg0x1150=0x29292723.
Q:reg0x1154=0x17172729.
RX0 tia case :7,absolute value dc_i : -8 , value dc_q : -3 
####:reg0x128c=0x42007f.
####:reg0x1290=0x3c433a45.
tia_cnt_i : 58 ,
tia_cnt_q : 1 ,
I:reg0x1150=0x29292723.
Q:reg0x1154=0x17172729.
RX0 tia case :8,absolute value dc_i : -8 , value dc_q : -3 
####:reg0x1290=0x44007f.
####:reg0x1294=0x3c433c43.
tia_cnt_i : 60 ,
tia_cnt_q : 1 ,
I:reg0x1150=0x29292723.
Q:reg0x1154=0x17172729.
RX0 tia case :9,absolute value dc_i : -8 , value dc_q : -3 
####:reg0x1294=0x44007f.
####:reg0x1298=0x3c413c43.
tia_cnt_i : 60 ,
tia_cnt_q : 1 ,
I:reg0x1150=0x29292723.
Q:reg0x1154=0x17172729.
RX0 tia case :10,absolute value dc_i : -8 , value dc_q : -3 
####:reg0x1298=0x42007f.
####:reg0x129c=0x3c433a45.
tia_cnt_i : 58 ,
tia_cnt_q : 1 ,
I:reg0x1150=0x29292723.
Q:reg0x1154=0x17172729.
RX0 tia case :11,absolute value dc_i : -8 , value dc_q : -3 
####:reg0x129c=0x44007f.
####:reg0x12a0=0x3c433c43.
tia_cnt_i : 60 ,
tia_cnt_q : 1 ,
I:reg0x1150=0x29292723.
Q:reg0x1154=0x17172729.
RX0 tia case :12,absolute value dc_i : -8 , value dc_q : -3 
####:reg0x12a0=0x44007f.
rx1 tia cali begin:
Q:reg0x12b0=0x46394639.
 RX1 :reg0x1130=0x46394639.
tia_cnt_i : 70 ,
tia_cnt_q : 1 ,
RX1 tia case :0,absolute value dc_i : -6 , value dc_q : -2 
RX1:reg0x12b0=0x3a007f.
Q:reg0x12b4=0x443b443b.
 RX1 :reg0x1130=0x443b443b.
tia_cnt_i : 68 ,
tia_cnt_q : 1 ,
RX1 tia case :1,absolute value dc_i : -5 , value dc_q : -2 
RX1:reg0x12b4=0x3c007f.
Q:reg0x12b8=0x443b4439.
 RX1 :reg0x1130=0x4439443b.
tia_cnt_i : 68 ,
tia_cnt_q : 1 ,
RX1 tia case :2,absolute value dc_i : -6 , value dc_q : -4 
RX1:reg0x12b8=0x3c007d.
Q:reg0x12bc=0x443b443b.
 RX1 :reg0x1130=0x443b443b.
tia_cnt_i : 53 ,
tia_cnt_q : 47 ,
RX1 tia case :3,absolute value dc_i : -1 , value dc_q : -1 
RX1:reg0x12bc=0xf6a0f70.
Q:reg0x12c0=0x3e413e41.
 RX1 :reg0x1130=0x3e413e41.
tia_cnt_i : 19 ,
tia_cnt_q : 4 ,
RX1 tia case :4,absolute value dc_i : 1 , value dc_q : -1 
RX1:reg0x12c0=0x2b452b54.
Q:reg0x12c4=0x3e433c43.
 RX1 :reg0x1130=0x3c433e43.
tia_cnt_i : 60 ,
tia_cnt_q : 1 ,
RX1 tia case :5,absolute value dc_i : -6 , value dc_q : -4 
RX1:reg0x12c4=0x44007f.
Q:reg0x12c8=0x3e433c43.
 RX1 :reg0x1130=0x3c433e43.
tia_cnt_i : 2 ,
tia_cnt_q : 60 ,
RX1 tia case :6,absolute value dc_i : 0 , value dc_q : -5 
RX1:reg0x12c8=0x3a7f3a45.
Q:reg0x12cc=0x3e433e43.
 RX1 :reg0x1130=0x3e433e43.
tia_cnt_i : 13 ,
tia_cnt_q : 43 ,
RX1 tia case :7,absolute value dc_i : -1 , value dc_q : -1 
RX1:reg0x12cc=0x316e3150.
Q:reg0x12d0=0x3c433a45.
 RX1 :reg0x1130=0x3a453c43.
tia_cnt_i : 11 ,
tia_cnt_q : 60 ,
RX1 tia case :8,absolute value dc_i : 1 , value dc_q : -5 
RX1:reg0x12d0=0x2f7f2f50.
Q:reg0x12d4=0x3a453a45.
 RX1 :reg0x1130=0x3a453a45.
tia_cnt_i : 58 ,
tia_cnt_q : 1 ,
RX1 tia case :9,absolute value dc_i : -6 , value dc_q : -4 
RX1:reg0x12d4=0x46007f.
Q:reg0x12d8=0x3c433c43.
 RX1 :reg0x1130=0x3c433c43.
tia_cnt_i : 60 ,
tia_cnt_q : 1 ,
RX1 tia case :10,absolute value dc_i : -5 , value dc_q : -5 
RX1:reg0x12d8=0x44007f.
Q:reg0x12dc=0x3c433c43.
 RX1 :reg0x1130=0x3c433c43.
tia_cnt_i : 60 ,
tia_cnt_q : 1 ,
RX1 tia case :11,absolute value dc_i : -5 , value dc_q : -5 
RX1:reg0x12dc=0x44007f.
Q:reg0x12e0=0x3c433a45.
 RX1 :reg0x1130=0x3a453c43.
tia_cnt_i : 10 ,
tia_cnt_q : 13 ,
RX1 tia case :12,absolute value dc_i : 0 , value dc_q : 0 
RX1:reg0x12e0=0x3050304f.
tia calibration end!
rx0 vga calibration begin
reg0x1120=0x3fc100.
vga case:1 pass.
RX0 vga case:1 ,absolute value dc_i_tmp : 9 , value dc_q_tmp : 5 ,I:reg0x1184=0x27293119.   Q:reg0x11c0=0x17172923.
vga case:2 pass.
RX0 vga case:2 ,absolute value dc_i_tmp : 9 , value dc_q_tmp : 5 ,I:reg0x1188=0x27293119.   Q:reg0x11c4=0x17172923.
vga case:3 pass.
RX0 vga case:3 ,absolute value dc_i_tmp : 9 , value dc_q_tmp : 5 ,I:reg0x118c=0x292b3119.   Q:reg0x11c8=0x17172923.
vga case:4 pass.
RX0 vga case:4 ,absolute value dc_i_tmp : 9 , value dc_q_tmp : 5 ,I:reg0x1190=0x292b3119.   Q:reg0x11cc=0x151b2723.
vga case:5 pass.
RX0 vga case:5 ,absolute value dc_i_tmp : 8 , value dc_q_tmp : 5 ,I:reg0x1194=0x292b3119.   Q:reg0x11d0=0x19172923.
vga case:6 pass.
RX0 vga case:6 ,absolute value dc_i_tmp : 8 , value dc_q_tmp : 5 ,I:reg0x1198=0x2b2d3119.   Q:reg0x11d4=0x131d2723.
vga case:7 pass.
RX0 vga case:7 ,absolute value dc_i_tmp : 8 , value dc_q_tmp : 5 ,I:reg0x119c=0x272b3119.   Q:reg0x11d8=0x11212723.
vga case:8 pass.
RX0 vga case:8 ,absolute value dc_i_tmp : 8 , value dc_q_tmp : 5 ,I:reg0x11a0=0x272f3317.   Q:reg0x11dc=0x15192923.
vga case:9 pass.
RX0 vga case:9 ,absolute value dc_i_tmp : 8 , value dc_q_tmp : 5 ,I:reg0x11a4=0x272b3511.   Q:reg0x11e0=0x15192b23.
vga case:10 pass.
RX0 vga case:10 ,absolute value dc_i_tmp : 8 , value dc_q_tmp : 4 ,I:reg0x11a8=0x2d253d0f.   Q:reg0x11e4=0x1d152d21.
vga case:11 pass.
RX0 vga case:11 ,absolute value dc_i_tmp : 7 , value dc_q_tmp : 5 ,I:reg0x11ac=0x2d2b3f07.   Q:reg0x11e8=0x13172f21.
vga case:12 pass.
RX0 vga case:12 ,absolute value dc_i_tmp : 7 , value dc_q_tmp : 5 ,I:reg0x11b0=0x13f3f03.   Q:reg0x11ec=0x13193121.
vga case:13 pass.
RX0 vga case:13 ,absolute value dc_i_tmp : 1 , value dc_q_tmp : 5 ,I:reg0x11b4=0x13f3f01.   Q:reg0x11f0=0x1d19311b.
vga case:14 pass.
RX0 vga case:14 ,absolute value dc_i_tmp : 1 , value dc_q_tmp : 4 ,I:reg0x11b8=0x13f3f01.   Q:reg0x11f4=0x1b173717.
rx1 vga calibration begin
rx1 vga case:1 pass.
RX1 vga case:1 ,absolute value dc_i_tmp : 6 , value dc_q_tmp : 5 ,I:reg0x11fc=0x292b2717. Q:reg0x1238=0x3f3f2519.
rx1 vga case:2 pass.
RX1 vga case:2 ,absolute value dc_i_tmp : 6 , value dc_q_tmp : 5 ,I:reg0x1200=0x292b2717. Q:reg0x123c=0x3f3f2519.
rx1 vga case:3 pass.
RX1 vga case:3 ,absolute value dc_i_tmp : 6 , value dc_q_tmp : 4 ,I:reg0x1204=0x292b2717. Q:reg0x1240=0x3f3f2519.
rx1 vga case:4 pass.
RX1 vga case:4 ,absolute value dc_i_tmp : 6 , value dc_q_tmp : 5 ,I:reg0x1208=0x292b2717. Q:reg0x1244=0x3f3f2519.
rx1 vga case:5 pass.
RX1 vga case:5 ,absolute value dc_i_tmp : 4 , value dc_q_tmp : 6 ,I:reg0x120c=0x292b2717. Q:reg0x1248=0x3f3f2519.
rx1 vga case:6 pass.
RX1 vga case:6 ,absolute value dc_i_tmp : 6 , value dc_q_tmp : 5 ,I:reg0x1210=0x292b2717. Q:reg0x124c=0x3f3f2519.
rx1 vga case:7 pass.
RX1 vga case:7 ,absolute value dc_i_tmp : 6 , value dc_q_tmp : 6 ,I:reg0x1214=0x272b2717. Q:reg0x1250=0x3f3f2519.
rx1 vga case:8 pass.
RX1 vga case:8 ,absolute value dc_i_tmp : 7 , value dc_q_tmp : 5 ,I:reg0x1218=0x2b292915. Q:reg0x1254=0x3b3f2317.
rx1 vga case:9 pass.
RX1 vga case:9 ,absolute value dc_i_tmp : 5 , value dc_q_tmp : 4 ,I:reg0x121c=0x292b2b13. Q:reg0x1258=0x393f2517.
rx1 vga case:10 pass.
RX1 vga case:10 ,absolute value dc_i_tmp : 5 , value dc_q_tmp : 5 ,I:reg0x1220=0x272b2b0f. Q:reg0x125c=0x3f3f2715.
rx1 vga case:11 pass.
RX1 vga case:11 ,absolute value dc_i_tmp : 5 , value dc_q_tmp : 5 ,I:reg0x1224=0x2f27310d. Q:reg0x1260=0x353f2713.
rx1 vga case:12 pass.
RX1 vga case:12 ,absolute value dc_i_tmp : 6 , value dc_q_tmp : 4 ,I:reg0x1228=0x292f3309. Q:reg0x1264=0x393f2b13.
rx1 vga case:13 pass.
RX1 vga case:13 ,absolute value dc_i_tmp : 5 , value dc_q_tmp : 4 ,I:reg0x122c=0x2d273b05. Q:reg0x1268=0x3f3f2d0f.
rx1 vga case:14 pass.
RX1 vga case:14 ,absolute value dc_i_tmp : 0 , value dc_q_tmp : 4 ,I:reg0x1230=0x13f3f01. Q:reg0x126c=0x3d3f3309.
reg0x1120=0x3c0100.
vga calibration end!
RX0: 0x103c : e0014000 ,0x1040 : 50001102 
RX1: 0x1054 : e0014000 ,0x1058 : 50001100 
THIS CASE J: 0 M: 5 
adc calibration begin
calibration begin
RX0 cali pre ,absolute value dc_i_tmp : 1 , value dc_q_tmp : 1 ,

reg0x1180=0x29292723.
reg0x11bc=0x17192529.
RX1 cali pre ,absolute value dc_i_tmp : 1 , value dc_q_tmp : 1 ,reg0x11f8=0x2b2b1715.
reg0x1234=0x3f3f1f1b.
rx0 tia cali begin:
####:reg0x1270=0x48354c33.
tia_cnt_i : 0 ,
tia_cnt_q : 0 ,
I:reg0x1150=0x29292723.
Q:reg0x1154=0x17192529.
RX0 tia case :0,absolute value dc_i : -1 , value dc_q : -1 
####:reg0x1270=0x48354c33.
####:reg0x1274=0x48374a35.
tia_cnt_i : 0 ,
tia_cnt_q : 0 ,
I:reg0x1150=0x29292723.
Q:reg0x1154=0x17192529.
RX0 tia case :1,absolute value dc_i : -1 , value dc_q : 1 
####:reg0x1274=0x48374a35.
####:reg0x1278=0x48374639.
tia_cnt_i : 3 ,
tia_cnt_q : 0 ,
I:reg0x1150=0x29292723.
Q:reg0x1154=0x17192529.
RX0 tia case :2,absolute value dc_i : -1 , value dc_q : 1 
####:reg0x1278=0x4837433c.
####:reg0x127c=0x44394a37.
tia_cnt_i : 15 ,
tia_cnt_q : 0 ,
I:reg0x1150=0x29292723.
Q:reg0x1154=0x17192529.
RX0 tia case :3,absolute value dc_i : -1 , value dc_q : -1 
####:reg0x127c=0x44393b46.
####:reg0x1280=0x3e413e41.
tia_cnt_i : 22 ,
tia_cnt_q : 57 ,
I:reg0x1150=0x29292723.
Q:reg0x1154=0x17192529.
RX0 tia case :4,absolute value dc_i : -1 , value dc_q : 1 
####:reg0x1280=0x28082857.
####:reg0x1284=0x3e413e41.
tia_cnt_i : 17 ,
tia_cnt_q : 63 ,
I:reg0x1150=0x29292723.
Q:reg0x1154=0x17192529.
RX0 tia case :5,absolute value dc_i : -1 , value dc_q : 1 
####:reg0x1284=0x2d022d52.
####:reg0x1288=0x3e413e41.
tia_cnt_i : 16 ,
tia_cnt_q : 49 ,
I:reg0x1150=0x29292723.
Q:reg0x1154=0x17192529.
RX0 tia case :6,absolute value dc_i : -1 , value dc_q : 1 
####:reg0x1288=0x2e102e51.
####:reg0x128c=0x3e413c41.
tia_cnt_i : 20 ,
tia_cnt_q : 0 ,
I:reg0x1150=0x29292723.
Q:reg0x1154=0x17192529.
RX0 tia case :7,absolute value dc_i : -1 , value dc_q : -1 
####:reg0x128c=0x3e412855.
####:reg0x1290=0x3c433c43.
tia_cnt_i : 20 ,
tia_cnt_q : 57 ,
I:reg0x1150=0x29292723.
Q:reg0x1154=0x17192529.
RX0 tia case :8,absolute value dc_i : -1 , value dc_q : 1 
####:reg0x1290=0x280a2857.
####:reg0x1294=0x3c433c43.
tia_cnt_i : 17 ,
tia_cnt_q : 52 ,
I:reg0x1150=0x29292723.
Q:reg0x1154=0x17192529.
RX0 tia case :9,absolute value dc_i : -1 , value dc_q : -1 
####:reg0x1294=0x2b0f2b54.
####:reg0x1298=0x3c433c43.
tia_cnt_i : 21 ,
tia_cnt_q : 52 ,
I:reg0x1150=0x29292723.
Q:reg0x1154=0x17192529.
RX0 tia case :10,absolute value dc_i : -1 , value dc_q : 1 
####:reg0x1298=0x270f2758.
####:reg0x129c=0x3c433a45.
tia_cnt_i : 14 ,
tia_cnt_q : 0 ,
I:reg0x1150=0x29292723.
Q:reg0x1154=0x17192529.
RX0 tia case :11,absolute value dc_i : -1 , value dc_q : -1 
####:reg0x129c=0x3c432c53.
####:reg0x12a0=0x3c433c43.
tia_cnt_i : 19 ,
tia_cnt_q : 0 ,
I:reg0x1150=0x29292723.
Q:reg0x1154=0x17192529.
RX0 tia case :12,absolute value dc_i : -1 , value dc_q : -1 
####:reg0x12a0=0x3c432956.
rx1 tia cali begin:
Q:reg0x12b0=0x44394639.
 RX1 :reg0x1130=0x46394439.
tia_cnt_i : 0 ,
tia_cnt_q : 0 ,
RX1 tia case :0,absolute value dc_i : 0 , value dc_q : -1 
RX1:reg0x12b0=0x44394639.
Q:reg0x12b4=0x463b463b.
 RX1 :reg0x1130=0x463b463b.
tia_cnt_i : 0 ,
tia_cnt_q : 0 ,
RX1 tia case :1,absolute value dc_i : 0 , value dc_q : 0 
RX1:reg0x12b4=0x463b463b.
Q:reg0x12b8=0x443b463b.
 RX1 :reg0x1130=0x463b443b.
tia_cnt_i : 0 ,
tia_cnt_q : 0 ,
RX1 tia case :2,absolute value dc_i : 0 , value dc_q : 0 
RX1:reg0x12b8=0x443b463b.
Q:reg0x12bc=0x463b4439.
 RX1 :reg0x1130=0x4439463b.
tia_cnt_i : 0 ,
tia_cnt_q : 0 ,
RX1 tia case :3,absolute value dc_i : 0 , value dc_q : 0 
RX1:reg0x12bc=0x463b4439.
Q:reg0x12c0=0x3e41463b.
 RX1 :reg0x1130=0x463b3e41.
tia_cnt_i : 0 ,
tia_cnt_q : 0 ,
RX1 tia case :4,absolute value dc_i : 0 , value dc_q : 0 
RX1:reg0x12c0=0x3e41463b.
Q:reg0x12c4=0x3e413c41.
 RX1 :reg0x1130=0x3c413e41.
tia_cnt_i : 0 ,
tia_cnt_q : 0 ,
RX1 tia case :5,absolute value dc_i : 0 , value dc_q : 0 
RX1:reg0x12c4=0x3e413c41.
Q:reg0x12c8=0x3e433e43.
 RX1 :reg0x1130=0x3e433e43.
tia_cnt_i : 0 ,
tia_cnt_q : 0 ,
RX1 tia case :6,absolute value dc_i : 0 , value dc_q : 0 
RX1:reg0x12c8=0x3e433e43.
Q:reg0x12cc=0x3c413c41.
 RX1 :reg0x1130=0x3c413c41.
tia_cnt_i : 0 ,
tia_cnt_q : 0 ,
RX1 tia case :7,absolute value dc_i : 0 , value dc_q : 0 
RX1:reg0x12cc=0x3c413c41.
Q:reg0x12d0=0x3a453a45.
 RX1 :reg0x1130=0x3a453a45.
tia_cnt_i : 0 ,
tia_cnt_q : 0 ,
RX1 tia case :8,absolute value dc_i : 0 , value dc_q : 0 
RX1:reg0x12d0=0x3a453a45.
Q:reg0x12d4=0x3a453a45.
 RX1 :reg0x1130=0x3a453a45.
tia_cnt_i : 0 ,
tia_cnt_q : 0 ,
RX1 tia case :9,absolute value dc_i : 0 , value dc_q : 0 
RX1:reg0x12d4=0x3a453a45.
Q:reg0x12d8=0x3c433a45.
 RX1 :reg0x1130=0x3a453c43.
tia_cnt_i : 0 ,
tia_cnt_q : 0 ,
RX1 tia case :10,absolute value dc_i : 0 , value dc_q : 0 
RX1:reg0x12d8=0x3c433a45.
Q:reg0x12dc=0x3a453c43.
 RX1 :reg0x1130=0x3c433a45.
tia_cnt_i : 0 ,
tia_cnt_q : 0 ,
RX1 tia case :11,absolute value dc_i : 0 , value dc_q : 0 
RX1:reg0x12dc=0x3a453c43.
Q:reg0x12e0=0x3a453c43.
 RX1 :reg0x1130=0x3c433a45.
tia_cnt_i : 0 ,
tia_cnt_q : 0 ,
RX1 tia case :12,absolute value dc_i : 0 , value dc_q : 0 
RX1:reg0x12e0=0x3a453c43.
tia calibration end!
rx0 vga calibration begin
reg0x1120=0x3fc100.
vga case:1 pass.
RX0 vga case:1 ,absolute value dc_i_tmp : 1 , value dc_q_tmp : 1 ,I:reg0x1184=0x29292723.   Q:reg0x11c0=0x17192327.
vga case:2 pass.
RX0 vga case:2 ,absolute value dc_i_tmp : 1 , value dc_q_tmp : 2 ,I:reg0x1188=0x29292723.   Q:reg0x11c4=0x17172729.
vga case:3 pass.
RX0 vga case:3 ,absolute value dc_i_tmp : 1 , value dc_q_tmp : 0 ,I:reg0x118c=0x29292723.   Q:reg0x11c8=0x19172729.
vga case:4 pass.
RX0 vga case:4 ,absolute value dc_i_tmp : 1 , value dc_q_tmp : 1 ,I:reg0x1190=0x29292723.   Q:reg0x11cc=0x19172729.
vga case:5 pass.
RX0 vga case:5 ,absolute value dc_i_tmp : 1 , value dc_q_tmp : 1 ,I:reg0x1194=0x29292723.   Q:reg0x11d0=0x15192327.
vga case:6 pass.
RX0 vga case:6 ,absolute value dc_i_tmp : 0 , value dc_q_tmp : 1 ,I:reg0x1198=0x2b292723.   Q:reg0x11d4=0x19152729.
vga case:7 pass.
RX0 vga case:7 ,absolute value dc_i_tmp : 1 , value dc_q_tmp : 1 ,I:reg0x119c=0x2d292723.   Q:reg0x11d8=0x1b152527.
vga case:8 pass.
RX0 vga case:8 ,absolute value dc_i_tmp : 0 , value dc_q_tmp : 1 ,I:reg0x11a0=0x2b2b2723.   Q:reg0x11dc=0x17192529.
vga case:9 pass.
RX0 vga case:9 ,absolute value dc_i_tmp : 0 , value dc_q_tmp : 1 ,I:reg0x11a4=0x292b2723.   Q:reg0x11e0=0x1b152529.
vga case:10 pass.
RX0 vga case:10 ,absolute value dc_i_tmp : 1 , value dc_q_tmp : 0 ,I:reg0x11a8=0x272f2723.   Q:reg0x11e4=0x19152329.
vga case:11 pass.
RX0 vga case:11 ,absolute value dc_i_tmp : 0 , value dc_q_tmp : 0 ,I:reg0x11ac=0x2b292721.   Q:reg0x11e8=0x1b17232b.
vga case:12 pass.
RX0 vga case:12 ,absolute value dc_i_tmp : 1 , value dc_q_tmp : 1 ,I:reg0x11b0=0x232d2721.   Q:reg0x11ec=0x1715212b.
vga case:13 pass.
RX0 vga case:13 ,absolute value dc_i_tmp : 1 , value dc_q_tmp : 0 ,I:reg0x11b4=0x25312721.   Q:reg0x11f0=0x21211f2d.
vga case:14 pass.
RX0 vga case:14 ,absolute value dc_i_tmp : 0 , value dc_q_tmp : 0 ,I:reg0x11b8=0x311f2d21.   Q:reg0x11f4=0x1d191b2f.
rx1 vga calibration begin
rx1 vga case:1 pass.
RX1 vga case:1 ,absolute value dc_i_tmp : 0 , value dc_q_tmp : 1 ,I:reg0x11fc=0x29291f1d. Q:reg0x1238=0x3f3f1f1b.
rx1 vga case:2 pass.
RX1 vga case:2 ,absolute value dc_i_tmp : 1 , value dc_q_tmp : 0 ,I:reg0x1200=0x29291f1d. Q:reg0x123c=0x3f3f1f1b.
rx1 vga case:3 pass.
RX1 vga case:3 ,absolute value dc_i_tmp : 1 , value dc_q_tmp : 1 ,I:reg0x1204=0x29291f1d. Q:reg0x1240=0x3f3f1f1b.
rx1 vga case:4 pass.
RX1 vga case:4 ,absolute value dc_i_tmp : 1 , value dc_q_tmp : 1 ,I:reg0x1208=0x29291f1d. Q:reg0x1244=0x3f3f1f1b.
rx1 vga case:5 pass.
RX1 vga case:5 ,absolute value dc_i_tmp : 1 , value dc_q_tmp : 1 ,I:reg0x120c=0x29291f1d. Q:reg0x1248=0x3f3f1f1b.
rx1 vga case:6 pass.
RX1 vga case:6 ,absolute value dc_i_tmp : 1 , value dc_q_tmp : 0 ,I:reg0x1210=0x29291f1d. Q:reg0x124c=0x3f3f1f1b.
rx1 vga case:7 pass.
RX1 vga case:7 ,absolute value dc_i_tmp : 0 , value dc_q_tmp : 1 ,I:reg0x1214=0x2b291f1d. Q:reg0x1250=0x3d3f1f1b.
rx1 vga case:8 pass.
RX1 vga case:8 ,absolute value dc_i_tmp : 1 , value dc_q_tmp : 1 ,I:reg0x1218=0x29271f1d. Q:reg0x1254=0x3f3f1f1b.
rx1 vga case:9 pass.
RX1 vga case:9 ,absolute value dc_i_tmp : 1 , value dc_q_tmp : 1 ,I:reg0x121c=0x2b271f1d. Q:reg0x1258=0x3f3f211d.
rx1 vga case:10 pass.
RX1 vga case:10 ,absolute value dc_i_tmp : 0 , value dc_q_tmp : 1 ,I:reg0x1220=0x272d1d1d. Q:reg0x125c=0x3f3f211d.
rx1 vga case:11 pass.
RX1 vga case:11 ,absolute value dc_i_tmp : 0 , value dc_q_tmp : 2 ,I:reg0x1224=0x292b1d1d. Q:reg0x1260=0x3f3f211d.
rx1 vga case:12 pass.
RX1 vga case:12 ,absolute value dc_i_tmp : 1 , value dc_q_tmp : 1 ,I:reg0x1228=0x292b1f1f. Q:reg0x1264=0x393f1f1d.
rx1 vga case:13 pass.
RX1 vga case:13 ,absolute value dc_i_tmp : 1 , value dc_q_tmp : 0 ,I:reg0x122c=0x25311d1f. Q:reg0x1268=0x3d3f1f1d.
rx1 vga case:14 pass.
RX1 vga case:14 ,absolute value dc_i_tmp : 1 , value dc_q_tmp : 1 ,I:reg0x1230=0x21311b1f. Q:reg0x126c=0x353f1d1d.
reg0x1120=0x3c0100.
vga calibration end!
RX0: 0x103c : e0018000 ,0x1040 : 60001102 
RX1: 0x1054 : e0018000 ,0x1058 : 60001100 
THIS CASE J: 0 M: 6 
adc calibration begin
calibration begin
RX0 cali pre ,absolute value dc_i_tmp : 1 , value dc_q_tmp : 1 ,

reg0x1180=0x29292723.
reg0x11bc=0x17192327.
RX1 cali pre ,absolute value dc_i_tmp : 0 , value dc_q_tmp : 1 ,reg0x11f8=0x2b2b1f1d.
reg0x1234=0x3f3f1f1b.
rx0 tia cali begin:
####:reg0x1270=0x48374a35.
tia_cnt_i : 0 ,
tia_cnt_q : 0 ,
I:reg0x1150=0x29292723.
Q:reg0x1154=0x17192327.
RX0 tia case :0,absolute value dc_i : 0 , value dc_q : -1 
####:reg0x1270=0x48374a35.
####:reg0x1274=0x4a374a35.
tia_cnt_i : 0 ,
tia_cnt_q : 0 ,
I:reg0x1150=0x29292723.
Q:reg0x1154=0x17192327.
RX0 tia case :1,absolute value dc_i : -1 , value dc_q : 1 
####:reg0x1274=0x4a374a35.
####:reg0x1278=0x48374a35.
tia_cnt_i : 5 ,
tia_cnt_q : 0 ,
I:reg0x1150=0x29292723.
Q:reg0x1154=0x17192327.
RX0 tia case :2,absolute value dc_i : -1 , value dc_q : 1 
####:reg0x1278=0x4837453a.
####:reg0x127c=0x46394835.
tia_cnt_i : 15 ,
tia_cnt_q : 21 ,
I:reg0x1150=0x29292723.
Q:reg0x1154=0x17192327.
RX0 tia case :3,absolute value dc_i : -1 , value dc_q : 1 
####:reg0x127c=0x39243944.
####:reg0x1280=0x443b443b.
tia_cnt_i : 22 ,
tia_cnt_q : 0 ,
I:reg0x1150=0x29292723.
Q:reg0x1154=0x17192327.
RX0 tia case :4,absolute value dc_i : -1 , value dc_q : -1 
####:reg0x1280=0x443b2e51.
####:reg0x1284=0x3e414439.
tia_cnt_i : 22 ,
tia_cnt_q : 64 ,
I:reg0x1150=0x29292723.
Q:reg0x1154=0x17192327.
RX0 tia case :5,absolute value dc_i : -1 , value dc_q : 1 
####:reg0x1284=0x2e012e4f.
####:reg0x1288=0x3c413e41.
tia_cnt_i : 17 ,
tia_cnt_q : 64 ,
I:reg0x1150=0x29292723.
Q:reg0x1154=0x17192327.
RX0 tia case :6,absolute value dc_i : -1 , value dc_q : 1 
####:reg0x1288=0x2d012d52.
####:reg0x128c=0x3c413e43.
tia_cnt_i : 15 ,
tia_cnt_q : 65 ,
I:reg0x1150=0x29292723.
Q:reg0x1154=0x17192327.
RX0 tia case :7,absolute value dc_i : -1 , value dc_q : 2 
####:reg0x128c=0x2f002f52.
####:reg0x1290=0x3c433c43.
tia_cnt_i : 19 ,
tia_cnt_q : 66 ,
I:reg0x1150=0x29292723.
Q:reg0x1154=0x17192327.
RX0 tia case :8,absolute value dc_i : -1 , value dc_q : 1 
####:reg0x1290=0x29012956.
####:reg0x1294=0x3c433c43.
tia_cnt_i : 17 ,
tia_cnt_q : 0 ,
I:reg0x1150=0x29292723.
Q:reg0x1154=0x17192327.
RX0 tia case :9,absolute value dc_i : -1 , value dc_q : -1 
####:reg0x1294=0x3c432b54.
####:reg0x1298=0x3c433c43.
tia_cnt_i : 17 ,
tia_cnt_q : 61 ,
I:reg0x1150=0x29292723.
Q:reg0x1154=0x17192327.
RX0 tia case :10,absolute value dc_i : -1 , value dc_q : 1 
####:reg0x1298=0x2b062b54.
####:reg0x129c=0x3c433c43.
tia_cnt_i : 19 ,
tia_cnt_q : 51 ,
I:reg0x1150=0x29292723.
Q:reg0x1154=0x17192327.
RX0 tia case :11,absolute value dc_i : -1 , value dc_q : 1 
####:reg0x129c=0x29102956.
####:reg0x12a0=0x3c433c43.
tia_cnt_i : 18 ,
tia_cnt_q : 67 ,
I:reg0x1150=0x29292723.
Q:reg0x1154=0x17192327.
RX0 tia case :12,absolute value dc_i : -1 , value dc_q : 2 
####:reg0x12a0=0x2a002a55.
rx1 tia cali begin:
Q:reg0x12b0=0x463b463b.
 RX1 :reg0x1130=0x463b463b.
tia_cnt_i : 0 ,
tia_cnt_q : 0 ,
RX1 tia case :0,absolute value dc_i : 0 , value dc_q : -1 
RX1:reg0x12b0=0x463b463b.
Q:reg0x12b4=0x44394439.
 RX1 :reg0x1130=0x44394439.
tia_cnt_i : 0 ,
tia_cnt_q : 0 ,
RX1 tia case :1,absolute value dc_i : 0 , value dc_q : 0 
RX1:reg0x12b4=0x44394439.
Q:reg0x12b8=0x423d463b.
 RX1 :reg0x1130=0x463b423d.
tia_cnt_i : 0 ,
tia_cnt_q : 0 ,
RX1 tia case :2,absolute value dc_i : 0 , value dc_q : 0 
RX1:reg0x12b8=0x423d463b.
Q:reg0x12bc=0x443b463b.
 RX1 :reg0x1130=0x463b443b.
tia_cnt_i : 0 ,
tia_cnt_q : 0 ,
RX1 tia case :3,absolute value dc_i : 0 , value dc_q : 0 
RX1:reg0x12bc=0x443b463b.
Q:reg0x12c0=0x463b3e41.
 RX1 :reg0x1130=0x3e41463b.
tia_cnt_i : 0 ,
tia_cnt_q : 0 ,
RX1 tia case :4,absolute value dc_i : 0 , value dc_q : 0 
RX1:reg0x12c0=0x463b3e41.
Q:reg0x12c4=0x3e413e41.
 RX1 :reg0x1130=0x3e413e41.
tia_cnt_i : 0 ,
tia_cnt_q : 0 ,
RX1 tia case :5,absolute value dc_i : 0 , value dc_q : 0 
RX1:reg0x12c4=0x3e413e41.
Q:reg0x12c8=0x3e433c43.
 RX1 :reg0x1130=0x3c433e43.
tia_cnt_i : 0 ,
tia_cnt_q : 0 ,
RX1 tia case :6,absolute value dc_i : 0 , value dc_q : 0 
RX1:reg0x12c8=0x3e433c43.
Q:reg0x12cc=0x3c413c41.
 RX1 :reg0x1130=0x3c413c41.
tia_cnt_i : 0 ,
tia_cnt_q : 0 ,
RX1 tia case :7,absolute value dc_i : 0 , value dc_q : 0 
RX1:reg0x12cc=0x3c413c41.
Q:reg0x12d0=0x3c433a45.
 RX1 :reg0x1130=0x3a453c43.
tia_cnt_i : 0 ,
tia_cnt_q : 0 ,
RX1 tia case :8,absolute value dc_i : 0 , value dc_q : 0 
RX1:reg0x12d0=0x3c433a45.
Q:reg0x12d4=0x3c433c43.
 RX1 :reg0x1130=0x3c433c43.
tia_cnt_i : 0 ,
tia_cnt_q : 0 ,
RX1 tia case :9,absolute value dc_i : 0 , value dc_q : 0 
RX1:reg0x12d4=0x3c433c43.
Q:reg0x12d8=0x3c433c43.
 RX1 :reg0x1130=0x3c433c43.
tia_cnt_i : 0 ,
tia_cnt_q : 0 ,
RX1 tia case :10,absolute value dc_i : 0 , value dc_q : 0 
RX1:reg0x12d8=0x3c433c43.
Q:reg0x12dc=0x3e433c43.
 RX1 :reg0x1130=0x3c433e43.
tia_cnt_i : 0 ,
tia_cnt_q : 0 ,
RX1 tia case :11,absolute value dc_i : 0 , value dc_q : 0 
RX1:reg0x12dc=0x3e433c43.
Q:reg0x12e0=0x3a453c43.
 RX1 :reg0x1130=0x3c433a45.
tia_cnt_i : 0 ,
tia_cnt_q : 0 ,
RX1 tia case :12,absolute value dc_i : 0 , value dc_q : 0 
RX1:reg0x12e0=0x3a453c43.
tia calibration end!
rx0 vga calibration begin
reg0x1120=0x3fc100.
vga case:1 pass.
RX0 vga case:1 ,absolute value dc_i_tmp : 1 , value dc_q_tmp : 0 ,I:reg0x1184=0x29292723.   Q:reg0x11c0=0x17172729.
vga case:2 pass.
RX0 vga case:2 ,absolute value dc_i_tmp : 2 , value dc_q_tmp : 1 ,I:reg0x1188=0x292b2723.   Q:reg0x11c4=0x17172527.
vga case:3 pass.
RX0 vga case:3 ,absolute value dc_i_tmp : 1 , value dc_q_tmp : 1 ,I:reg0x118c=0x27292723.   Q:reg0x11c8=0x17172527.
vga case:4 pass.
RX0 vga case:4 ,absolute value dc_i_tmp : 1 , value dc_q_tmp : 1 ,I:reg0x1190=0x27292723.   Q:reg0x11cc=0x15192327.
vga case:5 pass.
RX0 vga case:5 ,absolute value dc_i_tmp : 1 , value dc_q_tmp : 1 ,I:reg0x1194=0x292b2723.   Q:reg0x11d0=0x19172729.
vga case:6 pass.
RX0 vga case:6 ,absolute value dc_i_tmp : 0 , value dc_q_tmp : 1 ,I:reg0x1198=0x29292723.   Q:reg0x11d4=0x151b2327.
vga case:7 pass.
RX0 vga case:7 ,absolute value dc_i_tmp : 0 , value dc_q_tmp : 1 ,I:reg0x119c=0x27292723.   Q:reg0x11d8=0x19152729.
vga case:8 pass.
RX0 vga case:8 ,absolute value dc_i_tmp : 0 , value dc_q_tmp : 0 ,I:reg0x11a0=0x272b2723.   Q:reg0x11dc=0x15192529.
vga case:9 pass.
RX0 vga case:9 ,absolute value dc_i_tmp : 0 , value dc_q_tmp : 1 ,I:reg0x11a4=0x27252721.   Q:reg0x11e0=0x19152529.
vga case:10 pass.
RX0 vga case:10 ,absolute value dc_i_tmp : 0 , value dc_q_tmp : 1 ,I:reg0x11a8=0x292b2721.   Q:reg0x11e4=0x1919252b.
vga case:11 pass.
RX0 vga case:11 ,absolute value dc_i_tmp : 1 , value dc_q_tmp : 1 ,I:reg0x11ac=0x1f2d2721.   Q:reg0x11e8=0x1517232b.
vga case:12 pass.
RX0 vga case:12 ,absolute value dc_i_tmp : 0 , value dc_q_tmp : 1 ,I:reg0x11b0=0x31252b21.   Q:reg0x11ec=0x1317212b.
vga case:13 pass.
RX0 vga case:13 ,absolute value dc_i_tmp : 1 , value dc_q_tmp : 1 ,I:reg0x11b4=0x27272b21.   Q:reg0x11f0=0x13191d2b.
vga case:14 pass.
RX0 vga case:14 ,absolute value dc_i_tmp : 1 , value dc_q_tmp : 1 ,I:reg0x11b8=0x2f312b1d.   Q:reg0x11f4=0x1d151d2f.
rx1 vga calibration begin
rx1 vga case:1 pass.
RX1 vga case:1 ,absolute value dc_i_tmp : 0 , value dc_q_tmp : 1 ,I:reg0x11fc=0x2b2b1f1d. Q:reg0x1238=0x3f3f1f1b.
rx1 vga case:2 pass.
RX1 vga case:2 ,absolute value dc_i_tmp : 0 , value dc_q_tmp : 1 ,I:reg0x1200=0x2b2b1f1d. Q:reg0x123c=0x3f3f1f1b.
rx1 vga case:3 pass.
RX1 vga case:3 ,absolute value dc_i_tmp : 0 , value dc_q_tmp : 1 ,I:reg0x1204=0x2b2b1f1d. Q:reg0x1240=0x3f3f1f1b.
rx1 vga case:4 pass.
RX1 vga case:4 ,absolute value dc_i_tmp : 1 , value dc_q_tmp : 0 ,I:reg0x1208=0x29291f1d. Q:reg0x1244=0x3f3f211d.
rx1 vga case:5 pass.
RX1 vga case:5 ,absolute value dc_i_tmp : 0 , value dc_q_tmp : 1 ,I:reg0x120c=0x29291f1d. Q:reg0x1248=0x3f3f1f1b.
rx1 vga case:6 pass.
RX1 vga case:6 ,absolute value dc_i_tmp : 1 , value dc_q_tmp : 1 ,I:reg0x1210=0x29291f1d. Q:reg0x124c=0x3f3f1f1b.
rx1 vga case:7 pass.
RX1 vga case:7 ,absolute value dc_i_tmp : 1 , value dc_q_tmp : 1 ,I:reg0x1214=0x29291f1d. Q:reg0x1250=0x3f3f1f1b.
rx1 vga case:8 pass.
RX1 vga case:8 ,absolute value dc_i_tmp : 1 , value dc_q_tmp : 1 ,I:reg0x1218=0x29291f1d. Q:reg0x1254=0x3f3f1f1b.
rx1 vga case:9 pass.
RX1 vga case:9 ,absolute value dc_i_tmp : 1 , value dc_q_tmp : 1 ,I:reg0x121c=0x29271f1d. Q:reg0x1258=0x3f3f211d.
rx1 vga case:10 pass.
RX1 vga case:10 ,absolute value dc_i_tmp : 0 , value dc_q_tmp : 1 ,I:reg0x1220=0x2b271f1d. Q:reg0x125c=0x3f3f211d.
rx1 vga case:11 pass.
RX1 vga case:11 ,absolute value dc_i_tmp : 0 , value dc_q_tmp : 3 ,I:reg0x1224=0x252d1d1d. Q:reg0x1260=0x3f3f211d.
rx1 vga case:12 pass.
RX1 vga case:12 ,absolute value dc_i_tmp : 1 , value dc_q_tmp : 0 ,I:reg0x1228=0x252b1d1d. Q:reg0x1264=0x3b3f1f1d.
rx1 vga case:13 pass.
RX1 vga case:13 ,absolute value dc_i_tmp : 1 , value dc_q_tmp : 0 ,I:reg0x122c=0x27291d1d. Q:reg0x1268=0x3f3f1f1d.
rx1 vga case:14 pass.
RX1 vga case:14 ,absolute value dc_i_tmp : 0 , value dc_q_tmp : 1 ,I:reg0x1230=0x2d271f1f. Q:reg0x126c=0x353f1d1d.
reg0x1120=0x3c0100.
vga calibration end!
RX0: 0x103c : e001c000 ,0x1040 : 70001102 
RX1: 0x1054 : e001c000 ,0x1058 : 70001100 
THIS CASE J: 0 M: 7 
adc calibration begin
calibration begin
RX0 cali pre ,absolute value dc_i_tmp : 6 , value dc_q_tmp : 2 ,

reg0x1180=0x29292723.
reg0x11bc=0x17172729.
RX1 cali pre ,absolute value dc_i_tmp : 3 , value dc_q_tmp : 11 ,reg0x11f8=0x29291f1d.
reg0x1234=0x3f3f1f1b.
rx0 tia cali begin:
####:reg0x1270=0x4a35502f.
tia_cnt_i : 23 ,
tia_cnt_q : 1 ,
I:reg0x1150=0x29292723.
Q:reg0x1154=0x17172729.
RX0 tia case :0,absolute value dc_i : -1 , value dc_q : 0 
####:reg0x1270=0x39363946.
####:reg0x1274=0x4a374c31.
tia_cnt_i : 23 ,
tia_cnt_q : 0 ,
I:reg0x1150=0x29292723.
Q:reg0x1154=0x17172729.
RX0 tia case :1,absolute value dc_i : -1 , value dc_q : 0 
####:reg0x1274=0x4a373548.
####:reg0x1278=0x48374c33.
tia_cnt_i : 43 ,
tia_cnt_q : 0 ,
I:reg0x1150=0x29292723.
Q:reg0x1154=0x17172729.
RX0 tia case :2,absolute value dc_i : -1 , value dc_q : 1 
####:reg0x1278=0x4837215e.
####:reg0x127c=0x48354a35.
tia_cnt_i : 67 ,
tia_cnt_q : 0 ,
I:reg0x1150=0x29292723.
Q:reg0x1154=0x17172729.
RX0 tia case :3,absolute value dc_i : -1 , value dc_q : 1 
####:reg0x127c=0x48350778.
####:reg0x1280=0x3e41443b.
tia_cnt_i : 68 ,
tia_cnt_q : 0 ,
I:reg0x1150=0x29292723.
Q:reg0x1154=0x17172729.
RX0 tia case :4,absolute value dc_i : -2 , value dc_q : 1 
####:reg0x1280=0x3e41007f.
####:reg0x1284=0x3e41463b.
tia_cnt_i : 68 ,
tia_cnt_q : 0 ,
I:reg0x1150=0x29292723.
Q:reg0x1154=0x17172729.
RX0 tia case :5,absolute value dc_i : -3 , value dc_q : 1 
####:reg0x1284=0x3e41027f.
####:reg0x1288=0x3e413e41.
tia_cnt_i : 62 ,
tia_cnt_q : 0 ,
I:reg0x1150=0x29292723.
Q:reg0x1154=0x17172729.
RX0 tia case :6,absolute value dc_i : -2 , value dc_q : 1 
####:reg0x1288=0x3e41007f.
####:reg0x128c=0x3e413c41.
tia_cnt_i : 60 ,
tia_cnt_q : 0 ,
I:reg0x1150=0x29292723.
Q:reg0x1154=0x17172729.
RX0 tia case :7,absolute value dc_i : -2 , value dc_q : 1 
####:reg0x128c=0x3e41007d.
####:reg0x1290=0x3c433a45.
tia_cnt_i : 58 ,
tia_cnt_q : 0 ,
I:reg0x1150=0x29292723.
Q:reg0x1154=0x17172729.
RX0 tia case :8,absolute value dc_i : -2 , value dc_q : 1 
####:reg0x1290=0x3c43007f.
####:reg0x1294=0x3c433c43.
tia_cnt_i : 60 ,
tia_cnt_q : 0 ,
I:reg0x1150=0x29292723.
Q:reg0x1154=0x17172729.
RX0 tia case :9,absolute value dc_i : -3 , value dc_q : 1 
####:reg0x1294=0x3c43007f.
####:reg0x1298=0x3e433c43.
tia_cnt_i : 60 ,
tia_cnt_q : 0 ,
I:reg0x1150=0x29292723.
Q:reg0x1154=0x17172729.
RX0 tia case :10,absolute value dc_i : -3 , value dc_q : 1 
####:reg0x1298=0x3e43007f.
####:reg0x129c=0x3c433c43.
tia_cnt_i : 60 ,
tia_cnt_q : 0 ,
I:reg0x1150=0x29292723.
Q:reg0x1154=0x17172729.
RX0 tia case :11,absolute value dc_i : -2 , value dc_q : 1 
####:reg0x129c=0x3c43007f.
####:reg0x12a0=0x3c433c43.
tia_cnt_i : 60 ,
tia_cnt_q : 0 ,
I:reg0x1150=0x29292723.
Q:reg0x1154=0x17172729.
RX0 tia case :12,absolute value dc_i : -2 , value dc_q : 1 
####:reg0x12a0=0x3c43007f.
rx1 tia cali begin:
Q:reg0x12b0=0x46394439.
 RX1 :reg0x1130=0x44394639.
tia_cnt_i : 0 ,
tia_cnt_q : 70 ,
RX1 tia case :0,absolute value dc_i : -1 , value dc_q : -8 
RX1:reg0x12b0=0x447f4439.
Q:reg0x12b4=0x463b4439.
 RX1 :reg0x1130=0x4439463b.
tia_cnt_i : 0 ,
tia_cnt_q : 68 ,
RX1 tia case :1,absolute value dc_i : -1 , value dc_q : -9 
RX1:reg0x12b4=0x447f4439.
Q:reg0x12b8=0x443b4439.
 RX1 :reg0x1130=0x4439443b.
tia_cnt_i : 0 ,
tia_cnt_q : 68 ,
RX1 tia case :2,absolute value dc_i : -1 , value dc_q : -10 
RX1:reg0x12b8=0x447f4439.
Q:reg0x12bc=0x443b423d.
 RX1 :reg0x1130=0x423d443b.
tia_cnt_i : 0 ,
tia_cnt_q : 68 ,
RX1 tia case :3,absolute value dc_i : -1 , value dc_q : -9 
RX1:reg0x12bc=0x427f423d.
Q:reg0x12c0=0x3e413e41.
 RX1 :reg0x1130=0x3e413e41.
tia_cnt_i : 0 ,
tia_cnt_q : 62 ,
RX1 tia case :4,absolute value dc_i : -1 , value dc_q : -10 
RX1:reg0x12c0=0x3e7f3e41.
Q:reg0x12c4=0x3c433c43.
 RX1 :reg0x1130=0x3c433c43.
tia_cnt_i : 0 ,
tia_cnt_q : 60 ,
RX1 tia case :5,absolute value dc_i : -1 , value dc_q : -9 
RX1:reg0x12c4=0x3c7f3c43.
Q:reg0x12c8=0x3e433e43.
 RX1 :reg0x1130=0x3e433e43.
tia_cnt_i : 0 ,
tia_cnt_q : 60 ,
RX1 tia case :6,absolute value dc_i : -1 , value dc_q : -10 
RX1:reg0x12c8=0x3e7f3e43.
Q:reg0x12cc=0x3e433e43.
 RX1 :reg0x1130=0x3e433e43.
tia_cnt_i : 0 ,
tia_cnt_q : 60 ,
RX1 tia case :7,absolute value dc_i : -1 , value dc_q : -9 
RX1:reg0x12cc=0x3e7f3e43.
Q:reg0x12d0=0x3a453a45.
 RX1 :reg0x1130=0x3a453a45.
tia_cnt_i : 0 ,
tia_cnt_q : 58 ,
RX1 tia case :8,absolute value dc_i : -1 , value dc_q : -10 
RX1:reg0x12d0=0x3a7f3a45.
Q:reg0x12d4=0x3c433c43.
 RX1 :reg0x1130=0x3c433c43.
tia_cnt_i : 1 ,
tia_cnt_q : 60 ,
RX1 tia case :9,absolute value dc_i : -1 , value dc_q : -10 
RX1:reg0x12d4=0x3b7f3b44.
Q:reg0x12d8=0x3c433a45.
 RX1 :reg0x1130=0x3a453c43.
tia_cnt_i : 0 ,
tia_cnt_q : 60 ,
RX1 tia case :10,absolute value dc_i : -1 , value dc_q : -10 
RX1:reg0x12d8=0x3a7f3a45.
Q:reg0x12dc=0x3c433c43.
 RX1 :reg0x1130=0x3c433c43.
tia_cnt_i : 0 ,
tia_cnt_q : 60 ,
RX1 tia case :11,absolute value dc_i : -1 , value dc_q : -10 
RX1:reg0x12dc=0x3c7f3c43.
Q:reg0x12e0=0x3a453a45.
 RX1 :reg0x1130=0x3a453a45.
tia_cnt_i : 0 ,
tia_cnt_q : 58 ,
RX1 tia case :12,absolute value dc_i : -1 , value dc_q : -9 
RX1:reg0x12e0=0x3a7f3a45.
tia calibration end!
rx0 vga calibration begin
reg0x1120=0x3fc100.
vga case:1 pass.
RX0 vga case:1 ,absolute value dc_i_tmp : 7 , value dc_q_tmp : 2 ,I:reg0x1184=0x27292921.   Q:reg0x11c0=0x17192527.
vga case:2 pass.
RX0 vga case:2 ,absolute value dc_i_tmp : 6 , value dc_q_tmp : 2 ,I:reg0x1188=0x292b2921.   Q:reg0x11c4=0x17192527.
vga case:3 pass.
RX0 vga case:3 ,absolute value dc_i_tmp : 5 , value dc_q_tmp : 2 ,I:reg0x118c=0x292b2921.   Q:reg0x11c8=0x17192527.
vga case:4 pass.
RX0 vga case:4 ,absolute value dc_i_tmp : 4 , value dc_q_tmp : 3 ,I:reg0x1190=0x292b2921.   Q:reg0x11cc=0x15192527.
vga case:5 pass.
RX0 vga case:5 ,absolute value dc_i_tmp : 4 , value dc_q_tmp : 2 ,I:reg0x1194=0x292b2921.   Q:reg0x11d0=0x15192527.
vga case:6 pass.
RX0 vga case:6 ,absolute value dc_i_tmp : 5 , value dc_q_tmp : 1 ,I:reg0x1198=0x292d2921.   Q:reg0x11d4=0x15192527.
vga case:7 pass.
RX0 vga case:7 ,absolute value dc_i_tmp : 4 , value dc_q_tmp : 1 ,I:reg0x119c=0x292d2921.   Q:reg0x11d8=0x1b132727.
vga case:8 pass.
RX0 vga case:8 ,absolute value dc_i_tmp : 4 , value dc_q_tmp : 1 ,I:reg0x11a0=0x292b2b21.   Q:reg0x11dc=0x191b2527.
vga case:9 pass.
RX0 vga case:9 ,absolute value dc_i_tmp : 4 , value dc_q_tmp : 1 ,I:reg0x11a4=0x29292d21.   Q:reg0x11e0=0x17172527.
vga case:10 pass.
RX0 vga case:10 ,absolute value dc_i_tmp : 4 , value dc_q_tmp : 0 ,I:reg0x11a8=0x2d272d1d.   Q:reg0x11e4=0x151b2327.
vga case:11 pass.
RX0 vga case:11 ,absolute value dc_i_tmp : 3 , value dc_q_tmp : 0 ,I:reg0x11ac=0x292d2d1b.   Q:reg0x11e8=0x1b1b2529.
vga case:12 pass.
RX0 vga case:12 ,absolute value dc_i_tmp : 3 , value dc_q_tmp : 0 ,I:reg0x11b0=0x2d312f19.   Q:reg0x11ec=0x19132529.
vga case:13 pass.
RX0 vga case:13 ,absolute value dc_i_tmp : 2 , value dc_q_tmp : 0 ,I:reg0x11b4=0x31313117.   Q:reg0x11f0=0x19192329.
vga case:14 pass.
RX0 vga case:14 ,absolute value dc_i_tmp : 1 , value dc_q_tmp : 0 ,I:reg0x11b8=0x2d213711.   Q:reg0x11f4=0x1715232b.
rx1 vga calibration begin
rx1 vga case:1 pass.
RX1 vga case:1 ,absolute value dc_i_tmp : 5 , value dc_q_tmp : 11 ,I:reg0x11fc=0x292b1f1d. Q:reg0x1238=0x3f3f2317.
rx1 vga case:2 pass.
RX1 vga case:2 ,absolute value dc_i_tmp : 4 , value dc_q_tmp : 11 ,I:reg0x1200=0x2b29211d. Q:reg0x123c=0x3f3f2317.
rx1 vga case:3 pass.
RX1 vga case:3 ,absolute value dc_i_tmp : 4 , value dc_q_tmp : 11 ,I:reg0x1204=0x292b1f1d. Q:reg0x1240=0x3f3f2317.
rx1 vga case:4 pass.
RX1 vga case:4 ,absolute value dc_i_tmp : 3 , value dc_q_tmp : 11 ,I:reg0x1208=0x292b1f1d. Q:reg0x1244=0x3f3f2317.
rx1 vga case:5 pass.
RX1 vga case:5 ,absolute value dc_i_tmp : 3 , value dc_q_tmp : 11 ,I:reg0x120c=0x2b27211d. Q:reg0x1248=0x3f3f2317.
rx1 vga case:6 pass.
RX1 vga case:6 ,absolute value dc_i_tmp : 5 , value dc_q_tmp : 12 ,I:reg0x1210=0x272b1f1d. Q:reg0x124c=0x3f3f2317.
rx1 vga case:7 pass.
RX1 vga case:7 ,absolute value dc_i_tmp : 4 , value dc_q_tmp : 12 ,I:reg0x1214=0x272b1f1d. Q:reg0x1250=0x3f3f2317.
rx1 vga case:8 pass.
RX1 vga case:8 ,absolute value dc_i_tmp : 4 , value dc_q_tmp : 12 ,I:reg0x1218=0x272b1f1d. Q:reg0x1254=0x3f3f2517.
rx1 vga case:9 pass.
RX1 vga case:9 ,absolute value dc_i_tmp : 3 , value dc_q_tmp : 11 ,I:reg0x121c=0x2d27211d. Q:reg0x1258=0x3b3f2717.
rx1 vga case:10 pass.
RX1 vga case:10 ,absolute value dc_i_tmp : 3 , value dc_q_tmp : 12 ,I:reg0x1220=0x272b1f1d. Q:reg0x125c=0x3f3f2915.
rx1 vga case:11 pass.
RX1 vga case:11 ,absolute value dc_i_tmp : 2 , value dc_q_tmp : 12 ,I:reg0x1224=0x2f27211d. Q:reg0x1260=0x3d3f2b13.
rx1 vga case:12 pass.
RX1 vga case:12 ,absolute value dc_i_tmp : 3 , value dc_q_tmp : 12 ,I:reg0x1228=0x2d27211d. Q:reg0x1264=0x3b3f2b0f.
rx1 vga case:13 pass.
RX1 vga case:13 ,absolute value dc_i_tmp : 3 , value dc_q_tmp : 12 ,I:reg0x122c=0x272d1f1d. Q:reg0x1268=0x3b3f2f0d.
rx1 vga case:14 pass.
RX1 vga case:14 ,absolute value dc_i_tmp : 2 , value dc_q_tmp : 12 ,I:reg0x1230=0x2d27211d. Q:reg0x126c=0x3f3f3707.
reg0x1120=0x3c0100.
vga calibration end!
RX0: 0x103c : e0020000 ,0x1040 : 80001102 
RX1: 0x1054 : e0020000 ,0x1058 : 80001100 
THIS CASE J: 0 M: 8 
adc calibration begin
calibration begin
RX0 cali pre ,absolute value dc_i_tmp : 9 , value dc_q_tmp : 5 ,

reg0x1180=0x29292723.
reg0x11bc=0x19192527.
RX1 cali pre ,absolute value dc_i_tmp : 6 , value dc_q_tmp : 5 ,reg0x11f8=0x2b2b1f1d.
reg0x1234=0x3f3f211d.
rx0 tia cali begin:
####:reg0x1270=0x48354a35.
tia_cnt_i : 74 ,
tia_cnt_q : 1 ,
I:reg0x1150=0x29292723.
Q:reg0x1154=0x19192527.
RX0 tia case :0,absolute value dc_i : -3 , value dc_q : -4 
####:reg0x1270=0x36007f.
####:reg0x1274=0x4a374c33.
tia_cnt_i : 76 ,
tia_cnt_q : 1 ,
I:reg0x1150=0x29292723.
Q:reg0x1154=0x19192527.
RX0 tia case :1,absolute value dc_i : -5 , value dc_q : -4 
####:reg0x1274=0x38007f.
####:reg0x1278=0x48374a35.
tia_cnt_i : 74 ,
tia_cnt_q : 1 ,
I:reg0x1150=0x29292723.
Q:reg0x1154=0x19192527.
RX0 tia case :2,absolute value dc_i : -7 , value dc_q : -5 
####:reg0x1278=0x38007f.
####:reg0x127c=0x48374a37.
tia_cnt_i : 72 ,
tia_cnt_q : 72 ,
I:reg0x1150=0x29292723.
Q:reg0x1154=0x19192527.
RX0 tia case :3,absolute value dc_i : -8 , value dc_q : -3 
####:reg0x127c=0x27f027f.
####:reg0x1280=0x443b443b.
tia_cnt_i : 68 ,
tia_cnt_q : 1 ,
I:reg0x1150=0x29292723.
Q:reg0x1154=0x19192527.
RX0 tia case :4,absolute value dc_i : -8 , value dc_q : -4 
####:reg0x1280=0x3c007f.
####:reg0x1284=0x443b463b.
tia_cnt_i : 68 ,
tia_cnt_q : 68 ,
I:reg0x1150=0x29292723.
Q:reg0x1154=0x19192527.
RX0 tia case :5,absolute value dc_i : -8 , value dc_q : -3 
####:reg0x1284=0x27f027f.
####:reg0x1288=0x3e413e41.
tia_cnt_i : 62 ,
tia_cnt_q : 1 ,
I:reg0x1150=0x29292723.
Q:reg0x1154=0x19192527.
RX0 tia case :6,absolute value dc_i : -8 , value dc_q : -5 
####:reg0x1288=0x42007f.
####:reg0x128c=0x3c413c41.
tia_cnt_i : 60 ,
tia_cnt_q : 1 ,
I:reg0x1150=0x29292723.
Q:reg0x1154=0x19192527.
RX0 tia case :7,absolute value dc_i : -8 , value dc_q : -5 
####:reg0x128c=0x42007d.
####:reg0x1290=0x3c433c43.
tia_cnt_i : 60 ,
tia_cnt_q : 1 ,
I:reg0x1150=0x29292723.
Q:reg0x1154=0x19192527.
RX0 tia case :8,absolute value dc_i : -8 , value dc_q : -5 
####:reg0x1290=0x44007f.
####:reg0x1294=0x3e433c43.
tia_cnt_i : 60 ,
tia_cnt_q : 1 ,
I:reg0x1150=0x29292723.
Q:reg0x1154=0x19192527.
RX0 tia case :9,absolute value dc_i : -8 , value dc_q : -5 
####:reg0x1294=0x44007f.
####:reg0x1298=0x3c433c43.
tia_cnt_i : 60 ,
tia_cnt_q : 1 ,
I:reg0x1150=0x29292723.
Q:reg0x1154=0x19192527.
RX0 tia case :10,absolute value dc_i : -8 , value dc_q : -5 
####:reg0x1298=0x44007f.
####:reg0x129c=0x3c433e43.
tia_cnt_i : 60 ,
tia_cnt_q : 60 ,
I:reg0x1150=0x29292723.
Q:reg0x1154=0x19192527.
RX0 tia case :11,absolute value dc_i : -8 , value dc_q : -4 
####:reg0x129c=0x27f027f.
####:reg0x12a0=0x3c433c43.
tia_cnt_i : 60 ,
tia_cnt_q : 1 ,
I:reg0x1150=0x29292723.
Q:reg0x1154=0x19192527.
RX0 tia case :12,absolute value dc_i : -8 , value dc_q : -4 
####:reg0x12a0=0x44007f.
rx1 tia cali begin:
Q:reg0x12b0=0x44394439.
 RX1 :reg0x1130=0x44394439.
tia_cnt_i : 68 ,
tia_cnt_q : 1 ,
RX1 tia case :0,absolute value dc_i : -5 , value dc_q : -4 
RX1:reg0x12b0=0x3a007d.
Q:reg0x12b4=0x443b463b.
 RX1 :reg0x1130=0x463b443b.
tia_cnt_i : 68 ,
tia_cnt_q : 18 ,
RX1 tia case :1,absolute value dc_i : -5 , value dc_q : -1 
RX1:reg0x12b4=0x24d027f.
Q:reg0x12b8=0x463b463b.
 RX1 :reg0x1130=0x463b463b.
tia_cnt_i : 68 ,
tia_cnt_q : 24 ,
RX1 tia case :2,absolute value dc_i : -5 , value dc_q : -1 
RX1:reg0x12b8=0x253027f.
Q:reg0x12bc=0x443b443b.
 RX1 :reg0x1130=0x443b443b.
tia_cnt_i : 68 ,
tia_cnt_q : 1 ,
RX1 tia case :3,absolute value dc_i : -5 , value dc_q : -7 
RX1:reg0x12bc=0x3c007f.
Q:reg0x12c0=0x423d3e41.
 RX1 :reg0x1130=0x3e41423d.
tia_cnt_i : 62 ,
tia_cnt_q : 1 ,
RX1 tia case :4,absolute value dc_i : -5 , value dc_q : -7 
RX1:reg0x12c0=0x3e007f.
Q:reg0x12c4=0x3e433c41.
 RX1 :reg0x1130=0x3c413e43.
tia_cnt_i : 60 ,
tia_cnt_q : 1 ,
RX1 tia case :5,absolute value dc_i : -5 , value dc_q : -5 
RX1:reg0x12c4=0x44007d.
Q:reg0x12c8=0x3e433c43.
 RX1 :reg0x1130=0x3c433e43.
tia_cnt_i : 60 ,
tia_cnt_q : 1 ,
RX1 tia case :6,absolute value dc_i : -5 , value dc_q : -5 
RX1:reg0x12c8=0x44007f.
Q:reg0x12cc=0x3e433c43.
 RX1 :reg0x1130=0x3c433e43.
tia_cnt_i : 60 ,
tia_cnt_q : 1 ,
RX1 tia case :7,absolute value dc_i : -5 , value dc_q : -5 
RX1:reg0x12cc=0x44007f.
Q:reg0x12d0=0x3c433a45.
 RX1 :reg0x1130=0x3a453c43.
tia_cnt_i : 58 ,
tia_cnt_q : 1 ,
RX1 tia case :8,absolute value dc_i : -5 , value dc_q : -5 
RX1:reg0x12d0=0x44007f.
Q:reg0x12d4=0x3c433a45.
 RX1 :reg0x1130=0x3a453c43.
tia_cnt_i : 58 ,
tia_cnt_q : 1 ,
RX1 tia case :9,absolute value dc_i : -7 , value dc_q : -5 
RX1:reg0x12d4=0x44007f.
Q:reg0x12d8=0x3a453a45.
 RX1 :reg0x1130=0x3a453a45.
tia_cnt_i : 58 ,
tia_cnt_q : 1 ,
RX1 tia case :10,absolute value dc_i : -5 , value dc_q : -7 
RX1:reg0x12d8=0x46007f.
Q:reg0x12dc=0x3e433c43.
 RX1 :reg0x1130=0x3c433e43.
tia_cnt_i : 60 ,
tia_cnt_q : 1 ,
RX1 tia case :11,absolute value dc_i : -3 , value dc_q : -5 
RX1:reg0x12dc=0x44007f.
Q:reg0x12e0=0x3c433c43.
 RX1 :reg0x1130=0x3c433c43.
tia_cnt_i : 60 ,
tia_cnt_q : 1 ,
RX1 tia case :12,absolute value dc_i : -5 , value dc_q : -5 
RX1:reg0x12e0=0x44007f.
tia calibration end!
rx0 vga calibration begin
reg0x1120=0x3fc100.
vga case:1 pass.
RX0 vga case:1 ,absolute value dc_i_tmp : 9 , value dc_q_tmp : 5 ,I:reg0x1184=0x27293119.   Q:reg0x11c0=0x17172b25.
vga case:2 pass.
RX0 vga case:2 ,absolute value dc_i_tmp : 9 , value dc_q_tmp : 5 ,I:reg0x1188=0x27293119.   Q:reg0x11c4=0x15192723.
vga case:3 pass.
RX0 vga case:3 ,absolute value dc_i_tmp : 9 , value dc_q_tmp : 5 ,I:reg0x118c=0x27293119.   Q:reg0x11c8=0x17172b25.
vga case:4 pass.
RX0 vga case:4 ,absolute value dc_i_tmp : 8 , value dc_q_tmp : 5 ,I:reg0x1190=0x292b3119.   Q:reg0x11cc=0x13192723.
vga case:5 pass.
RX0 vga case:5 ,absolute value dc_i_tmp : 8 , value dc_q_tmp : 5 ,I:reg0x1194=0x292b3119.   Q:reg0x11d0=0x19172b25.
vga case:6 pass.
RX0 vga case:6 ,absolute value dc_i_tmp : 8 , value dc_q_tmp : 5 ,I:reg0x1198=0x292b3119.   Q:reg0x11d4=0x131b2723.
vga case:7 pass.
RX0 vga case:7 ,absolute value dc_i_tmp : 8 , value dc_q_tmp : 5 ,I:reg0x119c=0x292b3119.   Q:reg0x11d8=0x19152b25.
vga case:8 pass.
RX0 vga case:8 ,absolute value dc_i_tmp : 8 , value dc_q_tmp : 5 ,I:reg0x11a0=0x2d273517.   Q:reg0x11dc=0x17192923.
vga case:9 pass.
RX0 vga case:9 ,absolute value dc_i_tmp : 8 , value dc_q_tmp : 5 ,I:reg0x11a4=0x27293713.   Q:reg0x11e0=0x19192b23.
vga case:10 pass.
RX0 vga case:10 ,absolute value dc_i_tmp : 8 , value dc_q_tmp : 5 ,I:reg0x11a8=0x31273d0f.   Q:reg0x11e4=0x17192b21.
vga case:11 pass.
RX0 vga case:11 ,absolute value dc_i_tmp : 8 , value dc_q_tmp : 4 ,I:reg0x11ac=0x27273f07.   Q:reg0x11e8=0x1d172f21.
vga case:12 pass.
RX0 vga case:12 ,absolute value dc_i_tmp : 7 , value dc_q_tmp : 5 ,I:reg0x11b0=0x53f3f03.   Q:reg0x11ec=0x19173121.
vga case:13 pass.
RX0 vga case:13 ,absolute value dc_i_tmp : 1 , value dc_q_tmp : 5 ,I:reg0x11b4=0x13f3f01.   Q:reg0x11f0=0x1b15331d.
vga case:14 pass.
RX0 vga case:14 ,absolute value dc_i_tmp : 1 , value dc_q_tmp : 4 ,I:reg0x11b8=0x13f3f01.   Q:reg0x11f4=0x19153719.
rx1 vga calibration begin
rx1 vga case:1 pass.
RX1 vga case:1 ,absolute value dc_i_tmp : 7 , value dc_q_tmp : 6 ,I:reg0x11fc=0x292b2515. Q:reg0x1238=0x3f3f2519.
rx1 vga case:2 pass.
RX1 vga case:2 ,absolute value dc_i_tmp : 7 , value dc_q_tmp : 6 ,I:reg0x1200=0x292b2717. Q:reg0x123c=0x3f3f2519.
rx1 vga case:3 pass.
RX1 vga case:3 ,absolute value dc_i_tmp : 7 , value dc_q_tmp : 6 ,I:reg0x1204=0x27292717. Q:reg0x1240=0x3f3f2519.
rx1 vga case:4 pass.
RX1 vga case:4 ,absolute value dc_i_tmp : 7 , value dc_q_tmp : 6 ,I:reg0x1208=0x292b2717. Q:reg0x1244=0x3f3f2519.
rx1 vga case:5 pass.
RX1 vga case:5 ,absolute value dc_i_tmp : 6 , value dc_q_tmp : 6 ,I:reg0x120c=0x292b2717. Q:reg0x1248=0x3f3f2519.
rx1 vga case:6 pass.
RX1 vga case:6 ,absolute value dc_i_tmp : 6 , value dc_q_tmp : 7 ,I:reg0x1210=0x292b2717. Q:reg0x124c=0x3f3f2519.
rx1 vga case:7 pass.
RX1 vga case:7 ,absolute value dc_i_tmp : 6 , value dc_q_tmp : 6 ,I:reg0x1214=0x292b2717. Q:reg0x1250=0x3f3f2519.
rx1 vga case:8 pass.
RX1 vga case:8 ,absolute value dc_i_tmp : 6 , value dc_q_tmp : 5 ,I:reg0x1218=0x2b272915. Q:reg0x1254=0x393f2317.
rx1 vga case:9 pass.
RX1 vga case:9 ,absolute value dc_i_tmp : 6 , value dc_q_tmp : 5 ,I:reg0x121c=0x29292b13. Q:reg0x1258=0x393f2517.
rx1 vga case:10 pass.
RX1 vga case:10 ,absolute value dc_i_tmp : 7 , value dc_q_tmp : 7 ,I:reg0x1220=0x292b2b0f. Q:reg0x125c=0x3d3f2715.
rx1 vga case:11 pass.
RX1 vga case:11 ,absolute value dc_i_tmp : 6 , value dc_q_tmp : 5 ,I:reg0x1224=0x252f2f0d. Q:reg0x1260=0x353f2713.
rx1 vga case:12 pass.
RX1 vga case:12 ,absolute value dc_i_tmp : 5 , value dc_q_tmp : 5 ,I:reg0x1228=0x292b3309. Q:reg0x1264=0x393f2b13.
rx1 vga case:13 pass.
RX1 vga case:13 ,absolute value dc_i_tmp : 5 , value dc_q_tmp : 5 ,I:reg0x122c=0x292d3905. Q:reg0x1268=0x3d3f2d0f.
rx1 vga case:14 pass.
RX1 vga case:14 ,absolute value dc_i_tmp : 0 , value dc_q_tmp : 6 ,I:reg0x1230=0x13f3f01. Q:reg0x126c=0x373f3309.
reg0x1120=0x3c0100.
vga calibration end!
RX0: 0x103c : e0024000 ,0x1040 : 90001102 
RX1: 0x1054 : e0024000 ,0x1058 : 90001100 
THIS CASE J: 0 M: 9 
adc calibration begin
calibration begin
RX0 cali pre ,absolute value dc_i_tmp : 1 , value dc_q_tmp : 1 ,

reg0x1180=0x29292723.
reg0x11bc=0x17192529.
RX1 cali pre ,absolute value dc_i_tmp : 0 , value dc_q_tmp : 0 ,reg0x11f8=0x2b2b1f1d.
reg0x1234=0x3f3f1f1b.
rx0 tia cali begin:
####:reg0x1270=0x4a354c31.
tia_cnt_i : 1 ,
tia_cnt_q : 0 ,
I:reg0x1150=0x29292723.
Q:reg0x1154=0x17192529.
RX0 tia case :0,absolute value dc_i : -1 , value dc_q : -1 
####:reg0x1270=0x4a354b32.
####:reg0x1274=0x4a374a35.
tia_cnt_i : 2 ,
tia_cnt_q : 0 ,
I:reg0x1150=0x29292723.
Q:reg0x1154=0x17192529.
RX0 tia case :1,absolute value dc_i : -1 , value dc_q : 1 
####:reg0x1274=0x4a374837.
####:reg0x1278=0x48374a35.
tia_cnt_i : 7 ,
tia_cnt_q : 0 ,
I:reg0x1150=0x29292723.
Q:reg0x1154=0x17192529.
RX0 tia case :2,absolute value dc_i : -1 , value dc_q : 1 
####:reg0x1278=0x4837433c.
####:reg0x127c=0x48374a37.
tia_cnt_i : 20 ,
tia_cnt_q : 15 ,
I:reg0x1150=0x29292723.
Q:reg0x1154=0x17192529.
RX0 tia case :3,absolute value dc_i : -1 , value dc_q : 1 
####:reg0x127c=0x3628364b.
####:reg0x1280=0x423d3e41.
tia_cnt_i : 23 ,
tia_cnt_q : 43 ,
I:reg0x1150=0x29292723.
Q:reg0x1154=0x17192529.
RX0 tia case :4,absolute value dc_i : -1 , value dc_q : 1 
####:reg0x1280=0x27122758.
####:reg0x1284=0x443b3e41.
tia_cnt_i : 23 ,
tia_cnt_q : 0 ,
I:reg0x1150=0x29292723.
Q:reg0x1154=0x17192529.
RX0 tia case :5,absolute value dc_i : -1 , value dc_q : -1 
####:reg0x1284=0x443b2758.
####:reg0x1288=0x3e413e41.
tia_cnt_i : 24 ,
tia_cnt_q : 65 ,
I:reg0x1150=0x29292723.
Q:reg0x1154=0x17192529.
RX0 tia case :6,absolute value dc_i : -1 , value dc_q : 2 
####:reg0x1288=0x26002659.
####:reg0x128c=0x3c413c41.
tia_cnt_i : 20 ,
tia_cnt_q : 52 ,
I:reg0x1150=0x29292723.
Q:reg0x1154=0x17192529.
RX0 tia case :7,absolute value dc_i : -1 , value dc_q : 1 
####:reg0x128c=0x280d2855.
####:reg0x1290=0x3c433c43.
tia_cnt_i : 23 ,
tia_cnt_q : 49 ,
I:reg0x1150=0x29292723.
Q:reg0x1154=0x17192529.
RX0 tia case :8,absolute value dc_i : -1 , value dc_q : 1 
####:reg0x1290=0x2512255a.
####:reg0x1294=0x3c433c43.
tia_cnt_i : 22 ,
tia_cnt_q : 0 ,
I:reg0x1150=0x29292723.
Q:reg0x1154=0x17192529.
RX0 tia case :9,absolute value dc_i : -1 , value dc_q : -1 
####:reg0x1294=0x3c432659.
####:reg0x1298=0x3c433c43.
tia_cnt_i : 23 ,
tia_cnt_q : 0 ,
I:reg0x1150=0x29292723.
Q:reg0x1154=0x17192529.
RX0 tia case :10,absolute value dc_i : -1 , value dc_q : -1 
####:reg0x1298=0x3c43255a.
####:reg0x129c=0x3c433a45.
tia_cnt_i : 17 ,
tia_cnt_q : 0 ,
I:reg0x1150=0x29292723.
Q:reg0x1154=0x17192529.
RX0 tia case :11,absolute value dc_i : -1 , value dc_q : -1 
####:reg0x129c=0x3c432956.
####:reg0x12a0=0x3e433a45.
tia_cnt_i : 19 ,
tia_cnt_q : 58 ,
I:reg0x1150=0x29292723.
Q:reg0x1154=0x17192529.
RX0 tia case :12,absolute value dc_i : -1 , value dc_q : 1 
####:reg0x12a0=0x27092758.
rx1 tia cali begin:
Q:reg0x12b0=0x463b4439.
 RX1 :reg0x1130=0x4439463b.
tia_cnt_i : 0 ,
tia_cnt_q : 0 ,
RX1 tia case :0,absolute value dc_i : 1 , value dc_q : -1 
RX1:reg0x12b0=0x463b4439.
Q:reg0x12b4=0x463b4439.
 RX1 :reg0x1130=0x4439463b.
tia_cnt_i : 0 ,
tia_cnt_q : 0 ,
RX1 tia case :1,absolute value dc_i : 0 , value dc_q : 0 
RX1:reg0x12b4=0x463b4439.
Q:reg0x12b8=0x463b4639.
 RX1 :reg0x1130=0x4639463b.
tia_cnt_i : 0 ,
tia_cnt_q : 0 ,
RX1 tia case :2,absolute value dc_i : 0 , value dc_q : 0 
RX1:reg0x12b8=0x463b4639.
Q:reg0x12bc=0x443b443b.
 RX1 :reg0x1130=0x443b443b.
tia_cnt_i : 0 ,
tia_cnt_q : 0 ,
RX1 tia case :3,absolute value dc_i : 0 , value dc_q : 0 
RX1:reg0x12bc=0x443b443b.
Q:reg0x12c0=0x423d3c41.
 RX1 :reg0x1130=0x3c41423d.
tia_cnt_i : 0 ,
tia_cnt_q : 0 ,
RX1 tia case :4,absolute value dc_i : 0 , value dc_q : 0 
RX1:reg0x12c0=0x423d3c41.
Q:reg0x12c4=0x3c413c41.
 RX1 :reg0x1130=0x3c413c41.
tia_cnt_i : 0 ,
tia_cnt_q : 0 ,
RX1 tia case :5,absolute value dc_i : 0 , value dc_q : 0 
RX1:reg0x12c4=0x3c413c41.
Q:reg0x12c8=0x3e433c41.
 RX1 :reg0x1130=0x3c413e43.
tia_cnt_i : 0 ,
tia_cnt_q : 0 ,
RX1 tia case :6,absolute value dc_i : 0 , value dc_q : 0 
RX1:reg0x12c8=0x3e433c41.
Q:reg0x12cc=0x3e433e43.
 RX1 :reg0x1130=0x3e433e43.
tia_cnt_i : 0 ,
tia_cnt_q : 0 ,
RX1 tia case :7,absolute value dc_i : 0 , value dc_q : 0 
RX1:reg0x12cc=0x3e433e43.
Q:reg0x12d0=0x3c433c43.
 RX1 :reg0x1130=0x3c433c43.
tia_cnt_i : 0 ,
tia_cnt_q : 0 ,
RX1 tia case :8,absolute value dc_i : 0 , value dc_q : 0 
RX1:reg0x12d0=0x3c433c43.
Q:reg0x12d4=0x3c433c43.
 RX1 :reg0x1130=0x3c433c43.
tia_cnt_i : 0 ,
tia_cnt_q : 0 ,
RX1 tia case :9,absolute value dc_i : 0 , value dc_q : 0 
RX1:reg0x12d4=0x3c433c43.
Q:reg0x12d8=0x3a453a45.
 RX1 :reg0x1130=0x3a453a45.
tia_cnt_i : 0 ,
tia_cnt_q : 0 ,
RX1 tia case :10,absolute value dc_i : 0 , value dc_q : 0 
RX1:reg0x12d8=0x3a453a45.
Q:reg0x12dc=0x3a453c43.
 RX1 :reg0x1130=0x3c433a45.
tia_cnt_i : 0 ,
tia_cnt_q : 0 ,
RX1 tia case :11,absolute value dc_i : 0 , value dc_q : 0 
RX1:reg0x12dc=0x3a453c43.
Q:reg0x12e0=0x3c433a45.
 RX1 :reg0x1130=0x3a453c43.
tia_cnt_i : 0 ,
tia_cnt_q : 0 ,
RX1 tia case :12,absolute value dc_i : 0 , value dc_q : 0 
RX1:reg0x12e0=0x3c433a45.
tia calibration end!
rx0 vga calibration begin
reg0x1120=0x3fc100.
vga case:1 pass.
RX0 vga case:1 ,absolute value dc_i_tmp : 1 , value dc_q_tmp : 1 ,I:reg0x1184=0x29292723.   Q:reg0x11c0=0x17192529.
vga case:2 pass.
RX0 vga case:2 ,absolute value dc_i_tmp : 1 , value dc_q_tmp : 1 ,I:reg0x1188=0x29292723.   Q:reg0x11c4=0x17192327.
vga case:3 pass.
RX0 vga case:3 ,absolute value dc_i_tmp : 1 , value dc_q_tmp : 1 ,I:reg0x118c=0x29292723.   Q:reg0x11c8=0x17192327.
vga case:4 pass.
RX0 vga case:4 ,absolute value dc_i_tmp : 1 , value dc_q_tmp : 1 ,I:reg0x1190=0x29292723.   Q:reg0x11cc=0x15192327.
vga case:5 pass.
RX0 vga case:5 ,absolute value dc_i_tmp : 1 , value dc_q_tmp : 1 ,I:reg0x1194=0x29292723.   Q:reg0x11d0=0x19152729.
vga case:6 pass.
RX0 vga case:6 ,absolute value dc_i_tmp : 1 , value dc_q_tmp : 1 ,I:reg0x1198=0x29292723.   Q:reg0x11d4=0x15192327.
vga case:7 pass.
RX0 vga case:7 ,absolute value dc_i_tmp : 0 , value dc_q_tmp : 1 ,I:reg0x119c=0x29272723.   Q:reg0x11d8=0x13192327.
vga case:8 pass.
RX0 vga case:8 ,absolute value dc_i_tmp : 0 , value dc_q_tmp : 1 ,I:reg0x11a0=0x25272723.   Q:reg0x11dc=0x17172529.
vga case:9 pass.
RX0 vga case:9 ,absolute value dc_i_tmp : 1 , value dc_q_tmp : 1 ,I:reg0x11a4=0x292b2723.   Q:reg0x11e0=0x15192329.
vga case:10 pass.
RX0 vga case:10 ,absolute value dc_i_tmp : 1 , value dc_q_tmp : 0 ,I:reg0x11a8=0x272f2521.   Q:reg0x11e4=0x151d2129.
vga case:11 pass.
RX0 vga case:11 ,absolute value dc_i_tmp : 0 , value dc_q_tmp : 1 ,I:reg0x11ac=0x29272721.   Q:reg0x11e8=0x131b212b.
vga case:12 pass.
RX0 vga case:12 ,absolute value dc_i_tmp : 0 , value dc_q_tmp : 0 ,I:reg0x11b0=0x272d2721.   Q:reg0x11ec=0x1713232d.
vga case:13 pass.
RX0 vga case:13 ,absolute value dc_i_tmp : 0 , value dc_q_tmp : 0 ,I:reg0x11b4=0x29272921.   Q:reg0x11f0=0x1919212f.
vga case:14 pass.
RX0 vga case:14 ,absolute value dc_i_tmp : 1 , value dc_q_tmp : 1 ,I:reg0x11b8=0x27272b21.   Q:reg0x11f4=0x1f191d31.
rx1 vga calibration begin
rx1 vga case:1 pass.
RX1 vga case:1 ,absolute value dc_i_tmp : 0 , value dc_q_tmp : 1 ,I:reg0x11fc=0x29291f1d. Q:reg0x1238=0x3f3f1f1b.
rx1 vga case:2 pass.
RX1 vga case:2 ,absolute value dc_i_tmp : 0 , value dc_q_tmp : 0 ,I:reg0x1200=0x29291f1d. Q:reg0x123c=0x3f3f1f1b.
rx1 vga case:3 pass.
RX1 vga case:3 ,absolute value dc_i_tmp : 0 , value dc_q_tmp : 1 ,I:reg0x1204=0x29291f1d. Q:reg0x1240=0x3f3f1f1b.
rx1 vga case:4 pass.
RX1 vga case:4 ,absolute value dc_i_tmp : 1 , value dc_q_tmp : 1 ,I:reg0x1208=0x2b2b1f1d. Q:reg0x1244=0x3f3f1f1b.
rx1 vga case:5 pass.
RX1 vga case:5 ,absolute value dc_i_tmp : 0 , value dc_q_tmp : 0 ,I:reg0x120c=0x29291f1d. Q:reg0x1248=0x3f3f1f1b.
rx1 vga case:6 pass.
RX1 vga case:6 ,absolute value dc_i_tmp : 0 , value dc_q_tmp : 0 ,I:reg0x1210=0x29291f1d. Q:reg0x124c=0x3f3f1f1b.
rx1 vga case:7 pass.
RX1 vga case:7 ,absolute value dc_i_tmp : 0 , value dc_q_tmp : 1 ,I:reg0x1214=0x29291f1d. Q:reg0x1250=0x3d3f1f1b.
rx1 vga case:8 pass.
RX1 vga case:8 ,absolute value dc_i_tmp : 1 , value dc_q_tmp : 1 ,I:reg0x1218=0x29291f1d. Q:reg0x1254=0x3f3f1f1b.
rx1 vga case:9 pass.
RX1 vga case:9 ,absolute value dc_i_tmp : 1 , value dc_q_tmp : 1 ,I:reg0x121c=0x2b291f1d. Q:reg0x1258=0x3f3f211d.
rx1 vga case:10 pass.
RX1 vga case:10 ,absolute value dc_i_tmp : 0 , value dc_q_tmp : 1 ,I:reg0x1220=0x2b271f1d. Q:reg0x125c=0x3f3f211d.
rx1 vga case:11 pass.
RX1 vga case:11 ,absolute value dc_i_tmp : 0 , value dc_q_tmp : 3 ,I:reg0x1224=0x252d1d1d. Q:reg0x1260=0x3f3f211d.
rx1 vga case:12 pass.
RX1 vga case:12 ,absolute value dc_i_tmp : 0 , value dc_q_tmp : 1 ,I:reg0x1228=0x292d1d1d. Q:reg0x1264=0x393f1f1d.
rx1 vga case:13 pass.
RX1 vga case:13 ,absolute value dc_i_tmp : 0 , value dc_q_tmp : 1 ,I:reg0x122c=0x292b1d1d. Q:reg0x1268=0x3b3f1f1d.
rx1 vga case:14 pass.
RX1 vga case:14 ,absolute value dc_i_tmp : 0 , value dc_q_tmp : 1 ,I:reg0x1230=0x27311d1f. Q:reg0x126c=0x2f3f1d1d.
reg0x1120=0x3c0100.
vga calibration end!
RX0: 0x103c : e0028000 ,0x1040 : a0001102 
RX1: 0x1054 : e0028000 ,0x1058 : a0001100 
THIS CASE J: 0 M:10 
adc calibration begin
calibration begin
RX0 cali pre ,absolute value dc_i_tmp : 1 , value dc_q_tmp : 1 ,

reg0x1180=0x27272723.
reg0x11bc=0x17192327.
RX1 cali pre ,absolute value dc_i_tmp : 0 , value dc_q_tmp : 0 ,reg0x11f8=0x2b2b1f1d.
reg0x1234=0x3f3f1f1b.
rx0 tia cali begin:
####:reg0x1270=0x4a354c33.
tia_cnt_i : 0 ,
tia_cnt_q : 3 ,
I:reg0x1150=0x27272723.
Q:reg0x1154=0x17192327.
RX0 tia case :0,absolute value dc_i : -1 , value dc_q : -1 
####:reg0x1270=0x4c384c33.
####:reg0x1274=0x48354a35.
tia_cnt_i : 1 ,
tia_cnt_q : 1 ,
I:reg0x1150=0x27272723.
Q:reg0x1154=0x17192327.
RX0 tia case :1,absolute value dc_i : -1 , value dc_q : 1 
####:reg0x1274=0x49364936.
####:reg0x1278=0x48374a35.
tia_cnt_i : 5 ,
tia_cnt_q : 0 ,
I:reg0x1150=0x27272723.
Q:reg0x1154=0x17192327.
RX0 tia case :2,absolute value dc_i : -1 , value dc_q : 1 
####:reg0x1278=0x4837453a.
####:reg0x127c=0x46394835.
tia_cnt_i : 16 ,
tia_cnt_q : 29 ,
I:reg0x1150=0x27272723.
Q:reg0x1154=0x17192327.
RX0 tia case :3,absolute value dc_i : -1 , value dc_q : 1 
####:reg0x127c=0x381c3845.
####:reg0x1280=0x3e413e41.
tia_cnt_i : 24 ,
tia_cnt_q : 65 ,
I:reg0x1150=0x27272723.
Q:reg0x1154=0x17192327.
RX0 tia case :4,absolute value dc_i : -1 , value dc_q : 1 
####:reg0x1280=0x26002659.
####:reg0x1284=0x423d443b.
tia_cnt_i : 25 ,
tia_cnt_q : 0 ,
I:reg0x1150=0x27272723.
Q:reg0x1154=0x17192327.
RX0 tia case :5,absolute value dc_i : -1 , value dc_q : -1 
####:reg0x1284=0x423d2b54.
####:reg0x1288=0x3e41443b.
tia_cnt_i : 30 ,
tia_cnt_q : 0 ,
I:reg0x1150=0x27272723.
Q:reg0x1154=0x17192327.
RX0 tia case :6,absolute value dc_i : -1 , value dc_q : -1 
####:reg0x1288=0x3e412659.
####:reg0x128c=0x3e413e43.
tia_cnt_i : 19 ,
tia_cnt_q : 65 ,
I:reg0x1150=0x27272723.
Q:reg0x1154=0x17192327.
RX0 tia case :7,absolute value dc_i : -1 , value dc_q : 2 
####:reg0x128c=0x2b002b56.
####:reg0x1290=0x3a453c43.
tia_cnt_i : 23 ,
tia_cnt_q : 0 ,
I:reg0x1150=0x27272723.
Q:reg0x1154=0x17192327.
RX0 tia case :8,absolute value dc_i : -1 , value dc_q : -1 
####:reg0x1290=0x3a45255a.
####:reg0x1294=0x3c433a45.
tia_cnt_i : 22 ,
tia_cnt_q : 0 ,
I:reg0x1150=0x27272723.
Q:reg0x1154=0x17192327.
RX0 tia case :9,absolute value dc_i : -1 , value dc_q : -1 
####:reg0x1294=0x3c43245b.
####:reg0x1298=0x3e433e43.
tia_cnt_i : 20 ,
tia_cnt_q : 67 ,
I:reg0x1150=0x27272723.
Q:reg0x1154=0x17192327.
RX0 tia case :10,absolute value dc_i : -1 , value dc_q : 2 
####:reg0x1298=0x2a002a57.
####:reg0x129c=0x3c433c43.
tia_cnt_i : 22 ,
tia_cnt_q : 0 ,
I:reg0x1150=0x27272723.
Q:reg0x1154=0x17192327.
RX0 tia case :11,absolute value dc_i : -1 , value dc_q : -1 
####:reg0x129c=0x3c432659.
####:reg0x12a0=0x3e433c43.
tia_cnt_i : 21 ,
tia_cnt_q : 0 ,
I:reg0x1150=0x27272723.
Q:reg0x1154=0x17192327.
RX0 tia case :12,absolute value dc_i : -1 , value dc_q : -1 
####:reg0x12a0=0x3e432758.
rx1 tia cali begin:
Q:reg0x12b0=0x4639463b.
 RX1 :reg0x1130=0x463b4639.
tia_cnt_i : 0 ,
tia_cnt_q : 0 ,
RX1 tia case :0,absolute value dc_i : 1 , value dc_q : -1 
RX1:reg0x12b0=0x4639463b.
Q:reg0x12b4=0x463b4439.
 RX1 :reg0x1130=0x4439463b.
tia_cnt_i : 0 ,
tia_cnt_q : 0 ,
RX1 tia case :1,absolute value dc_i : 0 , value dc_q : 0 
RX1:reg0x12b4=0x463b4439.
Q:reg0x12b8=0x4439443b.
 RX1 :reg0x1130=0x443b4439.
tia_cnt_i : 0 ,
tia_cnt_q : 0 ,
RX1 tia case :2,absolute value dc_i : 0 , value dc_q : 0 
RX1:reg0x12b8=0x4439443b.
Q:reg0x12bc=0x443b443b.
 RX1 :reg0x1130=0x443b443b.
tia_cnt_i : 0 ,
tia_cnt_q : 0 ,
RX1 tia case :3,absolute value dc_i : 0 , value dc_q : 0 
RX1:reg0x12bc=0x443b443b.
Q:reg0x12c0=0x443b443b.
 RX1 :reg0x1130=0x443b443b.
tia_cnt_i : 0 ,
tia_cnt_q : 0 ,
RX1 tia case :4,absolute value dc_i : 0 , value dc_q : 0 
RX1:reg0x12c0=0x443b443b.
Q:reg0x12c4=0x3c413e43.
 RX1 :reg0x1130=0x3e433c41.
tia_cnt_i : 0 ,
tia_cnt_q : 0 ,
RX1 tia case :5,absolute value dc_i : 0 , value dc_q : 0 
RX1:reg0x12c4=0x3c413e43.
Q:reg0x12c8=0x3c413c41.
 RX1 :reg0x1130=0x3c413c41.
tia_cnt_i : 0 ,
tia_cnt_q : 0 ,
RX1 tia case :6,absolute value dc_i : 0 , value dc_q : 0 
RX1:reg0x12c8=0x3c413c41.
Q:reg0x12cc=0x3c413e43.
 RX1 :reg0x1130=0x3e433c41.
tia_cnt_i : 0 ,
tia_cnt_q : 0 ,
RX1 tia case :7,absolute value dc_i : 0 , value dc_q : 0 
RX1:reg0x12cc=0x3c413e43.
Q:reg0x12d0=0x3a453c43.
 RX1 :reg0x1130=0x3c433a45.
tia_cnt_i : 0 ,
tia_cnt_q : 0 ,
RX1 tia case :8,absolute value dc_i : 0 , value dc_q : 0 
RX1:reg0x12d0=0x3a453c43.
Q:reg0x12d4=0x3c433c43.
 RX1 :reg0x1130=0x3c433c43.
tia_cnt_i : 0 ,
tia_cnt_q : 0 ,
RX1 tia case :9,absolute value dc_i : 0 , value dc_q : 0 
RX1:reg0x12d4=0x3c433c43.
Q:reg0x12d8=0x3a453c43.
 RX1 :reg0x1130=0x3c433a45.
tia_cnt_i : 0 ,
tia_cnt_q : 0 ,
RX1 tia case :10,absolute value dc_i : 0 , value dc_q : 0 
RX1:reg0x12d8=0x3a453c43.
Q:reg0x12dc=0x3c433c43.
 RX1 :reg0x1130=0x3c433c43.
tia_cnt_i : 0 ,
tia_cnt_q : 0 ,
RX1 tia case :11,absolute value dc_i : 0 , value dc_q : 0 
RX1:reg0x12dc=0x3c433c43.
Q:reg0x12e0=0x3c433c43.
 RX1 :reg0x1130=0x3c433c43.
tia_cnt_i : 0 ,
tia_cnt_q : 0 ,
RX1 tia case :12,absolute value dc_i : 0 , value dc_q : 0 
RX1:reg0x12e0=0x3c433c43.
tia calibration end!
rx0 vga calibration begin
reg0x1120=0x3fc100.
vga case:1 pass.
RX0 vga case:1 ,absolute value dc_i_tmp : 1 , value dc_q_tmp : 1 ,I:reg0x1184=0x29292723.   Q:reg0x11c0=0x17192327.
vga case:2 pass.
RX0 vga case:2 ,absolute value dc_i_tmp : 1 , value dc_q_tmp : 0 ,I:reg0x1188=0x29292723.   Q:reg0x11c4=0x17192327.
vga case:3 pass.
RX0 vga case:3 ,absolute value dc_i_tmp : 1 , value dc_q_tmp : 1 ,I:reg0x118c=0x29292723.   Q:reg0x11c8=0x19172729.
vga case:4 pass.
RX0 vga case:4 ,absolute value dc_i_tmp : 0 , value dc_q_tmp : 1 ,I:reg0x1190=0x2b292723.   Q:reg0x11cc=0x15192529.
vga case:5 pass.
RX0 vga case:5 ,absolute value dc_i_tmp : 1 , value dc_q_tmp : 1 ,I:reg0x1194=0x27272723.   Q:reg0x11d0=0x15192327.
vga case:6 pass.
RX0 vga case:6 ,absolute value dc_i_tmp : 1 , value dc_q_tmp : 1 ,I:reg0x1198=0x29272723.   Q:reg0x11d4=0x19152527.
vga case:7 pass.
RX0 vga case:7 ,absolute value dc_i_tmp : 1 , value dc_q_tmp : 1 ,I:reg0x119c=0x29272723.   Q:reg0x11d8=0x11192327.
vga case:8 pass.
RX0 vga case:8 ,absolute value dc_i_tmp : 0 , value dc_q_tmp : 1 ,I:reg0x11a0=0x2b292723.   Q:reg0x11dc=0x17172327.
vga case:9 pass.
RX0 vga case:9 ,absolute value dc_i_tmp : 1 , value dc_q_tmp : 1 ,I:reg0x11a4=0x272b2521.   Q:reg0x11e0=0x13192329.
vga case:10 pass.
RX0 vga case:10 ,absolute value dc_i_tmp : 1 , value dc_q_tmp : 1 ,I:reg0x11a8=0x2d252721.   Q:reg0x11e4=0x1915252b.
vga case:11 pass.
RX0 vga case:11 ,absolute value dc_i_tmp : 0 , value dc_q_tmp : 1 ,I:reg0x11ac=0x2b292721.   Q:reg0x11e8=0x1915232b.
vga case:12 pass.
RX0 vga case:12 ,absolute value dc_i_tmp : 1 , value dc_q_tmp : 1 ,I:reg0x11b0=0x272b2721.   Q:reg0x11ec=0x1d17212b.
vga case:13 pass.
RX0 vga case:13 ,absolute value dc_i_tmp : 1 , value dc_q_tmp : 0 ,I:reg0x11b4=0x31292921.   Q:reg0x11f0=0x1f17212d.
vga case:14 pass.
RX0 vga case:14 ,absolute value dc_i_tmp : 1 , value dc_q_tmp : 0 ,I:reg0x11b8=0x23272b21.   Q:reg0x11f4=0x190f1f31.
rx1 vga calibration begin
rx1 vga case:1 pass.
RX1 vga case:1 ,absolute value dc_i_tmp : 0 , value dc_q_tmp : 1 ,I:reg0x11fc=0x2b2b1f1d. Q:reg0x1238=0x3f3f1f1b.
rx1 vga case:2 pass.
RX1 vga case:2 ,absolute value dc_i_tmp : 0 , value dc_q_tmp : 1 ,I:reg0x1200=0x2b2b1f1d. Q:reg0x123c=0x3f3f1f1b.
rx1 vga case:3 pass.
RX1 vga case:3 ,absolute value dc_i_tmp : 1 , value dc_q_tmp : 1 ,I:reg0x1204=0x2b2b1f1d. Q:reg0x1240=0x3f3f1f1b.
rx1 vga case:4 pass.
RX1 vga case:4 ,absolute value dc_i_tmp : 0 , value dc_q_tmp : 1 ,I:reg0x1208=0x29291f1d. Q:reg0x1244=0x3f3f1f1b.
rx1 vga case:5 pass.
RX1 vga case:5 ,absolute value dc_i_tmp : 1 , value dc_q_tmp : 1 ,I:reg0x120c=0x29291f1d. Q:reg0x1248=0x3f3f1f1b.
rx1 vga case:6 pass.
RX1 vga case:6 ,absolute value dc_i_tmp : 1 , value dc_q_tmp : 1 ,I:reg0x1210=0x29291f1d. Q:reg0x124c=0x3f3f211d.
rx1 vga case:7 pass.
RX1 vga case:7 ,absolute value dc_i_tmp : 1 , value dc_q_tmp : 1 ,I:reg0x1214=0x29291f1d. Q:reg0x1250=0x3f3f211d.
rx1 vga case:8 pass.
RX1 vga case:8 ,absolute value dc_i_tmp : 0 , value dc_q_tmp : 1 ,I:reg0x1218=0x2b291f1d. Q:reg0x1254=0x3f3f211d.
rx1 vga case:9 pass.
RX1 vga case:9 ,absolute value dc_i_tmp : 0 , value dc_q_tmp : 2 ,I:reg0x121c=0x2b271f1d. Q:reg0x1258=0x3f3f211d.
rx1 vga case:10 pass.
RX1 vga case:10 ,absolute value dc_i_tmp : 1 , value dc_q_tmp : 0 ,I:reg0x1220=0x2b291f1d. Q:reg0x125c=0x393f1f1d.
rx1 vga case:11 pass.
RX1 vga case:11 ,absolute value dc_i_tmp : 1 , value dc_q_tmp : 1 ,I:reg0x1224=0x272f1d1d. Q:reg0x1260=0x3b3f1f1d.
rx1 vga case:12 pass.
RX1 vga case:12 ,absolute value dc_i_tmp : 1 , value dc_q_tmp : 1 ,I:reg0x1228=0x272d1d1d. Q:reg0x1264=0x3f3f1f1d.
rx1 vga case:13 pass.
RX1 vga case:13 ,absolute value dc_i_tmp : 0 , value dc_q_tmp : 0 ,I:reg0x122c=0x292b1d1d. Q:reg0x1268=0x353f1d1d.
rx1 vga case:14 pass.
RX1 vga case:14 ,absolute value dc_i_tmp : 1 , value dc_q_tmp : 0 ,I:reg0x1230=0x232d1d1f. Q:reg0x126c=0x373f1d1f.
reg0x1120=0x3c0100.
vga calibration end!
RX0: 0x103c : e002c000 ,0x1040 : b0001102 
RX1: 0x1054 : e002c000 ,0x1058 : b0001100 
THIS CASE J: 0 M:11 
adc calibration begin
calibration begin
RX0 cali pre ,absolute value dc_i_tmp : 5 , value dc_q_tmp : 2 ,

reg0x1180=0x29292723.
reg0x11bc=0x17192327.
RX1 cali pre ,absolute value dc_i_tmp : 5 , value dc_q_tmp : 9 ,reg0x11f8=0x29291f1d.
reg0x1234=0x3f3f1f1b.
