
read pll state:0x77 
pll state:0x0000007F! 
RX0: 0x103c : e0000000 ,0x1040 :        0 
RX1: 0x1054 : e0000000 ,0x1058 : 0 
THIS CASE J: 0 M: 0 
adc calibration begin
calibration begin
RX0 cali pre ,absolute value dc_i_tmp : 4 , value dc_q_tmp : 0 ,
reg0x1180=0x3333251d.
reg0x11bc=0x1b19191d.
RX1 cali pre ,absolute value dc_i_tmp : 0 , value dc_q_tmp : 2 ,reg0x11f8=0x1d1d1f23.
reg0x1234=0x17131b13.
rx0 tia cali begin:
####:reg0x1270=0x423f423d.
tia_cnt_i : 21 ,
tia_cnt_q : 1 ,
I:reg0x1150=0x3333251d.
Q:reg0x1154=0x1b19191d.
RX0 tia case :0,absolute value dc_i : -1 , value dc_q : 0 
####:reg0x1270=0x2d402d52.
####:reg0x1274=0x423d443b.
tia_cnt_i : 34 ,
tia_cnt_q : 1 ,
I:reg0x1150=0x3333251d.
Q:reg0x1154=0x1b19191d.
RX0 tia case :1,absolute value dc_i : -1 , value dc_q : 0 
####:reg0x1274=0x223e225d.
####:reg0x1278=0x3e413e41.
tia_cnt_i : 46 ,
tia_cnt_q : 0 ,
I:reg0x1150=0x3333251d.
Q:reg0x1154=0x1b19191d.
RX0 tia case :2,absolute value dc_i : -1 , value dc_q : -1 
####:reg0x1278=0x3e41106f.
####:reg0x127c=0x3e413e41.
tia_cnt_i : 62 ,
tia_cnt_q : 0 ,
I:reg0x1150=0x3333251d.
Q:reg0x1154=0x1b19191d.
RX0 tia case :3,absolute value dc_i : -2 , value dc_q : -1 
####:reg0x127c=0x3e41007f.
####:reg0x1280=0x3c413e43.
tia_cnt_i : 60 ,
tia_cnt_q : 1 ,
I:reg0x1150=0x3333251d.
Q:reg0x1154=0x1b19191d.
RX0 tia case :4,absolute value dc_i : -3 , value dc_q : 0 
####:reg0x1280=0x242027f.
####:reg0x1284=0x3e413e43.
tia_cnt_i : 60 ,
tia_cnt_q : 1 ,
I:reg0x1150=0x3333251d.
Q:reg0x1154=0x1b19191d.
RX0 tia case :5,absolute value dc_i : -3 , value dc_q : -1 
####:reg0x1284=0x242027f.
####:reg0x1288=0x3e433c41.
tia_cnt_i : 60 ,
tia_cnt_q : 1 ,
I:reg0x1150=0x3333251d.
Q:reg0x1154=0x1b19191d.
RX0 tia case :6,absolute value dc_i : -4 , value dc_q : -1 
####:reg0x1288=0x44007d.
####:reg0x128c=0x3c413e43.
tia_cnt_i : 60 ,
tia_cnt_q : 1 ,
I:reg0x1150=0x3333251d.
Q:reg0x1154=0x1b19191d.
RX0 tia case :7,absolute value dc_i : -4 , value dc_q : -1 
####:reg0x128c=0x242027f.
####:reg0x1290=0x3c433c43.
tia_cnt_i : 60 ,
tia_cnt_q : 1 ,
I:reg0x1150=0x3333251d.
Q:reg0x1154=0x1b19191d.
RX0 tia case :8,absolute value dc_i : -4 , value dc_q : 0 
####:reg0x1290=0x44007f.
####:reg0x1294=0x3c413c43.
tia_cnt_i : 60 ,
tia_cnt_q : 0 ,
I:reg0x1150=0x3333251d.
Q:reg0x1154=0x1b19191d.
RX0 tia case :9,absolute value dc_i : -4 , value dc_q : 0 
####:reg0x1294=0x3c41007f.
####:reg0x1298=0x3c413c43.
tia_cnt_i : 60 ,
tia_cnt_q : 1 ,
I:reg0x1150=0x3333251d.
Q:reg0x1154=0x1b19191d.
RX0 tia case :10,absolute value dc_i : -5 , value dc_q : -1 
####:reg0x1298=0x42007f.
####:reg0x129c=0x3e433c41.
tia_cnt_i : 5 ,
tia_cnt_q : 1 ,
I:reg0x1150=0x3333251d.
Q:reg0x1154=0x1b19191d.
RX0 tia case :11,absolute value dc_i : -1 , value dc_q : -1 
####:reg0x129c=0x37443746.
####:reg0x12a0=0x3e433c43.
tia_cnt_i : 60 ,
tia_cnt_q : 1 ,
I:reg0x1150=0x3333251d.
Q:reg0x1154=0x1b19191d.
RX0 tia case :12,absolute value dc_i : -3 , value dc_q : 0 
####:reg0x12a0=0x44007f.
rx1 tia cali begin:
Q:reg0x12b0=0x36493649.
 RX1 :reg0x1130=0x36493649.
tia_cnt_i : 54 ,
tia_cnt_q : 33 ,
RX1 tia case :0,absolute value dc_i : -5 , value dc_q : 1 
RX1:reg0x12b0=0x2a007f.
Q:reg0x12b4=0x3649344b.
 RX1 :reg0x1130=0x344b3649.
tia_cnt_i : 52 ,
tia_cnt_q : 1 ,
RX1 tia case :1,absolute value dc_i : -3 , value dc_q : 1 
RX1:reg0x12b4=0x4a007f.
Q:reg0x12b8=0x34493449.
 RX1 :reg0x1130=0x34493449.
tia_cnt_i : 52 ,
tia_cnt_q : 1 ,
RX1 tia case :2,absolute value dc_i : -3 , value dc_q : -3 
RX1:reg0x12b8=0x4a007d.
Q:reg0x12bc=0x3649364b.
 RX1 :reg0x1130=0x364b3649.
tia_cnt_i : 52 ,
tia_cnt_q : 54 ,
RX1 tia case :3,absolute value dc_i : -3 , value dc_q : -3 
RX1:reg0x12bc=0x27f027f.
Q:reg0x12c0=0x3649364b.
 RX1 :reg0x1130=0x364b3649.
tia_cnt_i : 52 ,
tia_cnt_q : 54 ,
RX1 tia case :4,absolute value dc_i : -3 , value dc_q : -4 
RX1:reg0x12c0=0x27f027f.
Q:reg0x12c4=0x3649344b.
 RX1 :reg0x1130=0x344b3649.
tia_cnt_i : 52 ,
tia_cnt_q : 1 ,
RX1 tia case :5,absolute value dc_i : -3 , value dc_q : -4 
RX1:reg0x12c4=0x4a007f.
Q:reg0x12c8=0x36493449.
 RX1 :reg0x1130=0x34493649.
tia_cnt_i : 52 ,
tia_cnt_q : 1 ,
RX1 tia case :6,absolute value dc_i : -3 , value dc_q : -4 
RX1:reg0x12c8=0x4a007d.
Q:reg0x12cc=0x3649344b.
 RX1 :reg0x1130=0x344b3649.
tia_cnt_i : 52 ,
tia_cnt_q : 1 ,
RX1 tia case :7,absolute value dc_i : -3 , value dc_q : -4 
RX1:reg0x12cc=0x4a007f.
Q:reg0x12d0=0x3449324d.
 RX1 :reg0x1130=0x324d3449.
tia_cnt_i : 50 ,
tia_cnt_q : 1 ,
RX1 tia case :8,absolute value dc_i : -3 , value dc_q : -4 
RX1:reg0x12d0=0x4a007f.
Q:reg0x12d4=0x3449364b.
 RX1 :reg0x1130=0x364b3449.
tia_cnt_i : 52 ,
tia_cnt_q : 54 ,
RX1 tia case :9,absolute value dc_i : -3 , value dc_q : -4 
RX1:reg0x12d4=0x27f027f.
Q:reg0x12d8=0x3449324d.
 RX1 :reg0x1130=0x324d3449.
tia_cnt_i : 50 ,
tia_cnt_q : 1 ,
RX1 tia case :10,absolute value dc_i : -3 , value dc_q : -4 
RX1:reg0x12d8=0x4a007f.
Q:reg0x12dc=0x3649344b.
 RX1 :reg0x1130=0x344b3649.
tia_cnt_i : 52 ,
tia_cnt_q : 1 ,
RX1 tia case :11,absolute value dc_i : -3 , value dc_q : -4 
RX1:reg0x12dc=0x4a007f.
Q:reg0x12e0=0x364b344b.
 RX1 :reg0x1130=0x344b364b.
tia_cnt_i : 52 ,
tia_cnt_q : 1 ,
RX1 tia case :12,absolute value dc_i : -3 , value dc_q : -4 
RX1:reg0x12e0=0x4c007f.
tia calibration end!
rx0 vga calibration begin
reg0x1120=0x3fc100.
vga case:1 pass.
RX0 vga case:1 ,absolute value dc_i_tmp : 4 , value dc_q_tmp : 0 ,I:reg0x1184=0x3333271b.   Q:reg0x11c0=0x1b191b1d.
vga case:2 pass.
RX0 vga case:2 ,absolute value dc_i_tmp : 4 , value dc_q_tmp : 1 ,I:reg0x1188=0x3333291d.   Q:reg0x11c4=0x1d1b1b1d.
vga case:3 pass.
RX0 vga case:3 ,absolute value dc_i_tmp : 4 , value dc_q_tmp : 0 ,I:reg0x118c=0x3333291d.   Q:reg0x11c8=0x1d191b1d.
vga case:4 pass.
RX0 vga case:4 ,absolute value dc_i_tmp : 4 , value dc_q_tmp : 0 ,I:reg0x1190=0x3333291d.   Q:reg0x11cc=0x1d191b1d.
vga case:5 pass.
RX0 vga case:5 ,absolute value dc_i_tmp : 4 , value dc_q_tmp : 0 ,I:reg0x1194=0x3133271b.   Q:reg0x11d0=0x1d191b1d.
vga case:6 pass.
RX0 vga case:6 ,absolute value dc_i_tmp : 4 , value dc_q_tmp : 0 ,I:reg0x1198=0x3333291d.   Q:reg0x11d4=0x1f191b1d.
vga case:7 pass.
RX0 vga case:7 ,absolute value dc_i_tmp : 4 , value dc_q_tmp : 0 ,I:reg0x119c=0x3133271b.   Q:reg0x11d8=0x1f191b1d.
vga case:8 pass.
RX0 vga case:8 ,absolute value dc_i_tmp : 4 , value dc_q_tmp : 1 ,I:reg0x11a0=0x3139271b.   Q:reg0x11dc=0x1d191b1d.
vga case:9 pass.
RX0 vga case:9 ,absolute value dc_i_tmp : 3 , value dc_q_tmp : 1 ,I:reg0x11a4=0x3333291b.   Q:reg0x11e0=0x191b1b1d.
vga case:10 pass.
RX0 vga case:10 ,absolute value dc_i_tmp : 4 , value dc_q_tmp : 0 ,I:reg0x11a8=0x35332919.   Q:reg0x11e4=0x21191b1b.
vga case:11 pass.
RX0 vga case:11 ,absolute value dc_i_tmp : 4 , value dc_q_tmp : 0 ,I:reg0x11ac=0x33312b19.   Q:reg0x11e8=0x1d1d1b1b.
vga case:12 pass.
RX0 vga case:12 ,absolute value dc_i_tmp : 4 , value dc_q_tmp : 0 ,I:reg0x11b0=0x2f312d19.   Q:reg0x11ec=0x1f191d1b.
vga case:13 pass.
RX0 vga case:13 ,absolute value dc_i_tmp : 2 , value dc_q_tmp : 1 ,I:reg0x11b4=0x31372d17.   Q:reg0x11f0=0x1f171d19.
vga case:14 pass.
RX0 vga case:14 ,absolute value dc_i_tmp : 2 , value dc_q_tmp : 0 ,I:reg0x11b8=0x332d3113.   Q:reg0x11f4=0x19211f19.
rx1 vga calibration begin
rx1 vga case:1 pass.
RX1 vga case:1 ,absolute value dc_i_tmp : 1 , value dc_q_tmp : 1 ,I:reg0x11fc=0x1d1d231d. Q:reg0x1238=0x17131b11.
rx1 vga case:2 pass.
RX1 vga case:2 ,absolute value dc_i_tmp : 1 , value dc_q_tmp : 1 ,I:reg0x1200=0x1d1d231d. Q:reg0x123c=0x17131b11.
rx1 vga case:3 pass.
RX1 vga case:3 ,absolute value dc_i_tmp : 1 , value dc_q_tmp : 0 ,I:reg0x1204=0x1b1b231d. Q:reg0x1240=0x19151b11.
rx1 vga case:4 pass.
RX1 vga case:4 ,absolute value dc_i_tmp : 1 , value dc_q_tmp : 0 ,I:reg0x1208=0x1b1b231d. Q:reg0x1244=0x1b111d11.
rx1 vga case:5 pass.
RX1 vga case:5 ,absolute value dc_i_tmp : 1 , value dc_q_tmp : 1 ,I:reg0x120c=0x1b1b231d. Q:reg0x1248=0x17151b11.
rx1 vga case:6 pass.
RX1 vga case:6 ,absolute value dc_i_tmp : 0 , value dc_q_tmp : 0 ,I:reg0x1210=0x1d1b231d. Q:reg0x124c=0x17151b11.
rx1 vga case:7 pass.
RX1 vga case:7 ,absolute value dc_i_tmp : 1 , value dc_q_tmp : 1 ,I:reg0x1214=0x1d1b231d. Q:reg0x1250=0x15151b11.
rx1 vga case:8 pass.
RX1 vga case:8 ,absolute value dc_i_tmp : 0 , value dc_q_tmp : 1 ,I:reg0x1218=0x1b1b251d. Q:reg0x1254=0x17151d11.
rx1 vga case:9 pass.
RX1 vga case:9 ,absolute value dc_i_tmp : 0 , value dc_q_tmp : 0 ,I:reg0x121c=0x1d1b271b. Q:reg0x1258=0x17151d0f.
rx1 vga case:10 pass.
RX1 vga case:10 ,absolute value dc_i_tmp : 0 , value dc_q_tmp : 1 ,I:reg0x1220=0x1b1b2919. Q:reg0x125c=0x190f210f.
rx1 vga case:11 pass.
RX1 vga case:11 ,absolute value dc_i_tmp : 1 , value dc_q_tmp : 1 ,I:reg0x1224=0x19212b17. Q:reg0x1260=0x1d0d230d.
rx1 vga case:12 pass.
RX1 vga case:12 ,absolute value dc_i_tmp : 1 , value dc_q_tmp : 1 ,I:reg0x1228=0x171f2d13. Q:reg0x1264=0x1915230b.
rx1 vga case:13 pass.
RX1 vga case:13 ,absolute value dc_i_tmp : 0 , value dc_q_tmp : 0 ,I:reg0x122c=0x1b1f310f. Q:reg0x1268=0x13172509.
rx1 vga case:14 pass.
RX1 vga case:14 ,absolute value dc_i_tmp : 0 , value dc_q_tmp : 1 ,I:reg0x1230=0x211b3b07. Q:reg0x126c=0x1d112b03.
reg0x1120=0x3c0100.
vga calibration end!
RX0: 0x103c : e0004000 ,0x1040 : 10001102 
RX1: 0x1054 : e0004000 ,0x1058 : 10001100 
THIS CASE J: 0 M: 1 
adc calibration begin
calibration begin
RX0 cali pre ,absolute value dc_i_tmp : 0 , value dc_q_tmp : 0 ,
reg0x1180=0x33332721.
reg0x11bc=0x1b19191d.
RX1 cali pre ,absolute value dc_i_tmp : 5 , value dc_q_tmp : 2 ,reg0x11f8=0x1b1d1d25.
reg0x1234=0x17131b13.
rx0 tia cali begin:
####:reg0x1270=0x423d443b.
tia_cnt_i : 0 ,
tia_cnt_q : 0 ,
I:reg0x1150=0x33332721.
Q:reg0x1154=0x1b19191d.
RX0 tia case :0,absolute value dc_i : 0 , value dc_q : -1 
####:reg0x1270=0x423d443b.
####:reg0x1274=0x423d443b.
tia_cnt_i : 0 ,
tia_cnt_q : 0 ,
I:reg0x1150=0x33332721.
Q:reg0x1154=0x1b19191d.
RX0 tia case :1,absolute value dc_i : 0 , value dc_q : 0 
####:reg0x1274=0x423d443b.
####:reg0x1278=0x443b3e41.
tia_cnt_i : 0 ,
tia_cnt_q : 0 ,
I:reg0x1150=0x33332721.
Q:reg0x1154=0x1b19191d.
RX0 tia case :2,absolute value dc_i : 0 , value dc_q : 0 
####:reg0x1278=0x443b3e41.
####:reg0x127c=0x423d443b.
tia_cnt_i : 0 ,
tia_cnt_q : 0 ,
I:reg0x1150=0x33332721.
Q:reg0x1154=0x1b19191d.
RX0 tia case :3,absolute value dc_i : 0 , value dc_q : 0 
####:reg0x127c=0x423d443b.
####:reg0x1280=0x3e433c43.
tia_cnt_i : 0 ,
tia_cnt_q : 0 ,
I:reg0x1150=0x33332721.
Q:reg0x1154=0x1b19191d.
RX0 tia case :4,absolute value dc_i : 0 , value dc_q : 0 
####:reg0x1280=0x3e433c43.
####:reg0x1284=0x3e413c41.
tia_cnt_i : 0 ,
tia_cnt_q : 0 ,
I:reg0x1150=0x33332721.
Q:reg0x1154=0x1b19191d.
RX0 tia case :5,absolute value dc_i : 0 , value dc_q : 0 
####:reg0x1284=0x3e413c41.
####:reg0x1288=0x3e413e41.
tia_cnt_i : 0 ,
tia_cnt_q : 0 ,
I:reg0x1150=0x33332721.
Q:reg0x1154=0x1b19191d.
RX0 tia case :6,absolute value dc_i : 0 , value dc_q : 0 
####:reg0x1288=0x3e413e41.
####:reg0x128c=0x3e413e43.
tia_cnt_i : 0 ,
tia_cnt_q : 0 ,
I:reg0x1150=0x33332721.
Q:reg0x1154=0x1b19191d.
RX0 tia case :7,absolute value dc_i : 0 , value dc_q : 0 
####:reg0x128c=0x3e413e43.
####:reg0x1290=0x3c433845.
tia_cnt_i : 0 ,
tia_cnt_q : 0 ,
I:reg0x1150=0x33332721.
Q:reg0x1154=0x1b19191d.
RX0 tia case :8,absolute value dc_i : 1 , value dc_q : -1 
####:reg0x1290=0x3c433845.
####:reg0x1294=0x3e433c43.
tia_cnt_i : 0 ,
tia_cnt_q : 0 ,
I:reg0x1150=0x33332721.
Q:reg0x1154=0x1b19191d.
RX0 tia case :9,absolute value dc_i : 0 , value dc_q : -1 
####:reg0x1294=0x3e433c43.
####:reg0x1298=0x3c433c43.
tia_cnt_i : 0 ,
tia_cnt_q : 0 ,
I:reg0x1150=0x33332721.
Q:reg0x1154=0x1b19191d.
RX0 tia case :10,absolute value dc_i : 1 , value dc_q : 0 
####:reg0x1298=0x3c433c43.
####:reg0x129c=0x3e413c43.
tia_cnt_i : 0 ,
tia_cnt_q : 0 ,
I:reg0x1150=0x33332721.
Q:reg0x1154=0x1b19191d.
RX0 tia case :11,absolute value dc_i : 1 , value dc_q : 0 
####:reg0x129c=0x3e413c43.
####:reg0x12a0=0x3c433c43.
tia_cnt_i : 0 ,
tia_cnt_q : 0 ,
I:reg0x1150=0x33332721.
Q:reg0x1154=0x1b19191d.
RX0 tia case :12,absolute value dc_i : 0 , value dc_q : -1 
####:reg0x12a0=0x3c433c43.
rx1 tia cali begin:
Q:reg0x12b0=0x3649344b.
 RX1 :reg0x1130=0x344b3649.
tia_cnt_i : 52 ,
tia_cnt_q : 32 ,
RX1 tia case :0,absolute value dc_i : -6 , value dc_q : 1 
RX1:reg0x12b0=0x2b007f.
Q:reg0x12b4=0x36493649.
 RX1 :reg0x1130=0x36493649.
tia_cnt_i : 54 ,
tia_cnt_q : 1 ,
RX1 tia case :1,absolute value dc_i : -5 , value dc_q : 0 
RX1:reg0x12b4=0x4a007f.
Q:reg0x12b8=0x3649364b.
 RX1 :reg0x1130=0x364b3649.
tia_cnt_i : 52 ,
tia_cnt_q : 33 ,
RX1 tia case :2,absolute value dc_i : -3 , value dc_q : -1 
RX1:reg0x12b8=0x26a027f.
Q:reg0x12bc=0x3649364b.
 RX1 :reg0x1130=0x364b3649.
tia_cnt_i : 52 ,
tia_cnt_q : 54 ,
RX1 tia case :3,absolute value dc_i : -3 , value dc_q : -3 
RX1:reg0x12bc=0x27f027f.
Q:reg0x12c0=0x34493449.
 RX1 :reg0x1130=0x34493449.
tia_cnt_i : 15 ,
tia_cnt_q : 54 ,
RX1 tia case :4,absolute value dc_i : -1 , value dc_q : -4 
RX1:reg0x12c0=0x257f2558.
Q:reg0x12c4=0x3449364b.
 RX1 :reg0x1130=0x364b3449.
tia_cnt_i : 9 ,
tia_cnt_q : 54 ,
RX1 tia case :5,absolute value dc_i : -1 , value dc_q : -4 
RX1:reg0x12c4=0x2d7f2d54.
Q:reg0x12c8=0x3649344b.
 RX1 :reg0x1130=0x344b3649.
tia_cnt_i : 4 ,
tia_cnt_q : 54 ,
RX1 tia case :6,absolute value dc_i : -1 , value dc_q : -4 
RX1:reg0x12c8=0x307f304f.
Q:reg0x12cc=0x36493449.
 RX1 :reg0x1130=0x34493649.
tia_cnt_i : 52 ,
tia_cnt_q : 1 ,
RX1 tia case :7,absolute value dc_i : -2 , value dc_q : -4 
RX1:reg0x12cc=0x4a007d.
Q:reg0x12d0=0x344b344b.
 RX1 :reg0x1130=0x344b344b.
tia_cnt_i : 30 ,
tia_cnt_q : 52 ,
RX1 tia case :8,absolute value dc_i : -1 , value dc_q : -4 
RX1:reg0x12d0=0x167f1669.
Q:reg0x12d4=0x3649344b.
 RX1 :reg0x1130=0x344b3649.
tia_cnt_i : 52 ,
tia_cnt_q : 1 ,
RX1 tia case :9,absolute value dc_i : -1 , value dc_q : -4 
RX1:reg0x12d4=0x4a007f.
Q:reg0x12d8=0x364b344b.
 RX1 :reg0x1130=0x344b364b.
tia_cnt_i : 12 ,
tia_cnt_q : 52 ,
RX1 tia case :10,absolute value dc_i : -1 , value dc_q : -4 
RX1:reg0x12d8=0x287f2857.
Q:reg0x12dc=0x3449364b.
 RX1 :reg0x1130=0x364b3449.
tia_cnt_i : 5 ,
tia_cnt_q : 54 ,
RX1 tia case :11,absolute value dc_i : -1 , value dc_q : -4 
RX1:reg0x12dc=0x317f3150.
Q:reg0x12e0=0x3449324d.
 RX1 :reg0x1130=0x324d3449.
tia_cnt_i : 12 ,
tia_cnt_q : 54 ,
RX1 tia case :12,absolute value dc_i : -1 , value dc_q : -4 
RX1:reg0x12e0=0x267f2659.
tia calibration end!
rx0 vga calibration begin
reg0x1120=0x3fc100.
vga case:1 pass.
RX0 vga case:1 ,absolute value dc_i_tmp : 1 , value dc_q_tmp : 0 ,I:reg0x1184=0x3333271f.   Q:reg0x11c0=0x1d1b191d.
vga case:2 pass.
RX0 vga case:2 ,absolute value dc_i_tmp : 1 , value dc_q_tmp : 1 ,I:reg0x1188=0x31332721.   Q:reg0x11c4=0x1b19191d.
vga case:3 pass.
RX0 vga case:3 ,absolute value dc_i_tmp : 1 , value dc_q_tmp : 1 ,I:reg0x118c=0x31332721.   Q:reg0x11c8=0x1b19191d.
vga case:4 pass.
RX0 vga case:4 ,absolute value dc_i_tmp : 1 , value dc_q_tmp : 0 ,I:reg0x1190=0x33352721.   Q:reg0x11cc=0x1d19191d.
vga case:5 pass.
RX0 vga case:5 ,absolute value dc_i_tmp : 1 , value dc_q_tmp : 0 ,I:reg0x1194=0x31332721.   Q:reg0x11d0=0x1d19191d.
vga case:6 pass.
RX0 vga case:6 ,absolute value dc_i_tmp : 1 , value dc_q_tmp : 1 ,I:reg0x1198=0x33352721.   Q:reg0x11d4=0x1d19191d.
vga case:7 pass.
RX0 vga case:7 ,absolute value dc_i_tmp : 1 , value dc_q_tmp : 1 ,I:reg0x119c=0x31352721.   Q:reg0x11d8=0x1f19191d.
vga case:8 pass.
RX0 vga case:8 ,absolute value dc_i_tmp : 0 , value dc_q_tmp : 1 ,I:reg0x11a0=0x33352721.   Q:reg0x11dc=0x1f19191d.
vga case:9 pass.
RX0 vga case:9 ,absolute value dc_i_tmp : 0 , value dc_q_tmp : 0 ,I:reg0x11a4=0x35352721.   Q:reg0x11e0=0x1d1d1b21.
vga case:10 pass.
RX0 vga case:10 ,absolute value dc_i_tmp : 1 , value dc_q_tmp : 0 ,I:reg0x11a8=0x35332721.   Q:reg0x11e4=0x1d1d1b21.
vga case:11 pass.
RX0 vga case:11 ,absolute value dc_i_tmp : 0 , value dc_q_tmp : 1 ,I:reg0x11ac=0x37312721.   Q:reg0x11e8=0x1f19191d.
vga case:12 pass.
RX0 vga case:12 ,absolute value dc_i_tmp : 0 , value dc_q_tmp : 0 ,I:reg0x11b0=0x39312721.   Q:reg0x11ec=0x1f19191d.
vga case:13 pass.
RX0 vga case:13 ,absolute value dc_i_tmp : 0 , value dc_q_tmp : 0 ,I:reg0x11b4=0x35372521.   Q:reg0x11f0=0x211b1b1f.
vga case:14 pass.
RX0 vga case:14 ,absolute value dc_i_tmp : 0 , value dc_q_tmp : 0 ,I:reg0x11b8=0x39312521.   Q:reg0x11f4=0x1f1b191d.
rx1 vga calibration begin
rx1 vga case:1 pass.
RX1 vga case:1 ,absolute value dc_i_tmp : 5 , value dc_q_tmp : 2 ,I:reg0x11fc=0x1d1d231d. Q:reg0x1238=0x19131d11.
rx1 vga case:2 pass.
RX1 vga case:2 ,absolute value dc_i_tmp : 5 , value dc_q_tmp : 0 ,I:reg0x1200=0x1b1b231d. Q:reg0x123c=0x19111d11.
rx1 vga case:3 pass.
RX1 vga case:3 ,absolute value dc_i_tmp : 5 , value dc_q_tmp : 1 ,I:reg0x1204=0x1b1b251f. Q:reg0x1240=0x19111d11.
rx1 vga case:4 pass.
RX1 vga case:4 ,absolute value dc_i_tmp : 5 , value dc_q_tmp : 1 ,I:reg0x1208=0x1b1b231d. Q:reg0x1244=0x19111d11.
rx1 vga case:5 pass.
RX1 vga case:5 ,absolute value dc_i_tmp : 5 , value dc_q_tmp : 0 ,I:reg0x120c=0x1b1b231d. Q:reg0x1248=0x1b111d11.
rx1 vga case:6 pass.
RX1 vga case:6 ,absolute value dc_i_tmp : 5 , value dc_q_tmp : 0 ,I:reg0x1210=0x1b1b231d. Q:reg0x124c=0x1b111d11.
rx1 vga case:7 pass.
RX1 vga case:7 ,absolute value dc_i_tmp : 5 , value dc_q_tmp : 0 ,I:reg0x1214=0x1d1b231d. Q:reg0x1250=0x1d111d11.
rx1 vga case:8 pass.
RX1 vga case:8 ,absolute value dc_i_tmp : 5 , value dc_q_tmp : 0 ,I:reg0x1218=0x1d1d251d. Q:reg0x1254=0x1d0f1f11.
rx1 vga case:9 pass.
RX1 vga case:9 ,absolute value dc_i_tmp : 5 , value dc_q_tmp : 0 ,I:reg0x121c=0x1d1b271b. Q:reg0x1258=0x1b0f1f0f.
rx1 vga case:10 pass.
RX1 vga case:10 ,absolute value dc_i_tmp : 5 , value dc_q_tmp : 1 ,I:reg0x1220=0x1b1b2919. Q:reg0x125c=0x19131f0d.
rx1 vga case:11 pass.
RX1 vga case:11 ,absolute value dc_i_tmp : 4 , value dc_q_tmp : 0 ,I:reg0x1224=0x21192b15. Q:reg0x1260=0x1b11210b.
rx1 vga case:12 pass.
RX1 vga case:12 ,absolute value dc_i_tmp : 4 , value dc_q_tmp : 0 ,I:reg0x1228=0x21172f13. Q:reg0x1264=0x1b11250b.
rx1 vga case:13 pass.
RX1 vga case:13 ,absolute value dc_i_tmp : 5 , value dc_q_tmp : 0 ,I:reg0x122c=0x191f310f. Q:reg0x1268=0x17172507.
rx1 vga case:14 pass.
RX1 vga case:14 ,absolute value dc_i_tmp : 3 , value dc_q_tmp : 0 ,I:reg0x1230=0x211b3b07. Q:reg0x126c=0x1b112d03.
reg0x1120=0x3c0100.
vga calibration end!
RX0: 0x103c : e0008000 ,0x1040 : 20001102 
RX1: 0x1054 : e0008000 ,0x1058 : 20001100 
THIS CASE J: 0 M: 2 
adc calibration begin
calibration begin
RX0 cali pre ,absolute value dc_i_tmp : 1 , value dc_q_tmp : 0 ,
reg0x1180=0x31312921.
reg0x11bc=0x1d1b191d.
RX1 cali pre ,absolute value dc_i_tmp : 3 , value dc_q_tmp : 0 ,reg0x11f8=0x1b1d1b23.
reg0x1234=0x19111d13.
rx0 tia cali begin:
####:reg0x1270=0x403d423f.
tia_cnt_i : 2 ,
tia_cnt_q : 0 ,
I:reg0x1150=0x31312921.
Q:reg0x1154=0x1d1b191d.
RX0 tia case :0,absolute value dc_i : -1 , value dc_q : -1 
####:reg0x1270=0x403d4041.
####:reg0x1274=0x403d423d.
tia_cnt_i : 4 ,
tia_cnt_q : 0 ,
I:reg0x1150=0x31312921.
Q:reg0x1154=0x1d1b191d.
RX0 tia case :1,absolute value dc_i : -1 , value dc_q : -1 
####:reg0x1274=0x403d3e41.
####:reg0x1278=0x423d423d.
tia_cnt_i : 3 ,
tia_cnt_q : 0 ,
I:reg0x1150=0x31312921.
Q:reg0x1154=0x1d1b191d.
RX0 tia case :2,absolute value dc_i : -1 , value dc_q : -1 
####:reg0x1278=0x423d3f40.
####:reg0x127c=0x3e413e41.
tia_cnt_i : 1 ,
tia_cnt_q : 0 ,
I:reg0x1150=0x31312921.
Q:reg0x1154=0x1d1b191d.
RX0 tia case :3,absolute value dc_i : -1 , value dc_q : -1 
####:reg0x127c=0x3e413d42.
####:reg0x1280=0x3c413a45.
tia_cnt_i : 0 ,
tia_cnt_q : 0 ,
I:reg0x1150=0x31312921.
Q:reg0x1154=0x1d1b191d.
RX0 tia case :4,absolute value dc_i : -1 , value dc_q : -1 
####:reg0x1280=0x3c413a45.
####:reg0x1284=0x3e413e43.
tia_cnt_i : 2 ,
tia_cnt_q : 0 ,
I:reg0x1150=0x31312921.
Q:reg0x1154=0x1d1b191d.
RX0 tia case :5,absolute value dc_i : -1 , value dc_q : -1 
####:reg0x1284=0x3e413c45.
####:reg0x1288=0x3e433e43.
tia_cnt_i : 0 ,
tia_cnt_q : 0 ,
I:reg0x1150=0x31312921.
Q:reg0x1154=0x1d1b191d.
RX0 tia case :6,absolute value dc_i : -1 , value dc_q : -1 
####:reg0x1288=0x3e433e43.
####:reg0x128c=0x3e413e43.
tia_cnt_i : 0 ,
tia_cnt_q : 0 ,
I:reg0x1150=0x31312921.
Q:reg0x1154=0x1d1b191d.
RX0 tia case :7,absolute value dc_i : -1 , value dc_q : -1 
####:reg0x128c=0x3e413e43.
####:reg0x1290=0x3c433a45.
tia_cnt_i : 0 ,
tia_cnt_q : 0 ,
I:reg0x1150=0x31312921.
Q:reg0x1154=0x1d1b191d.
RX0 tia case :8,absolute value dc_i : -1 , value dc_q : -1 
####:reg0x1290=0x3c433a45.
####:reg0x1294=0x3e433a45.
tia_cnt_i : 0 ,
tia_cnt_q : 0 ,
I:reg0x1150=0x31312921.
Q:reg0x1154=0x1d1b191d.
RX0 tia case :9,absolute value dc_i : -1 , value dc_q : -1 
####:reg0x1294=0x3e433a45.
####:reg0x1298=0x3c433c43.
tia_cnt_i : 0 ,
tia_cnt_q : 0 ,
I:reg0x1150=0x31312921.
Q:reg0x1154=0x1d1b191d.
RX0 tia case :10,absolute value dc_i : -1 , value dc_q : -1 
####:reg0x1298=0x3c433c43.
####:reg0x129c=0x3c413c43.
tia_cnt_i : 0 ,
tia_cnt_q : 0 ,
I:reg0x1150=0x31312921.
Q:reg0x1154=0x1d1b191d.
RX0 tia case :11,absolute value dc_i : -1 , value dc_q : -1 
####:reg0x129c=0x3c413c43.
####:reg0x12a0=0x3e433a45.
tia_cnt_i : 0 ,
tia_cnt_q : 0 ,
I:reg0x1150=0x31312921.
Q:reg0x1154=0x1d1b191d.
RX0 tia case :12,absolute value dc_i : -1 , value dc_q : -1 
####:reg0x12a0=0x3e433a45.
rx1 tia cali begin:
Q:reg0x12b0=0x3649364b.
 RX1 :reg0x1130=0x364b3649.
tia_cnt_i : 52 ,
tia_cnt_q : 0 ,
RX1 tia case :0,absolute value dc_i : -4 , value dc_q : 0 
RX1:reg0x12b0=0x3649027f.
Q:reg0x12b4=0x38473649.
 RX1 :reg0x1130=0x36493847.
tia_cnt_i : 54 ,
tia_cnt_q : 1 ,
RX1 tia case :1,absolute value dc_i : -4 , value dc_q : 1 
RX1:reg0x12b4=0x48007f.
Q:reg0x12b8=0x36493449.
 RX1 :reg0x1130=0x34493649.
tia_cnt_i : 1 ,
tia_cnt_q : 49 ,
RX1 tia case :2,absolute value dc_i : -1 , value dc_q : -1 
RX1:reg0x12b8=0x337a334a.
Q:reg0x12bc=0x36493449.
 RX1 :reg0x1130=0x34493649.
tia_cnt_i : 0 ,
tia_cnt_q : 54 ,
RX1 tia case :3,absolute value dc_i : 0 , value dc_q : -3 
RX1:reg0x12bc=0x347f3449.
Q:reg0x12c0=0x364b344b.
 RX1 :reg0x1130=0x344b364b.
tia_cnt_i : 0 ,
tia_cnt_q : 52 ,
RX1 tia case :4,absolute value dc_i : 0 , value dc_q : -4 
RX1:reg0x12c0=0x347f344b.
Q:reg0x12c4=0x3847344b.
 RX1 :reg0x1130=0x344b3847.
tia_cnt_i : 0 ,
tia_cnt_q : 56 ,
RX1 tia case :5,absolute value dc_i : 0 , value dc_q : -4 
RX1:reg0x12c4=0x347f344b.
Q:reg0x12c8=0x36493449.
 RX1 :reg0x1130=0x34493649.
tia_cnt_i : 0 ,
tia_cnt_q : 54 ,
RX1 tia case :6,absolute value dc_i : 0 , value dc_q : -4 
RX1:reg0x12c8=0x347f3449.
Q:reg0x12cc=0x3649344b.
 RX1 :reg0x1130=0x344b3649.
tia_cnt_i : 0 ,
tia_cnt_q : 54 ,
RX1 tia case :7,absolute value dc_i : 0 , value dc_q : -4 
RX1:reg0x12cc=0x347f344b.
Q:reg0x12d0=0x324d324d.
 RX1 :reg0x1130=0x324d324d.
tia_cnt_i : 0 ,
tia_cnt_q : 50 ,
RX1 tia case :8,absolute value dc_i : 0 , value dc_q : -4 
RX1:reg0x12d0=0x327f324d.
Q:reg0x12d4=0x3449344b.
 RX1 :reg0x1130=0x344b3449.
tia_cnt_i : 0 ,
tia_cnt_q : 54 ,
RX1 tia case :9,absolute value dc_i : 0 , value dc_q : -4 
RX1:reg0x12d4=0x347f344b.
Q:reg0x12d8=0x364b344b.
 RX1 :reg0x1130=0x344b364b.
tia_cnt_i : 0 ,
tia_cnt_q : 52 ,
RX1 tia case :10,absolute value dc_i : 1 , value dc_q : -4 
RX1:reg0x12d8=0x347f344b.
Q:reg0x12dc=0x3449344b.
 RX1 :reg0x1130=0x344b3449.
tia_cnt_i : 0 ,
tia_cnt_q : 54 ,
RX1 tia case :11,absolute value dc_i : 0 , value dc_q : -4 
RX1:reg0x12dc=0x347f344b.
Q:reg0x12e0=0x364b324d.
 RX1 :reg0x1130=0x324d364b.
tia_cnt_i : 0 ,
tia_cnt_q : 52 ,
RX1 tia case :12,absolute value dc_i : 0 , value dc_q : -4 
RX1:reg0x12e0=0x327f324d.
tia calibration end!
rx0 vga calibration begin
reg0x1120=0x3fc100.
vga case:1 pass.
RX0 vga case:1 ,absolute value dc_i_tmp : 0 , value dc_q_tmp : 1 ,I:reg0x1184=0x3333251d.   Q:reg0x11c0=0x1d1b191d.
vga case:2 pass.
RX0 vga case:2 ,absolute value dc_i_tmp : 0 , value dc_q_tmp : 0 ,I:reg0x1188=0x31332721.   Q:reg0x11c4=0x1b1b1b21.
vga case:3 pass.
RX0 vga case:3 ,absolute value dc_i_tmp : 0 , value dc_q_tmp : 1 ,I:reg0x118c=0x33312921.   Q:reg0x11c8=0x1d1b191d.
vga case:4 pass.
RX0 vga case:4 ,absolute value dc_i_tmp : 1 , value dc_q_tmp : 1 ,I:reg0x1190=0x33312921.   Q:reg0x11cc=0x1b19191d.
vga case:5 pass.
RX0 vga case:5 ,absolute value dc_i_tmp : 1 , value dc_q_tmp : 1 ,I:reg0x1194=0x3133251d.   Q:reg0x11d0=0x1d19191d.
vga case:6 pass.
RX0 vga case:6 ,absolute value dc_i_tmp : 1 , value dc_q_tmp : 1 ,I:reg0x1198=0x3133271f.   Q:reg0x11d4=0x1d19191d.
vga case:7 pass.
RX0 vga case:7 ,absolute value dc_i_tmp : 1 , value dc_q_tmp : 0 ,I:reg0x119c=0x3335271f.   Q:reg0x11d8=0x1f19191d.
vga case:8 pass.
RX0 vga case:8 ,absolute value dc_i_tmp : 1 , value dc_q_tmp : 1 ,I:reg0x11a0=0x3335251d.   Q:reg0x11dc=0x1f19191d.
vga case:9 pass.
RX0 vga case:9 ,absolute value dc_i_tmp : 1 , value dc_q_tmp : 1 ,I:reg0x11a4=0x3335271f.   Q:reg0x11e0=0x1d19191d.
vga case:10 pass.
RX0 vga case:10 ,absolute value dc_i_tmp : 1 , value dc_q_tmp : 1 ,I:reg0x11a8=0x3133271f.   Q:reg0x11e4=0x1d19191d.
vga case:11 pass.
RX0 vga case:11 ,absolute value dc_i_tmp : 0 , value dc_q_tmp : 1 ,I:reg0x11ac=0x3133251d.   Q:reg0x11e8=0x1f1b191d.
vga case:12 pass.
RX0 vga case:12 ,absolute value dc_i_tmp : 1 , value dc_q_tmp : 1 ,I:reg0x11b0=0x3337271f.   Q:reg0x11ec=0x1b19191d.
vga case:13 pass.
RX0 vga case:13 ,absolute value dc_i_tmp : 1 , value dc_q_tmp : 1 ,I:reg0x11b4=0x3133271f.   Q:reg0x11f0=0x1d1b191d.
vga case:14 pass.
RX0 vga case:14 ,absolute value dc_i_tmp : 1 , value dc_q_tmp : 1 ,I:reg0x11b8=0x3539271f.   Q:reg0x11f4=0x1d1d1b1f.
rx1 vga calibration begin
rx1 vga case:1 pass.
RX1 vga case:1 ,absolute value dc_i_tmp : 4 , value dc_q_tmp : 0 ,I:reg0x11fc=0x1b1b231d. Q:reg0x1238=0x19131b13.
rx1 vga case:2 pass.
RX1 vga case:2 ,absolute value dc_i_tmp : 4 , value dc_q_tmp : 0 ,I:reg0x1200=0x1b1b251f. Q:reg0x123c=0x19131b13.
rx1 vga case:3 pass.
RX1 vga case:3 ,absolute value dc_i_tmp : 3 , value dc_q_tmp : 0 ,I:reg0x1204=0x1d1b251f. Q:reg0x1240=0x19131b13.
rx1 vga case:4 pass.
RX1 vga case:4 ,absolute value dc_i_tmp : 3 , value dc_q_tmp : 1 ,I:reg0x1208=0x1b1f231f. Q:reg0x1244=0x19131b13.
rx1 vga case:5 pass.
RX1 vga case:5 ,absolute value dc_i_tmp : 4 , value dc_q_tmp : 0 ,I:reg0x120c=0x1b19231d. Q:reg0x1248=0x19131b13.
rx1 vga case:6 pass.
RX1 vga case:6 ,absolute value dc_i_tmp : 4 , value dc_q_tmp : 1 ,I:reg0x1210=0x1d19251f. Q:reg0x124c=0x17111b13.
rx1 vga case:7 pass.
RX1 vga case:7 ,absolute value dc_i_tmp : 3 , value dc_q_tmp : 0 ,I:reg0x1214=0x2119251f. Q:reg0x1250=0x19131b13.
rx1 vga case:8 pass.
RX1 vga case:8 ,absolute value dc_i_tmp : 3 , value dc_q_tmp : 1 ,I:reg0x1218=0x1f1b251d. Q:reg0x1254=0x1b0f1d13.
rx1 vga case:9 pass.
RX1 vga case:9 ,absolute value dc_i_tmp : 3 , value dc_q_tmp : 0 ,I:reg0x121c=0x1921251b. Q:reg0x1258=0x19131b11.
rx1 vga case:10 pass.
RX1 vga case:10 ,absolute value dc_i_tmp : 2 , value dc_q_tmp : 0 ,I:reg0x1220=0x21172919. Q:reg0x125c=0x19111d11.
rx1 vga case:11 pass.
RX1 vga case:11 ,absolute value dc_i_tmp : 2 , value dc_q_tmp : 0 ,I:reg0x1224=0x1b1b2b17. Q:reg0x1260=0x1b111f11.
rx1 vga case:12 pass.
RX1 vga case:12 ,absolute value dc_i_tmp : 2 , value dc_q_tmp : 0 ,I:reg0x1228=0x1f192d13. Q:reg0x1264=0x1b111f0f.
rx1 vga case:13 pass.
RX1 vga case:13 ,absolute value dc_i_tmp : 2 , value dc_q_tmp : 0 ,I:reg0x122c=0x2319310f. Q:reg0x1268=0x15151f0d.
rx1 vga case:14 pass.
RX1 vga case:14 ,absolute value dc_i_tmp : 1 , value dc_q_tmp : 0 ,I:reg0x1230=0x21153907. Q:reg0x126c=0x1717230b.
reg0x1120=0x3c0100.
vga calibration end!
RX0: 0x103c : e000c000 ,0x1040 : 30001102 
RX1: 0x1054 : e000c000 ,0x1058 : 30001100 
THIS CASE J: 0 M: 3 
adc calibration begin
calibration begin
RX0 cali pre ,absolute value dc_i_tmp : 5 , value dc_q_tmp : 15 ,
reg0x1180=0x3333251d.
reg0x11bc=0x1d1b191d.
RX1 cali pre ,absolute value dc_i_tmp : 15 , value dc_q_tmp : 15 ,reg0x11f8=0x1b1d1b23.
reg0x1234=0x19111d13.
rx0 tia cali begin:
####:reg0x1270=0x3e41403d.
tia_cnt_i : 19 ,
tia_cnt_q : 62 ,
I:reg0x1150=0x3333251d.
Q:reg0x1154=0x1d1b191d.
RX0 tia case :0,absolute value dc_i : -1 , value dc_q : -16 
####:reg0x1270=0x2d7f2d50.
####:reg0x1274=0x423d423d.
tia_cnt_i : 26 ,
tia_cnt_q : 66 ,
I:reg0x1150=0x3333251d.
Q:reg0x1154=0x1d1b191d.
RX0 tia case :1,absolute value dc_i : -1 , value dc_q : -16 
####:reg0x1274=0x287f2857.
####:reg0x1278=0x423d3e41.
tia_cnt_i : 49 ,
tia_cnt_q : 66 ,
I:reg0x1150=0x3333251d.
Q:reg0x1154=0x1d1b191d.
RX0 tia case :2,absolute value dc_i : -1 , value dc_q : -16 
####:reg0x1278=0xd7f0d72.
####:reg0x127c=0x3e41443b.
tia_cnt_i : 68 ,
tia_cnt_q : 1 ,
I:reg0x1150=0x3333251d.
Q:reg0x1154=0x1d1b191d.
RX0 tia case :3,absolute value dc_i : -3 , value dc_q : -16 
####:reg0x127c=0x42007f.
####:reg0x1280=0x423d3e43.
tia_cnt_i : 60 ,
tia_cnt_q : 66 ,
I:reg0x1150=0x3333251d.
Q:reg0x1154=0x1d1b191d.
RX0 tia case :4,absolute value dc_i : -3 , value dc_q : -16 
####:reg0x1280=0x27f027f.
####:reg0x1284=0x3e433c41.
tia_cnt_i : 60 ,
tia_cnt_q : 1 ,
I:reg0x1150=0x3333251d.
Q:reg0x1154=0x1d1b191d.
RX0 tia case :5,absolute value dc_i : -4 , value dc_q : -16 
####:reg0x1284=0x44007d.
####:reg0x1288=0x3e433e43.
tia_cnt_i : 60 ,
tia_cnt_q : 60 ,
I:reg0x1150=0x3333251d.
Q:reg0x1154=0x1d1b191d.
RX0 tia case :6,absolute value dc_i : -3 , value dc_q : -16 
####:reg0x1288=0x27f027f.
####:reg0x128c=0x3e413c41.
tia_cnt_i : 60 ,
tia_cnt_q : 1 ,
I:reg0x1150=0x3333251d.
Q:reg0x1154=0x1d1b191d.
RX0 tia case :7,absolute value dc_i : -3 , value dc_q : -16 
####:reg0x128c=0x42007d.
####:reg0x1290=0x3c433a45.
tia_cnt_i : 58 ,
tia_cnt_q : 1 ,
I:reg0x1150=0x3333251d.
Q:reg0x1154=0x1d1b191d.
RX0 tia case :8,absolute value dc_i : -2 , value dc_q : -16 
####:reg0x1290=0x44007f.
####:reg0x1294=0x3c433c43.
tia_cnt_i : 60 ,
tia_cnt_q : 1 ,
I:reg0x1150=0x3333251d.
Q:reg0x1154=0x1d1b191d.
RX0 tia case :9,absolute value dc_i : -2 , value dc_q : -16 
####:reg0x1294=0x44007f.
####:reg0x1298=0x3c433c43.
tia_cnt_i : 60 ,
tia_cnt_q : 1 ,
I:reg0x1150=0x3333251d.
Q:reg0x1154=0x1d1b191d.
RX0 tia case :10,absolute value dc_i : -3 , value dc_q : -16 
####:reg0x1298=0x44007f.
####:reg0x129c=0x3e433c43.
tia_cnt_i : 60 ,
tia_cnt_q : 1 ,
I:reg0x1150=0x3333251d.
Q:reg0x1154=0x1d1b191d.
RX0 tia case :11,absolute value dc_i : -2 , value dc_q : -16 
####:reg0x129c=0x44007f.
####:reg0x12a0=0x3c433a45.
tia_cnt_i : 58 ,
tia_cnt_q : 1 ,
I:reg0x1150=0x3333251d.
Q:reg0x1154=0x1d1b191d.
RX0 tia case :12,absolute value dc_i : -3 , value dc_q : -16 
####:reg0x12a0=0x44007f.
rx1 tia cali begin:
Q:reg0x12b0=0x36493449.
 RX1 :reg0x1130=0x34493649.
tia_cnt_i : 52 ,
tia_cnt_q : 1 ,
RX1 tia case :0,absolute value dc_i : -16 , value dc_q : -15 
RX1:reg0x12b0=0x4a007d.
Q:reg0x12b4=0x36493649.
 RX1 :reg0x1130=0x36493649.
tia_cnt_i : 54 ,
tia_cnt_q : 1 ,
RX1 tia case :1,absolute value dc_i : -16 , value dc_q : -15 
RX1:reg0x12b4=0x4a007f.
Q:reg0x12b8=0x36493449.
 RX1 :reg0x1130=0x34493649.
tia_cnt_i : 52 ,
tia_cnt_q : 1 ,
RX1 tia case :2,absolute value dc_i : -16 , value dc_q : -16 
RX1:reg0x12b8=0x4a007d.
Q:reg0x12bc=0x3649364b.
 RX1 :reg0x1130=0x364b3649.
tia_cnt_i : 52 ,
tia_cnt_q : 54 ,
RX1 tia case :3,absolute value dc_i : -16 , value dc_q : -16 
RX1:reg0x12bc=0x27f027f.
Q:reg0x12c0=0x3649344b.
 RX1 :reg0x1130=0x344b3649.
tia_cnt_i : 52 ,
tia_cnt_q : 1 ,
RX1 tia case :4,absolute value dc_i : -16 , value dc_q : -16 
RX1:reg0x12c0=0x4a007f.
Q:reg0x12c4=0x3649344b.
 RX1 :reg0x1130=0x344b3649.
tia_cnt_i : 52 ,
tia_cnt_q : 1 ,
RX1 tia case :5,absolute value dc_i : -16 , value dc_q : -16 
RX1:reg0x12c4=0x4a007f.
Q:reg0x12c8=0x36493449.
 RX1 :reg0x1130=0x34493649.
tia_cnt_i : 52 ,
tia_cnt_q : 1 ,
RX1 tia case :6,absolute value dc_i : -16 , value dc_q : -16 
RX1:reg0x12c8=0x4a007d.
Q:reg0x12cc=0x36493449.
 RX1 :reg0x1130=0x34493649.
tia_cnt_i : 52 ,
tia_cnt_q : 1 ,
RX1 tia case :7,absolute value dc_i : -16 , value dc_q : -16 
RX1:reg0x12cc=0x4a007d.
Q:reg0x12d0=0x344b324d.
 RX1 :reg0x1130=0x324d344b.
tia_cnt_i : 50 ,
tia_cnt_q : 1 ,
RX1 tia case :8,absolute value dc_i : -16 , value dc_q : -16 
RX1:reg0x12d0=0x4c007f.
Q:reg0x12d4=0x3449324d.
 RX1 :reg0x1130=0x324d3449.
tia_cnt_i : 50 ,
tia_cnt_q : 1 ,
RX1 tia case :9,absolute value dc_i : -16 , value dc_q : -16 
RX1:reg0x12d4=0x4a007f.
Q:reg0x12d8=0x3649324d.
 RX1 :reg0x1130=0x324d3649.
tia_cnt_i : 50 ,
tia_cnt_q : 1 ,
RX1 tia case :10,absolute value dc_i : -16 , value dc_q : -16 
RX1:reg0x12d8=0x4a007f.
Q:reg0x12dc=0x3449324d.
 RX1 :reg0x1130=0x324d3449.
tia_cnt_i : 50 ,
tia_cnt_q : 1 ,
RX1 tia case :11,absolute value dc_i : -16 , value dc_q : -16 
RX1:reg0x12dc=0x4a007f.
Q:reg0x12e0=0x364b324d.
 RX1 :reg0x1130=0x324d364b.
tia_cnt_i : 50 ,
tia_cnt_q : 1 ,
RX1 tia case :12,absolute value dc_i : -16 , value dc_q : -16 
RX1:reg0x12e0=0x4c007f.
tia calibration end!
rx0 vga calibration begin
reg0x1120=0x3fc100.
vga case:1 pass.
RX0 vga case:1 ,absolute value dc_i_tmp : 7 , value dc_q_tmp : 15 ,I:reg0x1184=0x3133271b.   Q:reg0x11c0=0x1d1b191d.
vga case:2 pass.
RX0 vga case:2 ,absolute value dc_i_tmp : 6 , value dc_q_tmp : 15 ,I:reg0x1188=0x3133271b.   Q:reg0x11c4=0x1b1b1b21.
vga case:3 pass.
RX0 vga case:3 ,absolute value dc_i_tmp : 5 , value dc_q_tmp : 15 ,I:reg0x118c=0x3133271b.   Q:reg0x11c8=0x1d1b191d.
vga case:4 pass.
RX0 vga case:4 ,absolute value dc_i_tmp : 4 , value dc_q_tmp : 15 ,I:reg0x1190=0x3133271b.   Q:reg0x11cc=0x1b19191d.
vga case:5 pass.
RX0 vga case:5 ,absolute value dc_i_tmp : 6 , value dc_q_tmp : 15 ,I:reg0x1194=0x3135271b.   Q:reg0x11d0=0x1d19191d.
vga case:6 pass.
RX0 vga case:6 ,absolute value dc_i_tmp : 4 , value dc_q_tmp : 15 ,I:reg0x1198=0x3135271b.   Q:reg0x11d4=0x1d19191d.
vga case:7 pass.
RX0 vga case:7 ,absolute value dc_i_tmp : 5 , value dc_q_tmp : 15 ,I:reg0x119c=0x3137271b.   Q:reg0x11d8=0x1f19191d.
vga case:8 pass.
RX0 vga case:8 ,absolute value dc_i_tmp : 6 , value dc_q_tmp : 15 ,I:reg0x11a0=0x3331291b.   Q:reg0x11dc=0x1f19191d.
vga case:9 pass.
RX0 vga case:9 ,absolute value dc_i_tmp : 6 , value dc_q_tmp : 15 ,I:reg0x11a4=0x37312919.   Q:reg0x11e0=0x1d19191d.
vga case:10 pass.
RX0 vga case:10 ,absolute value dc_i_tmp : 5 , value dc_q_tmp : 15 ,I:reg0x11a8=0x37312b19.   Q:reg0x11e4=0x1d19191d.
vga case:11 pass.
RX0 vga case:11 ,absolute value dc_i_tmp : 6 , value dc_q_tmp : 15 ,I:reg0x11ac=0x33332d19.   Q:reg0x11e8=0x1f1b191d.
vga case:12 pass.
RX0 vga case:12 ,absolute value dc_i_tmp : 7 , value dc_q_tmp : 15 ,I:reg0x11b0=0x31352d17.   Q:reg0x11ec=0x1b19191d.
vga case:13 pass.
RX0 vga case:13 ,absolute value dc_i_tmp : 6 , value dc_q_tmp : 15 ,I:reg0x11b4=0x33332f15.   Q:reg0x11f0=0x1d1b191d.
vga case:14 pass.
RX0 vga case:14 ,absolute value dc_i_tmp : 5 , value dc_q_tmp : 15 ,I:reg0x11b8=0x31372f0f.   Q:reg0x11f4=0x1d1d1b1f.
rx1 vga calibration begin
rx1 vga case:1 pass.
RX1 vga case:1 ,absolute value dc_i_tmp : 15 , value dc_q_tmp : 15 ,I:reg0x11fc=0x1b1b231d. Q:reg0x1238=0x19131b13.
rx1 vga case:2 pass.
RX1 vga case:2 ,absolute value dc_i_tmp : 15 , value dc_q_tmp : 15 ,I:reg0x1200=0x1b1b251f. Q:reg0x123c=0x19131b13.
rx1 vga case:3 pass.
RX1 vga case:3 ,absolute value dc_i_tmp : 15 , value dc_q_tmp : 15 ,I:reg0x1204=0x1d1b251f. Q:reg0x1240=0x19131b13.
rx1 vga case:4 pass.
RX1 vga case:4 ,absolute value dc_i_tmp : 15 , value dc_q_tmp : 15 ,I:reg0x1208=0x1b1f231f. Q:reg0x1244=0x19131b13.
rx1 vga case:5 pass.
RX1 vga case:5 ,absolute value dc_i_tmp : 15 , value dc_q_tmp : 15 ,I:reg0x120c=0x1b19231d. Q:reg0x1248=0x19131b13.
rx1 vga case:6 pass.
RX1 vga case:6 ,absolute value dc_i_tmp : 15 , value dc_q_tmp : 15 ,I:reg0x1210=0x1d19251f. Q:reg0x124c=0x17111b13.
rx1 vga case:7 pass.
RX1 vga case:7 ,absolute value dc_i_tmp : 15 , value dc_q_tmp : 15 ,I:reg0x1214=0x2119251f. Q:reg0x1250=0x19131b13.
rx1 vga case:8 pass.
RX1 vga case:8 ,absolute value dc_i_tmp : 15 , value dc_q_tmp : 15 ,I:reg0x1218=0x1f1b251d. Q:reg0x1254=0x1b0f1d13.
rx1 vga case:9 pass.
RX1 vga case:9 ,absolute value dc_i_tmp : 15 , value dc_q_tmp : 15 ,I:reg0x121c=0x1921251b. Q:reg0x1258=0x19131b11.
rx1 vga case:10 pass.
RX1 vga case:10 ,absolute value dc_i_tmp : 15 , value dc_q_tmp : 15 ,I:reg0x1220=0x21172919. Q:reg0x125c=0x19111d11.
rx1 vga case:11 pass.
RX1 vga case:11 ,absolute value dc_i_tmp : 15 , value dc_q_tmp : 15 ,I:reg0x1224=0x1b1b2b17. Q:reg0x1260=0x1b111f11.
rx1 vga case:12 pass.
RX1 vga case:12 ,absolute value dc_i_tmp : 15 , value dc_q_tmp : 15 ,I:reg0x1228=0x1f192d13. Q:reg0x1264=0x1b111f0f.
rx1 vga case:13 pass.
RX1 vga case:13 ,absolute value dc_i_tmp : 15 , value dc_q_tmp : 15 ,I:reg0x122c=0x2319310f. Q:reg0x1268=0x15151f0d.
rx1 vga case:14 pass.
RX1 vga case:14 ,absolute value dc_i_tmp : 15 , value dc_q_tmp : 15 ,I:reg0x1230=0x21153907. Q:reg0x126c=0x1717230b.
reg0x1120=0x3c0100.
vga calibration end!
RX0: 0x103c : e0010000 ,0x1040 : 40001102 
RX1: 0x1054 : e0010000 ,0x1058 : 40001100 
THIS CASE J: 0 M: 4 
adc calibration begin
calibration begin
RX0 cali pre ,absolute value dc_i_tmp : 0 , value dc_q_tmp : 6 ,
reg0x1180=0x3333271f.
reg0x11bc=0x1b19191d.
RX1 cali pre ,absolute value dc_i_tmp : 6 , value dc_q_tmp : 5 ,reg0x11f8=0x1b1d1b23.
reg0x1234=0x19131d13.
rx0 tia cali begin:
####:reg0x1270=0x423d423d.
tia_cnt_i : 0 ,
tia_cnt_q : 66 ,
I:reg0x1150=0x3333271f.
Q:reg0x1154=0x1b19191d.
RX0 tia case :0,absolute value dc_i : -1 , value dc_q : -3 
####:reg0x1270=0x427f423d.
####:reg0x1274=0x3e41423d.
tia_cnt_i : 0 ,
tia_cnt_q : 62 ,
I:reg0x1150=0x3333271f.
Q:reg0x1154=0x1b19191d.
RX0 tia case :1,absolute value dc_i : -1 , value dc_q : -5 
####:reg0x1274=0x427f423d.
####:reg0x1278=0x423d423d.
tia_cnt_i : 0 ,
tia_cnt_q : 66 ,
I:reg0x1150=0x3333271f.
Q:reg0x1154=0x1b19191d.
RX0 tia case :2,absolute value dc_i : 0 , value dc_q : -5 
####:reg0x1278=0x427f423d.
####:reg0x127c=0x423d3e41.
tia_cnt_i : 0 ,
tia_cnt_q : 66 ,
I:reg0x1150=0x3333271f.
Q:reg0x1154=0x1b19191d.
RX0 tia case :3,absolute value dc_i : 0 , value dc_q : -5 
####:reg0x127c=0x3e7f3e41.
####:reg0x1280=0x3e413c41.
tia_cnt_i : 0 ,
tia_cnt_q : 62 ,
I:reg0x1150=0x3333271f.
Q:reg0x1154=0x1b19191d.
RX0 tia case :4,absolute value dc_i : 0 , value dc_q : -5 
####:reg0x1280=0x3c7f3c41.
####:reg0x1284=0x3e413c41.
tia_cnt_i : 0 ,
tia_cnt_q : 62 ,
I:reg0x1150=0x3333271f.
Q:reg0x1154=0x1b19191d.
RX0 tia case :5,absolute value dc_i : 0 , value dc_q : -6 
####:reg0x1284=0x3c7f3c41.
####:reg0x1288=0x3e433e43.
tia_cnt_i : 0 ,
tia_cnt_q : 60 ,
I:reg0x1150=0x3333271f.
Q:reg0x1154=0x1b19191d.
RX0 tia case :6,absolute value dc_i : 0 , value dc_q : -5 
####:reg0x1288=0x3e7f3e43.
####:reg0x128c=0x3c413e41.
tia_cnt_i : 0 ,
tia_cnt_q : 62 ,
I:reg0x1150=0x3333271f.
Q:reg0x1154=0x1b19191d.
RX0 tia case :7,absolute value dc_i : 0 , value dc_q : -5 
####:reg0x128c=0x3e7f3e41.
####:reg0x1290=0x3c433a45.
tia_cnt_i : 0 ,
tia_cnt_q : 60 ,
I:reg0x1150=0x3333271f.
Q:reg0x1154=0x1b19191d.
RX0 tia case :8,absolute value dc_i : 0 , value dc_q : -5 
####:reg0x1290=0x3a7f3a45.
####:reg0x1294=0x3e433c43.
tia_cnt_i : 0 ,
tia_cnt_q : 60 ,
I:reg0x1150=0x3333271f.
Q:reg0x1154=0x1b19191d.
RX0 tia case :9,absolute value dc_i : 0 , value dc_q : -5 
####:reg0x1294=0x3c7f3c43.
####:reg0x1298=0x3e433a45.
tia_cnt_i : 0 ,
tia_cnt_q : 60 ,
I:reg0x1150=0x3333271f.
Q:reg0x1154=0x1b19191d.
RX0 tia case :10,absolute value dc_i : 0 , value dc_q : -5 
####:reg0x1298=0x3a7f3a45.
####:reg0x129c=0x3c413e43.
tia_cnt_i : 0 ,
tia_cnt_q : 62 ,
I:reg0x1150=0x3333271f.
Q:reg0x1154=0x1b19191d.
RX0 tia case :11,absolute value dc_i : 0 , value dc_q : -5 
####:reg0x129c=0x3e7f3e43.
####:reg0x12a0=0x3c433c43.
tia_cnt_i : 0 ,
tia_cnt_q : 60 ,
I:reg0x1150=0x3333271f.
Q:reg0x1154=0x1b19191d.
RX0 tia case :12,absolute value dc_i : 0 , value dc_q : -5 
####:reg0x12a0=0x3c7f3c43.
rx1 tia cali begin:
Q:reg0x12b0=0x36493449.
 RX1 :reg0x1130=0x34493649.
tia_cnt_i : 52 ,
tia_cnt_q : 1 ,
RX1 tia case :0,absolute value dc_i : -7 , value dc_q : 0 
RX1:reg0x12b0=0x4a007d.
Q:reg0x12b4=0x3649364b.
 RX1 :reg0x1130=0x364b3649.
tia_cnt_i : 52 ,
tia_cnt_q : 45 ,
RX1 tia case :1,absolute value dc_i : -7 , value dc_q : -1 
RX1:reg0x12b4=0x276027f.
Q:reg0x12b8=0x38473449.
 RX1 :reg0x1130=0x34493847.
tia_cnt_i : 52 ,
tia_cnt_q : 1 ,
RX1 tia case :2,absolute value dc_i : -5 , value dc_q : -6 
RX1:reg0x12b8=0x48007d.
Q:reg0x12bc=0x3649364b.
 RX1 :reg0x1130=0x364b3649.
tia_cnt_i : 52 ,
tia_cnt_q : 54 ,
RX1 tia case :3,absolute value dc_i : -4 , value dc_q : -6 
RX1:reg0x12bc=0x27f027f.
Q:reg0x12c0=0x364b344b.
 RX1 :reg0x1130=0x344b364b.
tia_cnt_i : 52 ,
tia_cnt_q : 1 ,
RX1 tia case :4,absolute value dc_i : -4 , value dc_q : -7 
RX1:reg0x12c0=0x4c007f.
Q:reg0x12c4=0x34493449.
 RX1 :reg0x1130=0x34493449.
tia_cnt_i : 52 ,
tia_cnt_q : 1 ,
RX1 tia case :5,absolute value dc_i : -4 , value dc_q : -7 
RX1:reg0x12c4=0x4a007d.
Q:reg0x12c8=0x3649344b.
 RX1 :reg0x1130=0x344b3649.
tia_cnt_i : 52 ,
tia_cnt_q : 1 ,
RX1 tia case :6,absolute value dc_i : -4 , value dc_q : -7 
RX1:reg0x12c8=0x4a007f.
Q:reg0x12cc=0x36493449.
 RX1 :reg0x1130=0x34493649.
tia_cnt_i : 52 ,
tia_cnt_q : 1 ,
RX1 tia case :7,absolute value dc_i : -4 , value dc_q : -7 
RX1:reg0x12cc=0x4a007d.
Q:reg0x12d0=0x364b324d.
 RX1 :reg0x1130=0x324d364b.
tia_cnt_i : 50 ,
tia_cnt_q : 1 ,
RX1 tia case :8,absolute value dc_i : -4 , value dc_q : -7 
RX1:reg0x12d0=0x4c007f.
Q:reg0x12d4=0x3449344b.
 RX1 :reg0x1130=0x344b3449.
tia_cnt_i : 52 ,
tia_cnt_q : 1 ,
RX1 tia case :9,absolute value dc_i : -4 , value dc_q : -7 
RX1:reg0x12d4=0x4a007f.
Q:reg0x12d8=0x3449324d.
 RX1 :reg0x1130=0x324d3449.
tia_cnt_i : 50 ,
tia_cnt_q : 1 ,
RX1 tia case :10,absolute value dc_i : -4 , value dc_q : -7 
RX1:reg0x12d8=0x4a007f.
Q:reg0x12dc=0x364b344b.
 RX1 :reg0x1130=0x344b364b.
tia_cnt_i : 52 ,
tia_cnt_q : 1 ,
RX1 tia case :11,absolute value dc_i : -4 , value dc_q : -7 
RX1:reg0x12dc=0x4c007f.
Q:reg0x12e0=0x364b324d.
 RX1 :reg0x1130=0x324d364b.
tia_cnt_i : 50 ,
tia_cnt_q : 1 ,
RX1 tia case :12,absolute value dc_i : -4 , value dc_q : -7 
RX1:reg0x12e0=0x4c007f.
tia calibration end!
rx0 vga calibration begin
reg0x1120=0x3fc100.
vga case:1 pass.
RX0 vga case:1 ,absolute value dc_i_tmp : 0 , value dc_q_tmp : 6 ,I:reg0x1184=0x3533271d.   Q:reg0x11c0=0x1b1b1b19.
vga case:2 pass.
RX0 vga case:2 ,absolute value dc_i_tmp : 0 , value dc_q_tmp : 6 ,I:reg0x1188=0x3133251d.   Q:reg0x11c4=0x1b1b1b19.
vga case:3 pass.
RX0 vga case:3 ,absolute value dc_i_tmp : 0 , value dc_q_tmp : 6 ,I:reg0x118c=0x3133251d.   Q:reg0x11c8=0x1b1b1d1b.
vga case:4 pass.
RX0 vga case:4 ,absolute value dc_i_tmp : 0 , value dc_q_tmp : 7 ,I:reg0x1190=0x3531271d.   Q:reg0x11cc=0x1d1d1d1b.
vga case:5 pass.
RX0 vga case:5 ,absolute value dc_i_tmp : 0 , value dc_q_tmp : 7 ,I:reg0x1194=0x3531271d.   Q:reg0x11d0=0x1b1d1b19.
vga case:6 pass.
RX0 vga case:6 ,absolute value dc_i_tmp : 0 , value dc_q_tmp : 6 ,I:reg0x1198=0x3135251d.   Q:reg0x11d4=0x1b1d1b19.
vga case:7 pass.
RX0 vga case:7 ,absolute value dc_i_tmp : 0 , value dc_q_tmp : 6 ,I:reg0x119c=0x2f35251d.   Q:reg0x11d8=0x191d1b19.
vga case:8 pass.
RX0 vga case:8 ,absolute value dc_i_tmp : 0 , value dc_q_tmp : 6 ,I:reg0x11a0=0x372f271d.   Q:reg0x11dc=0x1b1d1d19.
vga case:9 pass.
RX0 vga case:9 ,absolute value dc_i_tmp : 0 , value dc_q_tmp : 5 ,I:reg0x11a4=0x3731271d.   Q:reg0x11e0=0x1b1f1f19.
vga case:10 pass.
RX0 vga case:10 ,absolute value dc_i_tmp : 0 , value dc_q_tmp : 6 ,I:reg0x11a8=0x3531271d.   Q:reg0x11e4=0x1d192117.
vga case:11 pass.
RX0 vga case:11 ,absolute value dc_i_tmp : 0 , value dc_q_tmp : 6 ,I:reg0x11ac=0x3333271d.   Q:reg0x11e8=0x1d1b2315.
vga case:12 pass.
RX0 vga case:12 ,absolute value dc_i_tmp : 0 , value dc_q_tmp : 5 ,I:reg0x11b0=0x3335271d.   Q:reg0x11ec=0x1b1b2513.
vga case:13 pass.
RX0 vga case:13 ,absolute value dc_i_tmp : 0 , value dc_q_tmp : 5 ,I:reg0x11b4=0x2f35271d.   Q:reg0x11f0=0x1d19270f.
vga case:14 pass.
RX0 vga case:14 ,absolute value dc_i_tmp : 0 , value dc_q_tmp : 5 ,I:reg0x11b8=0x3531291d.   Q:reg0x11f4=0x1b192d09.
rx1 vga calibration begin
rx1 vga case:1 pass.
RX1 vga case:1 ,absolute value dc_i_tmp : 7 , value dc_q_tmp : 4 ,I:reg0x11fc=0x1b1d231d. Q:reg0x1238=0x1b131f0f.
rx1 vga case:2 pass.
RX1 vga case:2 ,absolute value dc_i_tmp : 6 , value dc_q_tmp : 4 ,I:reg0x1200=0x1d1d231d. Q:reg0x123c=0x19151d0f.
rx1 vga case:3 pass.
RX1 vga case:3 ,absolute value dc_i_tmp : 6 , value dc_q_tmp : 4 ,I:reg0x1204=0x1b1b251f. Q:reg0x1240=0x19151d0f.
rx1 vga case:4 pass.
RX1 vga case:4 ,absolute value dc_i_tmp : 6 , value dc_q_tmp : 4 ,I:reg0x1208=0x1d1d231d. Q:reg0x1244=0x17131d0f.
rx1 vga case:5 pass.
RX1 vga case:5 ,absolute value dc_i_tmp : 6 , value dc_q_tmp : 4 ,I:reg0x120c=0x1b1b231d. Q:reg0x1248=0x17151d0f.
rx1 vga case:6 pass.
RX1 vga case:6 ,absolute value dc_i_tmp : 6 , value dc_q_tmp : 4 ,I:reg0x1210=0x1b1b251f. Q:reg0x124c=0x1d111f0f.
rx1 vga case:7 pass.
RX1 vga case:7 ,absolute value dc_i_tmp : 5 , value dc_q_tmp : 4 ,I:reg0x1214=0x1d1b231d. Q:reg0x1250=0x1d0f2111.
rx1 vga case:8 pass.
RX1 vga case:8 ,absolute value dc_i_tmp : 6 , value dc_q_tmp : 4 ,I:reg0x1218=0x1b1f251d. Q:reg0x1254=0x1b11210f.
rx1 vga case:9 pass.
RX1 vga case:9 ,absolute value dc_i_tmp : 5 , value dc_q_tmp : 4 ,I:reg0x121c=0x1d1d271b. Q:reg0x1258=0x1717210d.
rx1 vga case:10 pass.
RX1 vga case:10 ,absolute value dc_i_tmp : 5 , value dc_q_tmp : 4 ,I:reg0x1220=0x1b1f2919. Q:reg0x125c=0x1d11250b.
rx1 vga case:11 pass.
RX1 vga case:11 ,absolute value dc_i_tmp : 6 , value dc_q_tmp : 4 ,I:reg0x1224=0x1d1d2b15. Q:reg0x1260=0x19152507.
rx1 vga case:12 pass.
RX1 vga case:12 ,absolute value dc_i_tmp : 5 , value dc_q_tmp : 3 ,I:reg0x1228=0x1d1d2f13. Q:reg0x1264=0x1d132905.
rx1 vga case:13 pass.
RX1 vga case:13 ,absolute value dc_i_tmp : 5 , value dc_q_tmp : 2 ,I:reg0x122c=0x1d1b330f. Q:reg0x1268=0x1b112d01.
rx1 vga case:14 pass.
RX1 vga case:14 ,absolute value dc_i_tmp : 5 , value dc_q_tmp : 4 ,I:reg0x1230=0x1f193b05. Q:reg0x126c=0x17153d01.
reg0x1120=0x3c0100.
vga calibration end!
RX0: 0x103c : e0014000 ,0x1040 : 50001102 
RX1: 0x1054 : e0014000 ,0x1058 : 50001100 
THIS CASE J: 0 M: 5 
adc calibration begin
calibration begin
RX0 cali pre ,absolute value dc_i_tmp : 4 , value dc_q_tmp : 1 ,
reg0x1180=0x3333271f.
reg0x11bc=0x1b19191d.
RX1 cali pre ,absolute value dc_i_tmp : 1 , value dc_q_tmp : 2 ,reg0x11f8=0x1b1d1b23.
reg0x1234=0x17131911.
rx0 tia cali begin:
####:reg0x1270=0x423d423d.
tia_cnt_i : 31 ,
tia_cnt_q : 1 ,
I:reg0x1150=0x3333271f.
Q:reg0x1154=0x1b19191d.
RX0 tia case :0,absolute value dc_i : -1 , value dc_q : 0 
####:reg0x1270=0x233e235c.
####:reg0x1274=0x423d443b.
tia_cnt_i : 47 ,
tia_cnt_q : 1 ,
I:reg0x1150=0x3333271f.
Q:reg0x1154=0x1b19191d.
RX0 tia case :1,absolute value dc_i : -1 , value dc_q : 0 
####:reg0x1274=0x153e156a.
####:reg0x1278=0x423d423d.
tia_cnt_i : 61 ,
tia_cnt_q : 1 ,
I:reg0x1150=0x3333271f.
Q:reg0x1154=0x1b19191d.
RX0 tia case :2,absolute value dc_i : -1 , value dc_q : 0 
####:reg0x1278=0x53e057a.
####:reg0x127c=0x423d3e41.
tia_cnt_i : 62 ,
tia_cnt_q : 1 ,
I:reg0x1150=0x3333271f.
Q:reg0x1154=0x1b19191d.
RX0 tia case :3,absolute value dc_i : -3 , value dc_q : -2 
####:reg0x127c=0x3e007f.
####:reg0x1280=0x3c413c43.
tia_cnt_i : 60 ,
tia_cnt_q : 1 ,
I:reg0x1150=0x3333271f.
Q:reg0x1154=0x1b19191d.
RX0 tia case :4,absolute value dc_i : -4 , value dc_q : -2 
####:reg0x1280=0x42007f.
####:reg0x1284=0x3c413c43.
tia_cnt_i : 60 ,
tia_cnt_q : 1 ,
I:reg0x1150=0x3333271f.
Q:reg0x1154=0x1b19191d.
RX0 tia case :5,absolute value dc_i : -5 , value dc_q : -3 
####:reg0x1284=0x42007f.
####:reg0x1288=0x3c413c41.
tia_cnt_i : 60 ,
tia_cnt_q : 1 ,
I:reg0x1150=0x3333271f.
Q:reg0x1154=0x1b19191d.
RX0 tia case :6,absolute value dc_i : -4 , value dc_q : -2 
####:reg0x1288=0x42007d.
####:reg0x128c=0x443b3c41.
tia_cnt_i : 60 ,
tia_cnt_q : 1 ,
I:reg0x1150=0x3333271f.
Q:reg0x1154=0x1b19191d.
RX0 tia case :7,absolute value dc_i : -4 , value dc_q : -2 
####:reg0x128c=0x3c007d.
####:reg0x1290=0x3c433a45.
tia_cnt_i : 58 ,
tia_cnt_q : 1 ,
I:reg0x1150=0x3333271f.
Q:reg0x1154=0x1b19191d.
RX0 tia case :8,absolute value dc_i : -5 , value dc_q : -2 
####:reg0x1290=0x44007f.
####:reg0x1294=0x3e433c43.
tia_cnt_i : 60 ,
tia_cnt_q : 1 ,
I:reg0x1150=0x3333271f.
Q:reg0x1154=0x1b19191d.
RX0 tia case :9,absolute value dc_i : -5 , value dc_q : -2 
####:reg0x1294=0x44007f.
####:reg0x1298=0x3c413c43.
tia_cnt_i : 60 ,
tia_cnt_q : 1 ,
I:reg0x1150=0x3333271f.
Q:reg0x1154=0x1b19191d.
RX0 tia case :10,absolute value dc_i : -3 , value dc_q : -1 
####:reg0x1298=0x42007f.
####:reg0x129c=0x3e433a45.
tia_cnt_i : 58 ,
tia_cnt_q : 1 ,
I:reg0x1150=0x3333271f.
Q:reg0x1154=0x1b19191d.
RX0 tia case :11,absolute value dc_i : -4 , value dc_q : -2 
####:reg0x129c=0x44007f.
####:reg0x12a0=0x3e433c43.
tia_cnt_i : 60 ,
tia_cnt_q : 1 ,
I:reg0x1150=0x3333271f.
Q:reg0x1154=0x1b19191d.
RX0 tia case :12,absolute value dc_i : -5 , value dc_q : -1 
####:reg0x12a0=0x44007f.
rx1 tia cali begin:
Q:reg0x12b0=0x3449344b.
 RX1 :reg0x1130=0x344b3449.
tia_cnt_i : 52 ,
tia_cnt_q : 0 ,
RX1 tia case :0,absolute value dc_i : -3 , value dc_q : -1 
RX1:reg0x12b0=0x3449007f.
Q:reg0x12b4=0x36493649.
 RX1 :reg0x1130=0x36493649.
tia_cnt_i : 3 ,
tia_cnt_q : 23 ,
RX1 tia case :1,absolute value dc_i : -1 , value dc_q : -1 
RX1:reg0x12b4=0x3360334c.
Q:reg0x12b8=0x3649364b.
 RX1 :reg0x1130=0x364b3649.
tia_cnt_i : 0 ,
tia_cnt_q : 54 ,
RX1 tia case :2,absolute value dc_i : 0 , value dc_q : -3 
RX1:reg0x12b8=0x367f364b.
Q:reg0x12bc=0x3649364b.
 RX1 :reg0x1130=0x364b3649.
tia_cnt_i : 0 ,
tia_cnt_q : 54 ,
RX1 tia case :3,absolute value dc_i : 1 , value dc_q : -4 
RX1:reg0x12bc=0x367f364b.
Q:reg0x12c0=0x3449344b.
 RX1 :reg0x1130=0x344b3449.
tia_cnt_i : 0 ,
tia_cnt_q : 54 ,
RX1 tia case :4,absolute value dc_i : 1 , value dc_q : -4 
RX1:reg0x12c0=0x347f344b.
Q:reg0x12c4=0x36493449.
 RX1 :reg0x1130=0x34493649.
tia_cnt_i : 0 ,
tia_cnt_q : 54 ,
RX1 tia case :5,absolute value dc_i : 1 , value dc_q : -4 
RX1:reg0x12c4=0x347f3449.
Q:reg0x12c8=0x3649344b.
 RX1 :reg0x1130=0x344b3649.
tia_cnt_i : 0 ,
tia_cnt_q : 54 ,
RX1 tia case :6,absolute value dc_i : 1 , value dc_q : -4 
RX1:reg0x12c8=0x347f344b.
Q:reg0x12cc=0x36493449.
 RX1 :reg0x1130=0x34493649.
tia_cnt_i : 0 ,
tia_cnt_q : 54 ,
RX1 tia case :7,absolute value dc_i : 1 , value dc_q : -4 
RX1:reg0x12cc=0x347f3449.
Q:reg0x12d0=0x344b324d.
 RX1 :reg0x1130=0x324d344b.
tia_cnt_i : 0 ,
tia_cnt_q : 52 ,
RX1 tia case :8,absolute value dc_i : 1 , value dc_q : -4 
RX1:reg0x12d0=0x327f324d.
Q:reg0x12d4=0x364b324d.
 RX1 :reg0x1130=0x324d364b.
tia_cnt_i : 0 ,
tia_cnt_q : 52 ,
RX1 tia case :9,absolute value dc_i : 1 , value dc_q : -4 
RX1:reg0x12d4=0x327f324d.
Q:reg0x12d8=0x364b324d.
 RX1 :reg0x1130=0x324d364b.
tia_cnt_i : 0 ,
tia_cnt_q : 52 ,
RX1 tia case :10,absolute value dc_i : 1 , value dc_q : -4 
RX1:reg0x12d8=0x327f324d.
Q:reg0x12dc=0x3449324d.
 RX1 :reg0x1130=0x324d3449.
tia_cnt_i : 0 ,
tia_cnt_q : 54 ,
RX1 tia case :11,absolute value dc_i : 1 , value dc_q : -4 
RX1:reg0x12dc=0x327f324d.
Q:reg0x12e0=0x364b344b.
 RX1 :reg0x1130=0x344b364b.
tia_cnt_i : 0 ,
tia_cnt_q : 52 ,
RX1 tia case :12,absolute value dc_i : 1 , value dc_q : -4 
RX1:reg0x12e0=0x347f344b.
tia calibration end!
rx0 vga calibration begin
reg0x1120=0x3fc100.
vga case:1 pass.
RX0 vga case:1 ,absolute value dc_i_tmp : 3 , value dc_q_tmp : 1 ,I:reg0x1184=0x3333291b.   Q:reg0x11c0=0x1b1b1b1d.
vga case:2 pass.
RX0 vga case:2 ,absolute value dc_i_tmp : 4 , value dc_q_tmp : 1 ,I:reg0x1188=0x3333291b.   Q:reg0x11c4=0x1b1b1b1d.
vga case:3 pass.
RX0 vga case:3 ,absolute value dc_i_tmp : 5 , value dc_q_tmp : 1 ,I:reg0x118c=0x3133291b.   Q:reg0x11c8=0x1b1b1b1d.
vga case:4 pass.
RX0 vga case:4 ,absolute value dc_i_tmp : 5 , value dc_q_tmp : 1 ,I:reg0x1190=0x3133291b.   Q:reg0x11cc=0x1b1b1b1d.
vga case:5 pass.
RX0 vga case:5 ,absolute value dc_i_tmp : 5 , value dc_q_tmp : 1 ,I:reg0x1194=0x3133291b.   Q:reg0x11d0=0x1d1d1b1d.
vga case:6 pass.
RX0 vga case:6 ,absolute value dc_i_tmp : 5 , value dc_q_tmp : 1 ,I:reg0x1198=0x3133291b.   Q:reg0x11d4=0x1d1d1b1d.
vga case:7 pass.
RX0 vga case:7 ,absolute value dc_i_tmp : 3 , value dc_q_tmp : 2 ,I:reg0x119c=0x3133291b.   Q:reg0x11d8=0x1b1d1b1d.
vga case:8 pass.
RX0 vga case:8 ,absolute value dc_i_tmp : 5 , value dc_q_tmp : 1 ,I:reg0x11a0=0x33332919.   Q:reg0x11dc=0x1f191b1b.
vga case:9 pass.
RX0 vga case:9 ,absolute value dc_i_tmp : 4 , value dc_q_tmp : 0 ,I:reg0x11a4=0x33332b19.   Q:reg0x11e0=0x1d1d1b1b.
vga case:10 pass.
RX0 vga case:10 ,absolute value dc_i_tmp : 4 , value dc_q_tmp : 0 ,I:reg0x11a8=0x33372d19.   Q:reg0x11e4=0x1f1b1b19.
vga case:11 pass.
RX0 vga case:11 ,absolute value dc_i_tmp : 4 , value dc_q_tmp : 0 ,I:reg0x11ac=0x33332d15.   Q:reg0x11e8=0x1f171d19.
vga case:12 pass.
RX0 vga case:12 ,absolute value dc_i_tmp : 4 , value dc_q_tmp : 0 ,I:reg0x11b0=0x3b313115.   Q:reg0x11ec=0x21171f19.
vga case:13 pass.
RX0 vga case:13 ,absolute value dc_i_tmp : 3 , value dc_q_tmp : 0 ,I:reg0x11b4=0x39313111.   Q:reg0x11f0=0x211b1f17.
vga case:14 pass.
RX0 vga case:14 ,absolute value dc_i_tmp : 2 , value dc_q_tmp : 1 ,I:reg0x11b8=0x372f370d.   Q:reg0x11f4=0x21192315.
rx1 vga calibration begin
rx1 vga case:1 pass.
RX1 vga case:1 ,absolute value dc_i_tmp : 1 , value dc_q_tmp : 0 ,I:reg0x11fc=0x1b1b231d. Q:reg0x1238=0x19131b13.
rx1 vga case:2 pass.
RX1 vga case:2 ,absolute value dc_i_tmp : 1 , value dc_q_tmp : 0 ,I:reg0x1200=0x1b1b231d. Q:reg0x123c=0x19131b13.
rx1 vga case:3 pass.
RX1 vga case:3 ,absolute value dc_i_tmp : 1 , value dc_q_tmp : 0 ,I:reg0x1204=0x1b1b231d. Q:reg0x1240=0x19131b13.
rx1 vga case:4 pass.
RX1 vga case:4 ,absolute value dc_i_tmp : 1 , value dc_q_tmp : 0 ,I:reg0x1208=0x1b1b231d. Q:reg0x1244=0x19131b13.
rx1 vga case:5 pass.
RX1 vga case:5 ,absolute value dc_i_tmp : 0 , value dc_q_tmp : 0 ,I:reg0x120c=0x1d1b231d. Q:reg0x1248=0x19131b13.
rx1 vga case:6 pass.
RX1 vga case:6 ,absolute value dc_i_tmp : 1 , value dc_q_tmp : 1 ,I:reg0x1210=0x1d1b231d. Q:reg0x124c=0x19131b13.
rx1 vga case:7 pass.
RX1 vga case:7 ,absolute value dc_i_tmp : 1 , value dc_q_tmp : 1 ,I:reg0x1214=0x1d19231d. Q:reg0x1250=0x17131b13.
rx1 vga case:8 pass.
RX1 vga case:8 ,absolute value dc_i_tmp : 1 , value dc_q_tmp : 1 ,I:reg0x1218=0x1d1b251d. Q:reg0x1254=0x1b0f1d13.
rx1 vga case:9 pass.
RX1 vga case:9 ,absolute value dc_i_tmp : 0 , value dc_q_tmp : 1 ,I:reg0x121c=0x1d19271b. Q:reg0x1258=0x17131b11.
rx1 vga case:10 pass.
RX1 vga case:10 ,absolute value dc_i_tmp : 1 , value dc_q_tmp : 0 ,I:reg0x1220=0x1d1b2919. Q:reg0x125c=0x19111d11.
rx1 vga case:11 pass.
RX1 vga case:11 ,absolute value dc_i_tmp : 0 , value dc_q_tmp : 0 ,I:reg0x1224=0x191f2915. Q:reg0x1260=0x1b131d0f.
rx1 vga case:12 pass.
RX1 vga case:12 ,absolute value dc_i_tmp : 0 , value dc_q_tmp : 1 ,I:reg0x1228=0x1b1f2d13. Q:reg0x1264=0x19111f0f.
rx1 vga case:13 pass.
RX1 vga case:13 ,absolute value dc_i_tmp : 1 , value dc_q_tmp : 1 ,I:reg0x122c=0x1b1b310f. Q:reg0x1268=0x17151f0d.
rx1 vga case:14 pass.
RX1 vga case:14 ,absolute value dc_i_tmp : 1 , value dc_q_tmp : 0 ,I:reg0x1230=0x1b213907. Q:reg0x126c=0x1917230b.
reg0x1120=0x3c0100.
vga calibration end!
RX0: 0x103c : e0018000 ,0x1040 : 60001102 
RX1: 0x1054 : e0018000 ,0x1058 : 60001100 
THIS CASE J: 0 M: 6 
adc calibration begin
calibration begin
RX0 cali pre ,absolute value dc_i_tmp : 3 , value dc_q_tmp : 0 ,
reg0x1180=0x3333271f.
reg0x11bc=0x1d1b191d.
RX1 cali pre ,absolute value dc_i_tmp : 1 , value dc_q_tmp : 2 ,reg0x11f8=0x1b1d1b23.
reg0x1234=0x19151b13.
rx0 tia cali begin:
####:reg0x1270=0x423d423d.
tia_cnt_i : 25 ,
tia_cnt_q : 0 ,
I:reg0x1150=0x3333271f.
Q:reg0x1154=0x1d1b191d.
RX0 tia case :0,absolute value dc_i : -1 , value dc_q : -1 
####:reg0x1270=0x423d2956.
####:reg0x1274=0x443b443b.
tia_cnt_i : 40 ,
tia_cnt_q : 1 ,
I:reg0x1150=0x3333271f.
Q:reg0x1154=0x1d1b191d.
RX0 tia case :1,absolute value dc_i : 0 , value dc_q : -1 
####:reg0x1274=0x1c3c1c63.
####:reg0x1278=0x443b443b.
tia_cnt_i : 65 ,
tia_cnt_q : 1 ,
I:reg0x1150=0x3333271f.
Q:reg0x1154=0x1d1b191d.
RX0 tia case :2,absolute value dc_i : -1 , value dc_q : 1 
####:reg0x1278=0x33c037c.
####:reg0x127c=0x3e413e41.
tia_cnt_i : 62 ,
tia_cnt_q : 1 ,
I:reg0x1150=0x3333271f.
Q:reg0x1154=0x1d1b191d.
RX0 tia case :3,absolute value dc_i : -4 , value dc_q : -2 
####:reg0x127c=0x42007f.
####:reg0x1280=0x3c413e43.
tia_cnt_i : 60 ,
tia_cnt_q : 1 ,
I:reg0x1150=0x3333271f.
Q:reg0x1154=0x1d1b191d.
RX0 tia case :4,absolute value dc_i : -3 , value dc_q : 0 
####:reg0x1280=0x242027f.
####:reg0x1284=0x3c413c41.
tia_cnt_i : 60 ,
tia_cnt_q : 1 ,
I:reg0x1150=0x3333271f.
Q:reg0x1154=0x1d1b191d.
RX0 tia case :5,absolute value dc_i : -3 , value dc_q : 0 
####:reg0x1284=0x42007d.
####:reg0x1288=0x3e433c41.
tia_cnt_i : 60 ,
tia_cnt_q : 1 ,
I:reg0x1150=0x3333271f.
Q:reg0x1154=0x1d1b191d.
RX0 tia case :6,absolute value dc_i : -3 , value dc_q : 0 
####:reg0x1288=0x44007d.
####:reg0x128c=0x3e413e43.
tia_cnt_i : 60 ,
tia_cnt_q : 1 ,
I:reg0x1150=0x3333271f.
Q:reg0x1154=0x1d1b191d.
RX0 tia case :7,absolute value dc_i : -3 , value dc_q : -1 
####:reg0x128c=0x242027f.
####:reg0x1290=0x3a453a45.
tia_cnt_i : 58 ,
tia_cnt_q : 0 ,
I:reg0x1150=0x3333271f.
Q:reg0x1154=0x1d1b191d.
RX0 tia case :8,absolute value dc_i : -3 , value dc_q : -1 
####:reg0x1290=0x3a45007f.
####:reg0x1294=0x3e433a45.
tia_cnt_i : 58 ,
tia_cnt_q : 1 ,
I:reg0x1150=0x3333271f.
Q:reg0x1154=0x1d1b191d.
RX0 tia case :9,absolute value dc_i : -4 , value dc_q : -2 
####:reg0x1294=0x44007f.
####:reg0x1298=0x3c433c43.
tia_cnt_i : 60 ,
tia_cnt_q : 1 ,
I:reg0x1150=0x3333271f.
Q:reg0x1154=0x1d1b191d.
RX0 tia case :10,absolute value dc_i : -4 , value dc_q : -1 
####:reg0x1298=0x44007f.
####:reg0x129c=0x3c433c43.
tia_cnt_i : 60 ,
tia_cnt_q : 1 ,
I:reg0x1150=0x3333271f.
Q:reg0x1154=0x1d1b191d.
RX0 tia case :11,absolute value dc_i : -4 , value dc_q : -1 
####:reg0x129c=0x44007f.
####:reg0x12a0=0x3c433c43.
tia_cnt_i : 60 ,
tia_cnt_q : 0 ,
I:reg0x1150=0x3333271f.
Q:reg0x1154=0x1d1b191d.
RX0 tia case :12,absolute value dc_i : -3 , value dc_q : -1 
####:reg0x12a0=0x3c43007f.
rx1 tia cali begin:
Q:reg0x12b0=0x3847364b.
 RX1 :reg0x1130=0x364b3847.
tia_cnt_i : 52 ,
tia_cnt_q : 11 ,
RX1 tia case :0,absolute value dc_i : -3 , value dc_q : 0 
RX1:reg0x12b0=0x23e027f.
Q:reg0x12b4=0x38473649.
 RX1 :reg0x1130=0x36493847.
tia_cnt_i : 22 ,
tia_cnt_q : 5 ,
RX1 tia case :1,absolute value dc_i : -1 , value dc_q : -1 
RX1:reg0x12b4=0x204c205f.
Q:reg0x12b8=0x3649364b.
 RX1 :reg0x1130=0x364b3649.
tia_cnt_i : 0 ,
tia_cnt_q : 54 ,
RX1 tia case :2,absolute value dc_i : 1 , value dc_q : -3 
RX1:reg0x12b8=0x367f364b.
Q:reg0x12bc=0x3649364b.
 RX1 :reg0x1130=0x364b3649.
tia_cnt_i : 0 ,
tia_cnt_q : 54 ,
RX1 tia case :3,absolute value dc_i : 1 , value dc_q : -5 
RX1:reg0x12bc=0x367f364b.
Q:reg0x12c0=0x364b3649.
 RX1 :reg0x1130=0x3649364b.
tia_cnt_i : 0 ,
tia_cnt_q : 52 ,
RX1 tia case :4,absolute value dc_i : 1 , value dc_q : -4 
RX1:reg0x12c0=0x367f3649.
Q:reg0x12c4=0x3649364b.
 RX1 :reg0x1130=0x364b3649.
tia_cnt_i : 0 ,
tia_cnt_q : 54 ,
RX1 tia case :5,absolute value dc_i : 1 , value dc_q : -4 
RX1:reg0x12c4=0x367f364b.
Q:reg0x12c8=0x3649344b.
 RX1 :reg0x1130=0x344b3649.
tia_cnt_i : 0 ,
tia_cnt_q : 54 ,
RX1 tia case :6,absolute value dc_i : 1 , value dc_q : -4 
RX1:reg0x12c8=0x347f344b.
Q:reg0x12cc=0x3649364b.
 RX1 :reg0x1130=0x364b3649.
tia_cnt_i : 0 ,
tia_cnt_q : 54 ,
RX1 tia case :7,absolute value dc_i : 1 , value dc_q : -4 
RX1:reg0x12cc=0x367f364b.
Q:reg0x12d0=0x364b324f.
 RX1 :reg0x1130=0x324f364b.
tia_cnt_i : 0 ,
tia_cnt_q : 52 ,
RX1 tia case :8,absolute value dc_i : 1 , value dc_q : -4 
RX1:reg0x12d0=0x327f324f.
Q:reg0x12d4=0x3449324d.
 RX1 :reg0x1130=0x324d3449.
tia_cnt_i : 0 ,
tia_cnt_q : 54 ,
RX1 tia case :9,absolute value dc_i : 1 , value dc_q : -4 
RX1:reg0x12d4=0x327f324d.
Q:reg0x12d8=0x3649324d.
 RX1 :reg0x1130=0x324d3649.
tia_cnt_i : 0 ,
tia_cnt_q : 54 ,
RX1 tia case :10,absolute value dc_i : 1 , value dc_q : -4 
RX1:reg0x12d8=0x327f324d.
Q:reg0x12dc=0x3449344b.
 RX1 :reg0x1130=0x344b3449.
tia_cnt_i : 0 ,
tia_cnt_q : 54 ,
RX1 tia case :11,absolute value dc_i : 1 , value dc_q : -4 
RX1:reg0x12dc=0x347f344b.
Q:reg0x12e0=0x3449324d.
 RX1 :reg0x1130=0x324d3449.
tia_cnt_i : 0 ,
tia_cnt_q : 54 ,
RX1 tia case :12,absolute value dc_i : 1 , value dc_q : -4 
RX1:reg0x12e0=0x327f324d.
tia calibration end!
rx0 vga calibration begin
reg0x1120=0x3fc100.
vga case:1 pass.
RX0 vga case:1 ,absolute value dc_i_tmp : 4 , value dc_q_tmp : 0 ,I:reg0x1184=0x3133271b.   Q:reg0x11c0=0x1d1b1b21.
vga case:2 pass.
RX0 vga case:2 ,absolute value dc_i_tmp : 4 , value dc_q_tmp : 0 ,I:reg0x1188=0x3133271b.   Q:reg0x11c4=0x1d1b1b21.
vga case:3 pass.
RX0 vga case:3 ,absolute value dc_i_tmp : 4 , value dc_q_tmp : 0 ,I:reg0x118c=0x3133271b.   Q:reg0x11c8=0x1d1b1b21.
vga case:4 pass.
RX0 vga case:4 ,absolute value dc_i_tmp : 4 , value dc_q_tmp : 0 ,I:reg0x1190=0x3133271b.   Q:reg0x11cc=0x1d1b1b21.
vga case:5 pass.
RX0 vga case:5 ,absolute value dc_i_tmp : 4 , value dc_q_tmp : 0 ,I:reg0x1194=0x3133291d.   Q:reg0x11d0=0x1f19191d.
vga case:6 pass.
RX0 vga case:6 ,absolute value dc_i_tmp : 4 , value dc_q_tmp : 0 ,I:reg0x1198=0x3135271b.   Q:reg0x11d4=0x1d1b1b21.
vga case:7 pass.
RX0 vga case:7 ,absolute value dc_i_tmp : 3 , value dc_q_tmp : 0 ,I:reg0x119c=0x3135271b.   Q:reg0x11d8=0x1d1b1b21.
vga case:8 pass.
RX0 vga case:8 ,absolute value dc_i_tmp : 4 , value dc_q_tmp : 1 ,I:reg0x11a0=0x3331291b.   Q:reg0x11dc=0x1d1b1b21.
vga case:9 pass.
RX0 vga case:9 ,absolute value dc_i_tmp : 3 , value dc_q_tmp : 0 ,I:reg0x11a4=0x39312919.   Q:reg0x11e0=0x1f1b1b21.
vga case:10 pass.
RX0 vga case:10 ,absolute value dc_i_tmp : 3 , value dc_q_tmp : 0 ,I:reg0x11a8=0x39312b19.   Q:reg0x11e4=0x1d191b21.
vga case:11 pass.
RX0 vga case:11 ,absolute value dc_i_tmp : 3 , value dc_q_tmp : 0 ,I:reg0x11ac=0x35312d19.   Q:reg0x11e8=0x1f191b21.
vga case:12 pass.
RX0 vga case:12 ,absolute value dc_i_tmp : 3 , value dc_q_tmp : 0 ,I:reg0x11b0=0x33332d17.   Q:reg0x11ec=0x1f191b21.
vga case:13 pass.
RX0 vga case:13 ,absolute value dc_i_tmp : 3 , value dc_q_tmp : 1 ,I:reg0x11b4=0x2f392d15.   Q:reg0x11f0=0x1d171b21.
vga case:14 pass.
RX0 vga case:14 ,absolute value dc_i_tmp : 3 , value dc_q_tmp : 0 ,I:reg0x11b8=0x33333111.   Q:reg0x11f4=0x1f1f1921.
rx1 vga calibration begin
rx1 vga case:1 pass.
RX1 vga case:1 ,absolute value dc_i_tmp : 1 , value dc_q_tmp : 0 ,I:reg0x11fc=0x1d1d231d. Q:reg0x1238=0x1b131d0f.
rx1 vga case:2 pass.
RX1 vga case:2 ,absolute value dc_i_tmp : 1 , value dc_q_tmp : 1 ,I:reg0x1200=0x1b1b231d. Q:reg0x123c=0x19111d0f.
rx1 vga case:3 pass.
RX1 vga case:3 ,absolute value dc_i_tmp : 1 , value dc_q_tmp : 1 ,I:reg0x1204=0x1d1d231d. Q:reg0x1240=0x19111f11.
rx1 vga case:4 pass.
RX1 vga case:4 ,absolute value dc_i_tmp : 1 , value dc_q_tmp : 1 ,I:reg0x1208=0x1b1b231d. Q:reg0x1244=0x19111f11.
rx1 vga case:5 pass.
RX1 vga case:5 ,absolute value dc_i_tmp : 1 , value dc_q_tmp : 1 ,I:reg0x120c=0x1b1b231d. Q:reg0x1248=0x19111f11.
rx1 vga case:6 pass.
RX1 vga case:6 ,absolute value dc_i_tmp : 1 , value dc_q_tmp : 1 ,I:reg0x1210=0x1b1b231d. Q:reg0x124c=0x1b111f11.
rx1 vga case:7 pass.
RX1 vga case:7 ,absolute value dc_i_tmp : 1 , value dc_q_tmp : 1 ,I:reg0x1214=0x1d1b231d. Q:reg0x1250=0x15171d11.
rx1 vga case:8 pass.
RX1 vga case:8 ,absolute value dc_i_tmp : 1 , value dc_q_tmp : 1 ,I:reg0x1218=0x1b1d251d. Q:reg0x1254=0x1d111f0f.
rx1 vga case:9 pass.
RX1 vga case:9 ,absolute value dc_i_tmp : 0 , value dc_q_tmp : 1 ,I:reg0x121c=0x1d1b271b. Q:reg0x1258=0x19131f0d.
rx1 vga case:10 pass.
RX1 vga case:10 ,absolute value dc_i_tmp : 1 , value dc_q_tmp : 1 ,I:reg0x1220=0x191b2919. Q:reg0x125c=0x1911230d.
rx1 vga case:11 pass.
RX1 vga case:11 ,absolute value dc_i_tmp : 1 , value dc_q_tmp : 1 ,I:reg0x1224=0x1d192b15. Q:reg0x1260=0x17132309.
rx1 vga case:12 pass.
RX1 vga case:12 ,absolute value dc_i_tmp : 0 , value dc_q_tmp : 0 ,I:reg0x1228=0x1f192f13. Q:reg0x1264=0x17172507.
rx1 vga case:13 pass.
RX1 vga case:13 ,absolute value dc_i_tmp : 1 , value dc_q_tmp : 1 ,I:reg0x122c=0x2119330f. Q:reg0x1268=0x1d112903.
rx1 vga case:14 pass.
RX1 vga case:14 ,absolute value dc_i_tmp : 0 , value dc_q_tmp : 0 ,I:reg0x1230=0x1d1f3b07. Q:reg0x126c=0x1b0f3501.
reg0x1120=0x3c0100.
vga calibration end!
RX0: 0x103c : e001c000 ,0x1040 : 70001102 
RX1: 0x1054 : e001c000 ,0x1058 : 70001100 
THIS CASE J: 0 M: 7 
adc calibration begin
calibration begin
RX0 cali pre ,absolute value dc_i_tmp : 1 , value dc_q_tmp : 0 ,
reg0x1180=0x31332721.
reg0x11bc=0x1d1b191d.
RX1 cali pre ,absolute value dc_i_tmp : 4 , value dc_q_tmp : 0 ,reg0x11f8=0x1b1d1b23.
reg0x1234=0x19111d13.
rx0 tia cali begin:
####:reg0x1270=0x443b423d.
tia_cnt_i : 1 ,
tia_cnt_q : 0 ,
I:reg0x1150=0x31332721.
Q:reg0x1154=0x1d1b191d.
RX0 tia case :0,absolute value dc_i : -1 , value dc_q : -1 
####:reg0x1270=0x443b413e.
####:reg0x1274=0x423d423d.
tia_cnt_i : 0 ,
tia_cnt_q : 0 ,
I:reg0x1150=0x31332721.
Q:reg0x1154=0x1d1b191d.
RX0 tia case :1,absolute value dc_i : -1 , value dc_q : -1 
####:reg0x1274=0x423d423d.
####:reg0x1278=0x443b423d.
tia_cnt_i : 0 ,
tia_cnt_q : 0 ,
I:reg0x1150=0x31332721.
Q:reg0x1154=0x1d1b191d.
RX0 tia case :2,absolute value dc_i : -1 , value dc_q : -1 
####:reg0x1278=0x443b423d.
####:reg0x127c=0x3e41443b.
tia_cnt_i : 0 ,
tia_cnt_q : 0 ,
I:reg0x1150=0x31332721.
Q:reg0x1154=0x1d1b191d.
RX0 tia case :3,absolute value dc_i : -1 , value dc_q : 0 
####:reg0x127c=0x3e41443b.
####:reg0x1280=0x3e433e43.
tia_cnt_i : 0 ,
tia_cnt_q : 0 ,
I:reg0x1150=0x31332721.
Q:reg0x1154=0x1d1b191d.
RX0 tia case :4,absolute value dc_i : -1 , value dc_q : -1 
####:reg0x1280=0x3e433e43.
####:reg0x1284=0x3e413c41.
tia_cnt_i : 0 ,
tia_cnt_q : 0 ,
I:reg0x1150=0x31332721.
Q:reg0x1154=0x1d1b191d.
RX0 tia case :5,absolute value dc_i : -1 , value dc_q : -1 
####:reg0x1284=0x3e413c41.
####:reg0x1288=0x3e413c41.
tia_cnt_i : 0 ,
tia_cnt_q : 0 ,
I:reg0x1150=0x31332721.
Q:reg0x1154=0x1d1b191d.
RX0 tia case :6,absolute value dc_i : -1 , value dc_q : -1 
####:reg0x1288=0x3e413c41.
####:reg0x128c=0x3e413e43.
tia_cnt_i : 0 ,
tia_cnt_q : 0 ,
I:reg0x1150=0x31332721.
Q:reg0x1154=0x1d1b191d.
RX0 tia case :7,absolute value dc_i : -1 , value dc_q : -1 
####:reg0x128c=0x3e413e43.
####:reg0x1290=0x3c433a45.
tia_cnt_i : 0 ,
tia_cnt_q : 0 ,
I:reg0x1150=0x31332721.
Q:reg0x1154=0x1d1b191d.
RX0 tia case :8,absolute value dc_i : 0 , value dc_q : -1 
####:reg0x1290=0x3c433a45.
####:reg0x1294=0x3e433c43.
tia_cnt_i : 0 ,
tia_cnt_q : 0 ,
I:reg0x1150=0x31332721.
Q:reg0x1154=0x1d1b191d.
RX0 tia case :9,absolute value dc_i : 0 , value dc_q : -1 
####:reg0x1294=0x3e433c43.
####:reg0x1298=0x3c433a45.
tia_cnt_i : 0 ,
tia_cnt_q : 0 ,
I:reg0x1150=0x31332721.
Q:reg0x1154=0x1d1b191d.
RX0 tia case :10,absolute value dc_i : -1 , value dc_q : -1 
####:reg0x1298=0x3c433a45.
####:reg0x129c=0x3c433a45.
tia_cnt_i : 0 ,
tia_cnt_q : 0 ,
I:reg0x1150=0x31332721.
Q:reg0x1154=0x1d1b191d.
RX0 tia case :11,absolute value dc_i : 0 , value dc_q : -1 
####:reg0x129c=0x3c433a45.
####:reg0x12a0=0x3c413c43.
tia_cnt_i : 0 ,
tia_cnt_q : 0 ,
I:reg0x1150=0x31332721.
Q:reg0x1154=0x1d1b191d.
RX0 tia case :12,absolute value dc_i : 0 , value dc_q : -1 
####:reg0x12a0=0x3c413c43.
rx1 tia cali begin:
Q:reg0x12b0=0x3449364b.
 RX1 :reg0x1130=0x364b3449.
tia_cnt_i : 52 ,
tia_cnt_q : 0 ,
RX1 tia case :0,absolute value dc_i : -5 , value dc_q : 0 
RX1:reg0x12b0=0x3449027f.
Q:reg0x12b4=0x38473649.
 RX1 :reg0x1130=0x36493847.
tia_cnt_i : 54 ,
tia_cnt_q : 1 ,
RX1 tia case :1,absolute value dc_i : -4 , value dc_q : 1 
RX1:reg0x12b4=0x48007f.
Q:reg0x12b8=0x3649364b.
 RX1 :reg0x1130=0x364b3649.
tia_cnt_i : 10 ,
tia_cnt_q : 46 ,
RX1 tia case :2,absolute value dc_i : -1 , value dc_q : -1 
RX1:reg0x12b8=0x2c772c55.
Q:reg0x12bc=0x3449364b.
 RX1 :reg0x1130=0x364b3449.
tia_cnt_i : 0 ,
tia_cnt_q : 54 ,
RX1 tia case :3,absolute value dc_i : -1 , value dc_q : -3 
RX1:reg0x12bc=0x367f364b.
Q:reg0x12c0=0x364b3449.
 RX1 :reg0x1130=0x3449364b.
tia_cnt_i : 0 ,
tia_cnt_q : 52 ,
RX1 tia case :4,absolute value dc_i : -1 , value dc_q : -4 
RX1:reg0x12c0=0x347f3449.
Q:reg0x12c4=0x3649344b.
 RX1 :reg0x1130=0x344b3649.
tia_cnt_i : 0 ,
tia_cnt_q : 54 ,
RX1 tia case :5,absolute value dc_i : -1 , value dc_q : -4 
RX1:reg0x12c4=0x347f344b.
Q:reg0x12c8=0x3649344b.
 RX1 :reg0x1130=0x344b3649.
tia_cnt_i : 0 ,
tia_cnt_q : 54 ,
RX1 tia case :6,absolute value dc_i : -1 , value dc_q : -4 
RX1:reg0x12c8=0x347f344b.
Q:reg0x12cc=0x3649344b.
 RX1 :reg0x1130=0x344b3649.
tia_cnt_i : 0 ,
tia_cnt_q : 54 ,
RX1 tia case :7,absolute value dc_i : -1 , value dc_q : -4 
RX1:reg0x12cc=0x347f344b.
Q:reg0x12d0=0x344b344b.
 RX1 :reg0x1130=0x344b344b.
tia_cnt_i : 0 ,
tia_cnt_q : 52 ,
RX1 tia case :8,absolute value dc_i : -1 , value dc_q : -4 
RX1:reg0x12d0=0x347f344b.
Q:reg0x12d4=0x3449344b.
 RX1 :reg0x1130=0x344b3449.
tia_cnt_i : 0 ,
tia_cnt_q : 54 ,
RX1 tia case :9,absolute value dc_i : -1 , value dc_q : -4 
RX1:reg0x12d4=0x347f344b.
Q:reg0x12d8=0x364b324d.
 RX1 :reg0x1130=0x324d364b.
tia_cnt_i : 0 ,
tia_cnt_q : 52 ,
RX1 tia case :10,absolute value dc_i : -1 , value dc_q : -4 
RX1:reg0x12d8=0x327f324d.
Q:reg0x12dc=0x3649344b.
 RX1 :reg0x1130=0x344b3649.
tia_cnt_i : 0 ,
tia_cnt_q : 54 ,
RX1 tia case :11,absolute value dc_i : -1 , value dc_q : -4 
RX1:reg0x12dc=0x347f344b.
Q:reg0x12e0=0x364b324d.
 RX1 :reg0x1130=0x324d364b.
tia_cnt_i : 0 ,
tia_cnt_q : 52 ,
RX1 tia case :12,absolute value dc_i : -1 , value dc_q : -4 
RX1:reg0x12e0=0x327f324d.
tia calibration end!
rx0 vga calibration begin
reg0x1120=0x3fc100.
vga case:1 pass.
RX0 vga case:1 ,absolute value dc_i_tmp : 1 , value dc_q_tmp : 0 ,I:reg0x1184=0x33352721.   Q:reg0x11c0=0x1d1b1b21.
vga case:2 pass.
RX0 vga case:2 ,absolute value dc_i_tmp : 0 , value dc_q_tmp : 0 ,I:reg0x1188=0x31332721.   Q:reg0x11c4=0x1d1b1b21.
vga case:3 pass.
RX0 vga case:3 ,absolute value dc_i_tmp : 1 , value dc_q_tmp : 0 ,I:reg0x118c=0x3333271f.   Q:reg0x11c8=0x1b191b21.
vga case:4 pass.
RX0 vga case:4 ,absolute value dc_i_tmp : 1 , value dc_q_tmp : 1 ,I:reg0x1190=0x3333271f.   Q:reg0x11cc=0x1d1b1b21.
vga case:5 pass.
RX0 vga case:5 ,absolute value dc_i_tmp : 1 , value dc_q_tmp : 1 ,I:reg0x1194=0x3333271f.   Q:reg0x11d0=0x1b191b21.
vga case:6 pass.
RX0 vga case:6 ,absolute value dc_i_tmp : 1 , value dc_q_tmp : 1 ,I:reg0x1198=0x31372721.   Q:reg0x11d4=0x1d1b1b21.
vga case:7 pass.
RX0 vga case:7 ,absolute value dc_i_tmp : 1 , value dc_q_tmp : 0 ,I:reg0x119c=0x3333271f.   Q:reg0x11d8=0x1f1b1b21.
vga case:8 pass.
RX0 vga case:8 ,absolute value dc_i_tmp : 1 , value dc_q_tmp : 0 ,I:reg0x11a0=0x3333251d.   Q:reg0x11dc=0x1d191b21.
vga case:9 pass.
RX0 vga case:9 ,absolute value dc_i_tmp : 0 , value dc_q_tmp : 1 ,I:reg0x11a4=0x33392721.   Q:reg0x11e0=0x1b1d171d.
vga case:10 pass.
RX0 vga case:10 ,absolute value dc_i_tmp : 1 , value dc_q_tmp : 1 ,I:reg0x11a8=0x3331271f.   Q:reg0x11e4=0x1b1b191f.
vga case:11 pass.
RX0 vga case:11 ,absolute value dc_i_tmp : 1 , value dc_q_tmp : 1 ,I:reg0x11ac=0x3531271f.   Q:reg0x11e8=0x191f1921.
vga case:12 pass.
RX0 vga case:12 ,absolute value dc_i_tmp : 0 , value dc_q_tmp : 1 ,I:reg0x11b0=0x31352721.   Q:reg0x11ec=0x1d1d1921.
vga case:13 pass.
RX0 vga case:13 ,absolute value dc_i_tmp : 0 , value dc_q_tmp : 0 ,I:reg0x11b4=0x3139251f.   Q:reg0x11f0=0x1b1b1921.
vga case:14 pass.
RX0 vga case:14 ,absolute value dc_i_tmp : 1 , value dc_q_tmp : 0 ,I:reg0x11b8=0x37352721.   Q:reg0x11f4=0x1f191921.
rx1 vga calibration begin
rx1 vga case:1 pass.
RX1 vga case:1 ,absolute value dc_i_tmp : 5 , value dc_q_tmp : 2 ,I:reg0x11fc=0x1b1b231d. Q:reg0x1238=0x19151b13.
rx1 vga case:2 pass.
RX1 vga case:2 ,absolute value dc_i_tmp : 5 , value dc_q_tmp : 2 ,I:reg0x1200=0x1b1b231d. Q:reg0x123c=0x17131b13.
rx1 vga case:3 pass.
RX1 vga case:3 ,absolute value dc_i_tmp : 4 , value dc_q_tmp : 2 ,I:reg0x1204=0x1d1b231d. Q:reg0x1240=0x17131b13.
rx1 vga case:4 pass.
RX1 vga case:4 ,absolute value dc_i_tmp : 4 , value dc_q_tmp : 1 ,I:reg0x1208=0x1d1b231d. Q:reg0x1244=0x17131b13.
rx1 vga case:5 pass.
RX1 vga case:5 ,absolute value dc_i_tmp : 5 , value dc_q_tmp : 1 ,I:reg0x120c=0x1d1b231d. Q:reg0x1248=0x17131b13.
rx1 vga case:6 pass.
RX1 vga case:6 ,absolute value dc_i_tmp : 4 , value dc_q_tmp : 1 ,I:reg0x1210=0x1f1b231d. Q:reg0x124c=0x17131b13.
rx1 vga case:7 pass.
RX1 vga case:7 ,absolute value dc_i_tmp : 4 , value dc_q_tmp : 0 ,I:reg0x1214=0x1d17231d. Q:reg0x1250=0x17131b13.
rx1 vga case:8 pass.
RX1 vga case:8 ,absolute value dc_i_tmp : 4 , value dc_q_tmp : 0 ,I:reg0x1218=0x1d19251d. Q:reg0x1254=0x1d111b11.
rx1 vga case:9 pass.
RX1 vga case:9 ,absolute value dc_i_tmp : 4 , value dc_q_tmp : 0 ,I:reg0x121c=0x2117271b. Q:reg0x1258=0x17151b11.
rx1 vga case:10 pass.
RX1 vga case:10 ,absolute value dc_i_tmp : 4 , value dc_q_tmp : 0 ,I:reg0x1220=0x1f192919. Q:reg0x125c=0x19131d11.
rx1 vga case:11 pass.
RX1 vga case:11 ,absolute value dc_i_tmp : 4 , value dc_q_tmp : 0 ,I:reg0x1224=0x1d1d2b17. Q:reg0x1260=0x17131d0f.
rx1 vga case:12 pass.
RX1 vga case:12 ,absolute value dc_i_tmp : 3 , value dc_q_tmp : 0 ,I:reg0x1228=0x1f1d2d13. Q:reg0x1264=0x17151f0f.
rx1 vga case:13 pass.
RX1 vga case:13 ,absolute value dc_i_tmp : 3 , value dc_q_tmp : 0 ,I:reg0x122c=0x191f2f0f. Q:reg0x1268=0x1d13210d.
rx1 vga case:14 pass.
RX1 vga case:14 ,absolute value dc_i_tmp : 1 , value dc_q_tmp : 0 ,I:reg0x1230=0x1f153907. Q:reg0x126c=0x19152309.
reg0x1120=0x3c0100.
vga calibration end!
RX0: 0x103c : e0020000 ,0x1040 : 80001102 
RX1: 0x1054 : e0020000 ,0x1058 : 80001100 
THIS CASE J: 0 M: 8 
adc calibration begin
calibration begin
RX0 cali pre ,absolute value dc_i_tmp : 1 , value dc_q_tmp : 6 ,
reg0x1180=0x31332721.
reg0x11bc=0x1d1b1b21.
RX1 cali pre ,absolute value dc_i_tmp : 6 , value dc_q_tmp : 4 ,reg0x11f8=0x1b1d1d25.
reg0x1234=0x1b131d13.
rx0 tia cali begin:
####:reg0x1270=0x423d443b.
tia_cnt_i : 2 ,
tia_cnt_q : 66 ,
I:reg0x1150=0x31332721.
Q:reg0x1154=0x1d1b1b21.
RX0 tia case :0,absolute value dc_i : -1 , value dc_q : -2 
####:reg0x1270=0x427f423d.
####:reg0x1274=0x423f3e41.
tia_cnt_i : 0 ,
tia_cnt_q : 64 ,
I:reg0x1150=0x31332721.
Q:reg0x1154=0x1d1b1b21.
RX0 tia case :1,absolute value dc_i : -1 , value dc_q : -4 
####:reg0x1274=0x3e7f3e41.
####:reg0x1278=0x3e41423f.
tia_cnt_i : 0 ,
tia_cnt_q : 62 ,
I:reg0x1150=0x31332721.
Q:reg0x1154=0x1d1b1b21.
RX0 tia case :2,absolute value dc_i : -1 , value dc_q : -5 
####:reg0x1278=0x427f423f.
####:reg0x127c=0x3e41423d.
tia_cnt_i : 0 ,
tia_cnt_q : 62 ,
I:reg0x1150=0x31332721.
Q:reg0x1154=0x1d1b1b21.
RX0 tia case :3,absolute value dc_i : -1 , value dc_q : -5 
####:reg0x127c=0x427f423d.
####:reg0x1280=0x3e413c41.
tia_cnt_i : 0 ,
tia_cnt_q : 62 ,
I:reg0x1150=0x31332721.
Q:reg0x1154=0x1d1b1b21.
RX0 tia case :4,absolute value dc_i : -1 , value dc_q : -5 
####:reg0x1280=0x3c7f3c41.
####:reg0x1284=0x3c413c43.
tia_cnt_i : 0 ,
tia_cnt_q : 62 ,
I:reg0x1150=0x31332721.
Q:reg0x1154=0x1d1b1b21.
RX0 tia case :5,absolute value dc_i : -1 , value dc_q : -5 
####:reg0x1284=0x3c7f3c43.
####:reg0x1288=0x3e413c41.
tia_cnt_i : 0 ,
tia_cnt_q : 62 ,
I:reg0x1150=0x31332721.
Q:reg0x1154=0x1d1b1b21.
RX0 tia case :6,absolute value dc_i : -1 , value dc_q : -6 
####:reg0x1288=0x3c7f3c41.
####:reg0x128c=0x3e413e43.
tia_cnt_i : 0 ,
tia_cnt_q : 62 ,
I:reg0x1150=0x31332721.
Q:reg0x1154=0x1d1b1b21.
RX0 tia case :7,absolute value dc_i : -1 , value dc_q : -6 
####:reg0x128c=0x3e7f3e43.
####:reg0x1290=0x3c433a45.
tia_cnt_i : 0 ,
tia_cnt_q : 60 ,
I:reg0x1150=0x31332721.
Q:reg0x1154=0x1d1b1b21.
RX0 tia case :8,absolute value dc_i : 0 , value dc_q : -6 
####:reg0x1290=0x3a7f3a45.
####:reg0x1294=0x3c433e43.
tia_cnt_i : 0 ,
tia_cnt_q : 60 ,
I:reg0x1150=0x31332721.
Q:reg0x1154=0x1d1b1b21.
RX0 tia case :9,absolute value dc_i : -1 , value dc_q : -6 
####:reg0x1294=0x3e7f3e43.
####:reg0x1298=0x3c433a45.
tia_cnt_i : 0 ,
tia_cnt_q : 60 ,
I:reg0x1150=0x31332721.
Q:reg0x1154=0x1d1b1b21.
RX0 tia case :10,absolute value dc_i : -1 , value dc_q : -5 
####:reg0x1298=0x3a7f3a45.
####:reg0x129c=0x3e413c43.
tia_cnt_i : 0 ,
tia_cnt_q : 62 ,
I:reg0x1150=0x31332721.
Q:reg0x1154=0x1d1b1b21.
RX0 tia case :11,absolute value dc_i : -1 , value dc_q : -5 
####:reg0x129c=0x3c7f3c43.
####:reg0x12a0=0x3c433c43.
tia_cnt_i : 0 ,
tia_cnt_q : 60 ,
I:reg0x1150=0x31332721.
Q:reg0x1154=0x1d1b1b21.
RX0 tia case :12,absolute value dc_i : -1 , value dc_q : -5 
####:reg0x12a0=0x3c7f3c43.
rx1 tia cali begin:
Q:reg0x12b0=0x364b344b.
 RX1 :reg0x1130=0x344b364b.
tia_cnt_i : 52 ,
tia_cnt_q : 1 ,
RX1 tia case :0,absolute value dc_i : -8 , value dc_q : 0 
RX1:reg0x12b0=0x4c007f.
Q:reg0x12b4=0x34493449.
 RX1 :reg0x1130=0x34493449.
tia_cnt_i : 52 ,
tia_cnt_q : 1 ,
RX1 tia case :1,absolute value dc_i : -7 , value dc_q : -3 
RX1:reg0x12b4=0x4a007d.
Q:reg0x12b8=0x3649364b.
 RX1 :reg0x1130=0x364b3649.
tia_cnt_i : 52 ,
tia_cnt_q : 54 ,
RX1 tia case :2,absolute value dc_i : -6 , value dc_q : -3 
RX1:reg0x12b8=0x27f027f.
Q:reg0x12bc=0x3649364b.
 RX1 :reg0x1130=0x364b3649.
tia_cnt_i : 52 ,
tia_cnt_q : 54 ,
RX1 tia case :3,absolute value dc_i : -5 , value dc_q : -6 
RX1:reg0x12bc=0x27f027f.
Q:reg0x12c0=0x3449364b.
 RX1 :reg0x1130=0x364b3449.
tia_cnt_i : 52 ,
tia_cnt_q : 54 ,
RX1 tia case :4,absolute value dc_i : -5 , value dc_q : -6 
RX1:reg0x12c0=0x27f027f.
Q:reg0x12c4=0x3649344b.
 RX1 :reg0x1130=0x344b3649.
tia_cnt_i : 52 ,
tia_cnt_q : 1 ,
RX1 tia case :5,absolute value dc_i : -5 , value dc_q : -7 
RX1:reg0x12c4=0x4a007f.
Q:reg0x12c8=0x3649344b.
 RX1 :reg0x1130=0x344b3649.
tia_cnt_i : 52 ,
tia_cnt_q : 1 ,
RX1 tia case :6,absolute value dc_i : -5 , value dc_q : -7 
RX1:reg0x12c8=0x4a007f.
Q:reg0x12cc=0x3649344b.
 RX1 :reg0x1130=0x344b3649.
tia_cnt_i : 52 ,
tia_cnt_q : 1 ,
RX1 tia case :7,absolute value dc_i : -5 , value dc_q : -7 
RX1:reg0x12cc=0x4a007f.
Q:reg0x12d0=0x344b324d.
 RX1 :reg0x1130=0x324d344b.
tia_cnt_i : 50 ,
tia_cnt_q : 1 ,
RX1 tia case :8,absolute value dc_i : -5 , value dc_q : -7 
RX1:reg0x12d0=0x4c007f.
Q:reg0x12d4=0x3649344b.
 RX1 :reg0x1130=0x344b3649.
tia_cnt_i : 52 ,
tia_cnt_q : 1 ,
RX1 tia case :9,absolute value dc_i : -5 , value dc_q : -7 
RX1:reg0x12d4=0x4a007f.
Q:reg0x12d8=0x3649324d.
 RX1 :reg0x1130=0x324d3649.
tia_cnt_i : 50 ,
tia_cnt_q : 1 ,
RX1 tia case :10,absolute value dc_i : -5 , value dc_q : -7 
RX1:reg0x12d8=0x4a007f.
Q:reg0x12dc=0x3649344b.
 RX1 :reg0x1130=0x344b3649.
tia_cnt_i : 52 ,
tia_cnt_q : 1 ,
RX1 tia case :11,absolute value dc_i : -5 , value dc_q : -7 
RX1:reg0x12dc=0x4a007f.
Q:reg0x12e0=0x3449344b.
 RX1 :reg0x1130=0x344b3449.
tia_cnt_i : 52 ,
tia_cnt_q : 1 ,
RX1 tia case :12,absolute value dc_i : -5 , value dc_q : -7 
RX1:reg0x12e0=0x4a007f.
tia calibration end!
rx0 vga calibration begin
reg0x1120=0x3fc100.
vga case:1 pass.
RX0 vga case:1 ,absolute value dc_i_tmp : 0 , value dc_q_tmp : 6 ,I:reg0x1184=0x3331271d.   Q:reg0x11c0=0x1b1b1b19.
vga case:2 pass.
RX0 vga case:2 ,absolute value dc_i_tmp : 1 , value dc_q_tmp : 6 ,I:reg0x1188=0x3331271d.   Q:reg0x11c4=0x1b1b1b19.
vga case:3 pass.
RX0 vga case:3 ,absolute value dc_i_tmp : 0 , value dc_q_tmp : 6 ,I:reg0x118c=0x3133251d.   Q:reg0x11c8=0x1b1b1d1b.
vga case:4 pass.
RX0 vga case:4 ,absolute value dc_i_tmp : 0 , value dc_q_tmp : 6 ,I:reg0x1190=0x3133251d.   Q:reg0x11cc=0x1d1d1b19.
vga case:5 pass.
RX0 vga case:5 ,absolute value dc_i_tmp : 1 , value dc_q_tmp : 7 ,I:reg0x1194=0x3531271d.   Q:reg0x11d0=0x1b1d1b19.
vga case:6 pass.
RX0 vga case:6 ,absolute value dc_i_tmp : 0 , value dc_q_tmp : 6 ,I:reg0x1198=0x3135251d.   Q:reg0x11d4=0x1b1d1b19.
vga case:7 pass.
RX0 vga case:7 ,absolute value dc_i_tmp : 1 , value dc_q_tmp : 7 ,I:reg0x119c=0x2f35251d.   Q:reg0x11d8=0x191d1b19.
vga case:8 pass.
RX0 vga case:8 ,absolute value dc_i_tmp : 0 , value dc_q_tmp : 7 ,I:reg0x11a0=0x3931271d.   Q:reg0x11dc=0x1b1d1d19.
vga case:9 pass.
RX0 vga case:9 ,absolute value dc_i_tmp : 0 , value dc_q_tmp : 7 ,I:reg0x11a4=0x3731271d.   Q:reg0x11e0=0x21172119.
vga case:10 pass.
RX0 vga case:10 ,absolute value dc_i_tmp : 0 , value dc_q_tmp : 6 ,I:reg0x11a8=0x3731271d.   Q:reg0x11e4=0x1b192117.
vga case:11 pass.
RX0 vga case:11 ,absolute value dc_i_tmp : 0 , value dc_q_tmp : 6 ,I:reg0x11ac=0x3331271d.   Q:reg0x11e8=0x1f1b2315.
vga case:12 pass.
RX0 vga case:12 ,absolute value dc_i_tmp : 0 , value dc_q_tmp : 6 ,I:reg0x11b0=0x3333271d.   Q:reg0x11ec=0x1d1d2513.
vga case:13 pass.
RX0 vga case:13 ,absolute value dc_i_tmp : 0 , value dc_q_tmp : 7 ,I:reg0x11b4=0x3135271d.   Q:reg0x11f0=0x1f1b270f.
vga case:14 pass.
RX0 vga case:14 ,absolute value dc_i_tmp : 1 , value dc_q_tmp : 5 ,I:reg0x11b8=0x3931291d.   Q:reg0x11f4=0x1d192d09.
rx1 vga calibration begin
rx1 vga case:1 pass.
RX1 vga case:1 ,absolute value dc_i_tmp : 7 , value dc_q_tmp : 4 ,I:reg0x11fc=0x1b1d231d. Q:reg0x1238=0x19111f0f.
rx1 vga case:2 pass.
RX1 vga case:2 ,absolute value dc_i_tmp : 7 , value dc_q_tmp : 4 ,I:reg0x1200=0x1b1d231d. Q:reg0x123c=0x19111f0f.
rx1 vga case:3 pass.
RX1 vga case:3 ,absolute value dc_i_tmp : 7 , value dc_q_tmp : 4 ,I:reg0x1204=0x1b1d231d. Q:reg0x1240=0x1b131f0f.
rx1 vga case:4 pass.
RX1 vga case:4 ,absolute value dc_i_tmp : 7 , value dc_q_tmp : 5 ,I:reg0x1208=0x1b1d231d. Q:reg0x1244=0x19111f0f.
rx1 vga case:5 pass.
RX1 vga case:5 ,absolute value dc_i_tmp : 7 , value dc_q_tmp : 4 ,I:reg0x120c=0x1b1d231d. Q:reg0x1248=0x1b111f0f.
rx1 vga case:6 pass.
RX1 vga case:6 ,absolute value dc_i_tmp : 7 , value dc_q_tmp : 4 ,I:reg0x1210=0x1b1d231d. Q:reg0x124c=0x1b111f0f.
rx1 vga case:7 pass.
RX1 vga case:7 ,absolute value dc_i_tmp : 6 , value dc_q_tmp : 4 ,I:reg0x1214=0x1b1d231d. Q:reg0x1250=0x1b0f1f0f.
rx1 vga case:8 pass.
RX1 vga case:8 ,absolute value dc_i_tmp : 6 , value dc_q_tmp : 3 ,I:reg0x1218=0x191f251d. Q:reg0x1254=0x1b111f0d.
rx1 vga case:9 pass.
RX1 vga case:9 ,absolute value dc_i_tmp : 6 , value dc_q_tmp : 4 ,I:reg0x121c=0x191f2519. Q:reg0x1258=0x1d11230d.
rx1 vga case:10 pass.
RX1 vga case:10 ,absolute value dc_i_tmp : 6 , value dc_q_tmp : 3 ,I:reg0x1220=0x191f2717. Q:reg0x125c=0x1913250b.
rx1 vga case:11 pass.
RX1 vga case:11 ,absolute value dc_i_tmp : 6 , value dc_q_tmp : 4 ,I:reg0x1224=0x191f2b15. Q:reg0x1260=0x1d112707.
rx1 vga case:12 pass.
RX1 vga case:12 ,absolute value dc_i_tmp : 5 , value dc_q_tmp : 4 ,I:reg0x1228=0x191f2f13. Q:reg0x1264=0x21112b05.
rx1 vga case:13 pass.
RX1 vga case:13 ,absolute value dc_i_tmp : 6 , value dc_q_tmp : 3 ,I:reg0x122c=0x2117350f. Q:reg0x1268=0x1d0f2f01.
rx1 vga case:14 pass.
RX1 vga case:14 ,absolute value dc_i_tmp : 5 , value dc_q_tmp : 3 ,I:reg0x1230=0x191f3b05. Q:reg0x126c=0x19133f01.
reg0x1120=0x3c0100.
vga calibration end!
RX0: 0x103c : e0024000 ,0x1040 : 90001102 
RX1: 0x1054 : e0024000 ,0x1058 : 90001100 
THIS CASE J: 0 M: 9 
adc calibration begin
calibration begin
RX0 cali pre ,absolute value dc_i_tmp : 4 , value dc_q_tmp : 0 ,
reg0x1180=0x3333251d.
reg0x11bc=0x1d1b191d.
RX1 cali pre ,absolute value dc_i_tmp : 1 , value dc_q_tmp : 1 ,reg0x11f8=0x1b1b1b21.
reg0x1234=0x19151911.
rx0 tia cali begin:
####:reg0x1270=0x423d423d.
tia_cnt_i : 19 ,
tia_cnt_q : 1 ,
I:reg0x1150=0x3333251d.
Q:reg0x1154=0x1d1b191d.
RX0 tia case :0,absolute value dc_i : -1 , value dc_q : -1 
####:reg0x1270=0x2f3e2f50.
####:reg0x1274=0x423d423d.
tia_cnt_i : 40 ,
tia_cnt_q : 1 ,
I:reg0x1150=0x3333251d.
Q:reg0x1154=0x1d1b191d.
RX0 tia case :1,absolute value dc_i : -1 , value dc_q : 0 
####:reg0x1274=0x1a3e1a65.
####:reg0x1278=0x423d443b.
tia_cnt_i : 52 ,
tia_cnt_q : 1 ,
I:reg0x1150=0x3333251d.
Q:reg0x1154=0x1d1b191d.
RX0 tia case :2,absolute value dc_i : -1 , value dc_q : -1 
####:reg0x1278=0x103e106f.
####:reg0x127c=0x443b443b.
tia_cnt_i : 68 ,
tia_cnt_q : 1 ,
I:reg0x1150=0x3333251d.
Q:reg0x1154=0x1d1b191d.
RX0 tia case :3,absolute value dc_i : -3 , value dc_q : -1 
####:reg0x127c=0x3c007f.
####:reg0x1280=0x3e433e41.
tia_cnt_i : 62 ,
tia_cnt_q : 1 ,
I:reg0x1150=0x3333251d.
Q:reg0x1154=0x1d1b191d.
RX0 tia case :4,absolute value dc_i : -4 , value dc_q : -1 
####:reg0x1280=0x44007f.
####:reg0x1284=0x3e433c41.
tia_cnt_i : 60 ,
tia_cnt_q : 0 ,
I:reg0x1150=0x3333251d.
Q:reg0x1154=0x1d1b191d.
RX0 tia case :5,absolute value dc_i : -3 , value dc_q : -1 
####:reg0x1284=0x3e43007d.
####:reg0x1288=0x3e413e43.
tia_cnt_i : 60 ,
tia_cnt_q : 3 ,
I:reg0x1150=0x3333251d.
Q:reg0x1154=0x1d1b191d.
RX0 tia case :6,absolute value dc_i : -3 , value dc_q : 0 
####:reg0x1288=0x244027f.
####:reg0x128c=0x3e413e41.
tia_cnt_i : 62 ,
tia_cnt_q : 1 ,
I:reg0x1150=0x3333251d.
Q:reg0x1154=0x1d1b191d.
RX0 tia case :7,absolute value dc_i : -4 , value dc_q : 0 
####:reg0x128c=0x42007f.
####:reg0x1290=0x3c433a45.
tia_cnt_i : 58 ,
tia_cnt_q : 1 ,
I:reg0x1150=0x3333251d.
Q:reg0x1154=0x1d1b191d.
RX0 tia case :8,absolute value dc_i : -3 , value dc_q : 0 
####:reg0x1290=0x44007f.
####:reg0x1294=0x3c433c43.
tia_cnt_i : 60 ,
tia_cnt_q : 1 ,
I:reg0x1150=0x3333251d.
Q:reg0x1154=0x1d1b191d.
RX0 tia case :9,absolute value dc_i : -4 , value dc_q : 0 
####:reg0x1294=0x44007f.
####:reg0x1298=0x3e433c43.
tia_cnt_i : 60 ,
tia_cnt_q : 1 ,
I:reg0x1150=0x3333251d.
Q:reg0x1154=0x1d1b191d.
RX0 tia case :10,absolute value dc_i : -4 , value dc_q : -2 
####:reg0x1298=0x44007f.
####:reg0x129c=0x3c433a45.
tia_cnt_i : 58 ,
tia_cnt_q : 1 ,
I:reg0x1150=0x3333251d.
Q:reg0x1154=0x1d1b191d.
RX0 tia case :11,absolute value dc_i : -4 , value dc_q : -1 
####:reg0x129c=0x44007f.
####:reg0x12a0=0x3c433a45.
tia_cnt_i : 58 ,
tia_cnt_q : 1 ,
I:reg0x1150=0x3333251d.
Q:reg0x1154=0x1d1b191d.
RX0 tia case :12,absolute value dc_i : -3 , value dc_q : 0 
####:reg0x12a0=0x44007f.
rx1 tia cali begin:
Q:reg0x12b0=0x34493449.
 RX1 :reg0x1130=0x34493449.
tia_cnt_i : 52 ,
tia_cnt_q : 0 ,
RX1 tia case :0,absolute value dc_i : -3 , value dc_q : -1 
RX1:reg0x12b0=0x3449007d.
Q:reg0x12b4=0x36493449.
 RX1 :reg0x1130=0x34493649.
tia_cnt_i : 52 ,
tia_cnt_q : 1 ,
RX1 tia case :1,absolute value dc_i : -2 , value dc_q : 1 
RX1:reg0x12b4=0x4a007d.
Q:reg0x12b8=0x3649364b.
 RX1 :reg0x1130=0x364b3649.
tia_cnt_i : 0 ,
tia_cnt_q : 54 ,
RX1 tia case :2,absolute value dc_i : -1 , value dc_q : -3 
RX1:reg0x12b8=0x367f364b.
Q:reg0x12bc=0x3649364b.
 RX1 :reg0x1130=0x364b3649.
tia_cnt_i : 0 ,
tia_cnt_q : 54 ,
RX1 tia case :3,absolute value dc_i : 1 , value dc_q : -4 
RX1:reg0x12bc=0x367f364b.
Q:reg0x12c0=0x3449344b.
 RX1 :reg0x1130=0x344b3449.
tia_cnt_i : 0 ,
tia_cnt_q : 54 ,
RX1 tia case :4,absolute value dc_i : 1 , value dc_q : -4 
RX1:reg0x12c0=0x347f344b.
Q:reg0x12c4=0x3649344b.
 RX1 :reg0x1130=0x344b3649.
tia_cnt_i : 0 ,
tia_cnt_q : 54 ,
RX1 tia case :5,absolute value dc_i : 1 , value dc_q : -4 
RX1:reg0x12c4=0x347f344b.
Q:reg0x12c8=0x3649344b.
 RX1 :reg0x1130=0x344b3649.
tia_cnt_i : 0 ,
tia_cnt_q : 54 ,
RX1 tia case :6,absolute value dc_i : 1 , value dc_q : -4 
RX1:reg0x12c8=0x347f344b.
Q:reg0x12cc=0x36493449.
 RX1 :reg0x1130=0x34493649.
tia_cnt_i : 0 ,
tia_cnt_q : 54 ,
RX1 tia case :7,absolute value dc_i : 1 , value dc_q : -4 
RX1:reg0x12cc=0x347f3449.
Q:reg0x12d0=0x364b324d.
 RX1 :reg0x1130=0x324d364b.
tia_cnt_i : 0 ,
tia_cnt_q : 52 ,
RX1 tia case :8,absolute value dc_i : 1 , value dc_q : -4 
RX1:reg0x12d0=0x327f324d.
Q:reg0x12d4=0x3449344b.
 RX1 :reg0x1130=0x344b3449.
tia_cnt_i : 0 ,
tia_cnt_q : 54 ,
RX1 tia case :9,absolute value dc_i : 1 , value dc_q : -4 
RX1:reg0x12d4=0x347f344b.
Q:reg0x12d8=0x3649344b.
 RX1 :reg0x1130=0x344b3649.
tia_cnt_i : 0 ,
tia_cnt_q : 54 ,
RX1 tia case :10,absolute value dc_i : 1 , value dc_q : -4 
RX1:reg0x12d8=0x347f344b.
Q:reg0x12dc=0x3449344b.
 RX1 :reg0x1130=0x344b3449.
tia_cnt_i : 0 ,
tia_cnt_q : 54 ,
RX1 tia case :11,absolute value dc_i : 1 , value dc_q : -4 
RX1:reg0x12dc=0x347f344b.
Q:reg0x12e0=0x344b344b.
 RX1 :reg0x1130=0x344b344b.
tia_cnt_i : 0 ,
tia_cnt_q : 52 ,
RX1 tia case :12,absolute value dc_i : 1 , value dc_q : -4 
RX1:reg0x12e0=0x347f344b.
tia calibration end!
rx0 vga calibration begin
reg0x1120=0x3fc100.
vga case:1 pass.
RX0 vga case:1 ,absolute value dc_i_tmp : 3 , value dc_q_tmp : 1 ,I:reg0x1184=0x3133271d.   Q:reg0x11c0=0x1d1b1b1d.
vga case:2 pass.
RX0 vga case:2 ,absolute value dc_i_tmp : 5 , value dc_q_tmp : 1 ,I:reg0x1188=0x3333291d.   Q:reg0x11c4=0x1b191b1d.
vga case:3 pass.
RX0 vga case:3 ,absolute value dc_i_tmp : 4 , value dc_q_tmp : 1 ,I:reg0x118c=0x3131291d.   Q:reg0x11c8=0x1d191b1d.
vga case:4 pass.
RX0 vga case:4 ,absolute value dc_i_tmp : 4 , value dc_q_tmp : 0 ,I:reg0x1190=0x3533291d.   Q:reg0x11cc=0x1d191b1d.
vga case:5 pass.
RX0 vga case:5 ,absolute value dc_i_tmp : 3 , value dc_q_tmp : 1 ,I:reg0x1194=0x3331291d.   Q:reg0x11d0=0x1d191b1d.
vga case:6 pass.
RX0 vga case:6 ,absolute value dc_i_tmp : 3 , value dc_q_tmp : 0 ,I:reg0x1198=0x3533291d.   Q:reg0x11d4=0x1f191b1d.
vga case:7 pass.
RX0 vga case:7 ,absolute value dc_i_tmp : 4 , value dc_q_tmp : 0 ,I:reg0x119c=0x3331291d.   Q:reg0x11d8=0x1f171b1d.
vga case:8 pass.
RX0 vga case:8 ,absolute value dc_i_tmp : 3 , value dc_q_tmp : 0 ,I:reg0x11a0=0x3133291d.   Q:reg0x11dc=0x1d191b1d.
vga case:9 pass.
RX0 vga case:9 ,absolute value dc_i_tmp : 4 , value dc_q_tmp : 0 ,I:reg0x11a4=0x3331291b.   Q:reg0x11e0=0x1d1d1b1d.
vga case:10 pass.
RX0 vga case:10 ,absolute value dc_i_tmp : 4 , value dc_q_tmp : 0 ,I:reg0x11a8=0x37312b1b.   Q:reg0x11e4=0x21191b1b.
vga case:11 pass.
RX0 vga case:11 ,absolute value dc_i_tmp : 3 , value dc_q_tmp : 1 ,I:reg0x11ac=0x3b312b19.   Q:reg0x11e8=0x1d1d1b1b.
vga case:12 pass.
RX0 vga case:12 ,absolute value dc_i_tmp : 2 , value dc_q_tmp : 0 ,I:reg0x11b0=0x37312d19.   Q:reg0x11ec=0x1f191d1b.
vga case:13 pass.
RX0 vga case:13 ,absolute value dc_i_tmp : 3 , value dc_q_tmp : 0 ,I:reg0x11b4=0x35332d17.   Q:reg0x11f0=0x1f151d19.
vga case:14 pass.
RX0 vga case:14 ,absolute value dc_i_tmp : 2 , value dc_q_tmp : 0 ,I:reg0x11b8=0x39312f13.   Q:reg0x11f4=0x1f1d1f19.
rx1 vga calibration begin
rx1 vga case:1 pass.
RX1 vga case:1 ,absolute value dc_i_tmp : 1 , value dc_q_tmp : 0 ,I:reg0x11fc=0x1b1b231d. Q:reg0x1238=0x19131b13.
rx1 vga case:2 pass.
RX1 vga case:2 ,absolute value dc_i_tmp : 1 , value dc_q_tmp : 0 ,I:reg0x1200=0x191d231f. Q:reg0x123c=0x19131b13.
rx1 vga case:3 pass.
RX1 vga case:3 ,absolute value dc_i_tmp : 1 , value dc_q_tmp : 0 ,I:reg0x1204=0x191d231f. Q:reg0x1240=0x19131b13.
rx1 vga case:4 pass.
RX1 vga case:4 ,absolute value dc_i_tmp : 1 , value dc_q_tmp : 0 ,I:reg0x1208=0x1d1b231d. Q:reg0x1244=0x19131b13.
rx1 vga case:5 pass.
RX1 vga case:5 ,absolute value dc_i_tmp : 1 , value dc_q_tmp : 1 ,I:reg0x120c=0x191f231f. Q:reg0x1248=0x17131b13.
rx1 vga case:6 pass.
RX1 vga case:6 ,absolute value dc_i_tmp : 1 , value dc_q_tmp : 0 ,I:reg0x1210=0x1d19231d. Q:reg0x124c=0x19131b13.
rx1 vga case:7 pass.
RX1 vga case:7 ,absolute value dc_i_tmp : 1 , value dc_q_tmp : 1 ,I:reg0x1214=0x1f19231d. Q:reg0x1250=0x17131b13.
rx1 vga case:8 pass.
RX1 vga case:8 ,absolute value dc_i_tmp : 1 , value dc_q_tmp : 1 ,I:reg0x1218=0x1d19251d. Q:reg0x1254=0x1b0f1d13.
rx1 vga case:9 pass.
RX1 vga case:9 ,absolute value dc_i_tmp : 1 , value dc_q_tmp : 1 ,I:reg0x121c=0x171f251b. Q:reg0x1258=0x17131b11.
rx1 vga case:10 pass.
RX1 vga case:10 ,absolute value dc_i_tmp : 0 , value dc_q_tmp : 1 ,I:reg0x1220=0x21192919. Q:reg0x125c=0x19131d11.
rx1 vga case:11 pass.
RX1 vga case:11 ,absolute value dc_i_tmp : 1 , value dc_q_tmp : 1 ,I:reg0x1224=0x1d1d2b17. Q:reg0x1260=0x19111d0f.
rx1 vga case:12 pass.
RX1 vga case:12 ,absolute value dc_i_tmp : 1 , value dc_q_tmp : 1 ,I:reg0x1228=0x1d1b2d13. Q:reg0x1264=0x19111f0f.
rx1 vga case:13 pass.
RX1 vga case:13 ,absolute value dc_i_tmp : 0 , value dc_q_tmp : 1 ,I:reg0x122c=0x1f17310f. Q:reg0x1268=0x1d0f210d.
rx1 vga case:14 pass.
RX1 vga case:14 ,absolute value dc_i_tmp : 0 , value dc_q_tmp : 1 ,I:reg0x1230=0x1f1b3907. Q:reg0x126c=0x1515230b.
reg0x1120=0x3c0100.
vga calibration end!
RX0: 0x103c : e0028000 ,0x1040 : a0001102 
RX1: 0x1054 : e0028000 ,0x1058 : a0001100 
THIS CASE J: 0 M:10 
adc calibration begin
calibration begin
RX0 cali pre ,absolute value dc_i_tmp : 3 , value dc_q_tmp : 0 ,
reg0x1180=0x31332721.
reg0x11bc=0x1d1b1b21.
RX1 cali pre ,absolute value dc_i_tmp : 1 , value dc_q_tmp : 2 ,reg0x11f8=0x1b1d1d25.
reg0x1234=0x17131b13.
rx0 tia cali begin:
####:reg0x1270=0x423d423d.
tia_cnt_i : 21 ,
tia_cnt_q : 0 ,
I:reg0x1150=0x31332721.
Q:reg0x1154=0x1d1b1b21.
RX0 tia case :0,absolute value dc_i : -1 , value dc_q : 0 
####:reg0x1270=0x423d2d52.
####:reg0x1274=0x443b423d.
tia_cnt_i : 27 ,
tia_cnt_q : 0 ,
I:reg0x1150=0x31332721.
Q:reg0x1154=0x1d1b1b21.
RX0 tia case :1,absolute value dc_i : -1 , value dc_q : 0 
####:reg0x1274=0x443b2758.
####:reg0x1278=0x443b443b.
tia_cnt_i : 56 ,
tia_cnt_q : 0 ,
I:reg0x1150=0x31332721.
Q:reg0x1154=0x1d1b1b21.
RX0 tia case :2,absolute value dc_i : -1 , value dc_q : 0 
####:reg0x1278=0x443b0c73.
####:reg0x127c=0x443b443b.
tia_cnt_i : 68 ,
tia_cnt_q : 0 ,
I:reg0x1150=0x31332721.
Q:reg0x1154=0x1d1b1b21.
RX0 tia case :3,absolute value dc_i : -3 , value dc_q : 0 
####:reg0x127c=0x443b007f.
####:reg0x1280=0x3e433c43.
tia_cnt_i : 60 ,
tia_cnt_q : 0 ,
I:reg0x1150=0x31332721.
Q:reg0x1154=0x1d1b1b21.
RX0 tia case :4,absolute value dc_i : -3 , value dc_q : -1 
####:reg0x1280=0x3e43007f.
####:reg0x1284=0x3e433e43.
tia_cnt_i : 60 ,
tia_cnt_q : 0 ,
I:reg0x1150=0x31332721.
Q:reg0x1154=0x1d1b1b21.
RX0 tia case :5,absolute value dc_i : -4 , value dc_q : 0 
####:reg0x1284=0x3e43027f.
####:reg0x1288=0x3e413c41.
tia_cnt_i : 60 ,
tia_cnt_q : 0 ,
I:reg0x1150=0x31332721.
Q:reg0x1154=0x1d1b1b21.
RX0 tia case :6,absolute value dc_i : -3 , value dc_q : 0 
####:reg0x1288=0x3e41007d.
####:reg0x128c=0x3e433e43.
tia_cnt_i : 60 ,
tia_cnt_q : 0 ,
I:reg0x1150=0x31332721.
Q:reg0x1154=0x1d1b1b21.
RX0 tia case :7,absolute value dc_i : -4 , value dc_q : 0 
####:reg0x128c=0x3e43027f.
####:reg0x1290=0x3c433a45.
tia_cnt_i : 58 ,
tia_cnt_q : 0 ,
I:reg0x1150=0x31332721.
Q:reg0x1154=0x1d1b1b21.
RX0 tia case :8,absolute value dc_i : -3 , value dc_q : 0 
####:reg0x1290=0x3c43007f.
####:reg0x1294=0x3c413a45.
tia_cnt_i : 58 ,
tia_cnt_q : 0 ,
I:reg0x1150=0x31332721.
Q:reg0x1154=0x1d1b1b21.
RX0 tia case :9,absolute value dc_i : -3 , value dc_q : 0 
####:reg0x1294=0x3c41007f.
####:reg0x1298=0x3c433c43.
tia_cnt_i : 60 ,
tia_cnt_q : 0 ,
I:reg0x1150=0x31332721.
Q:reg0x1154=0x1d1b1b21.
RX0 tia case :10,absolute value dc_i : -4 , value dc_q : 0 
####:reg0x1298=0x3c43007f.
####:reg0x129c=0x3c413c43.
tia_cnt_i : 60 ,
tia_cnt_q : 0 ,
I:reg0x1150=0x31332721.
Q:reg0x1154=0x1d1b1b21.
RX0 tia case :11,absolute value dc_i : -3 , value dc_q : 0 
####:reg0x129c=0x3c41007f.
####:reg0x12a0=0x3e433c43.
tia_cnt_i : 44 ,
tia_cnt_q : 0 ,
I:reg0x1150=0x31332721.
Q:reg0x1154=0x1d1b1b21.
RX0 tia case :12,absolute value dc_i : -1 , value dc_q : 0 
####:reg0x12a0=0x3e43106f.
rx1 tia cali begin:
Q:reg0x12b0=0x3449344b.
 RX1 :reg0x1130=0x344b3449.
tia_cnt_i : 52 ,
tia_cnt_q : 0 ,
RX1 tia case :0,absolute value dc_i : -3 , value dc_q : -1 
RX1:reg0x12b0=0x3449007f.
Q:reg0x12b4=0x36493449.
 RX1 :reg0x1130=0x34493649.
tia_cnt_i : 52 ,
tia_cnt_q : 1 ,
RX1 tia case :1,absolute value dc_i : -2 , value dc_q : 1 
RX1:reg0x12b4=0x4a007d.
Q:reg0x12b8=0x3649364b.
 RX1 :reg0x1130=0x364b3649.
tia_cnt_i : 0 ,
tia_cnt_q : 54 ,
RX1 tia case :2,absolute value dc_i : 0 , value dc_q : -3 
RX1:reg0x12b8=0x367f364b.
Q:reg0x12bc=0x3649364b.
 RX1 :reg0x1130=0x364b3649.
tia_cnt_i : 0 ,
tia_cnt_q : 54 ,
RX1 tia case :3,absolute value dc_i : 1 , value dc_q : -4 
RX1:reg0x12bc=0x367f364b.
Q:reg0x12c0=0x364b344b.
 RX1 :reg0x1130=0x344b364b.
tia_cnt_i : 0 ,
tia_cnt_q : 52 ,
RX1 tia case :4,absolute value dc_i : 1 , value dc_q : -4 
RX1:reg0x12c0=0x347f344b.
Q:reg0x12c4=0x3649344b.
 RX1 :reg0x1130=0x344b3649.
tia_cnt_i : 0 ,
tia_cnt_q : 54 ,
RX1 tia case :5,absolute value dc_i : 1 , value dc_q : -4 
RX1:reg0x12c4=0x347f344b.
Q:reg0x12c8=0x3649344b.
 RX1 :reg0x1130=0x344b3649.
tia_cnt_i : 0 ,
tia_cnt_q : 54 ,
RX1 tia case :6,absolute value dc_i : 1 , value dc_q : -4 
RX1:reg0x12c8=0x347f344b.
Q:reg0x12cc=0x3649344b.
 RX1 :reg0x1130=0x344b3649.
tia_cnt_i : 0 ,
tia_cnt_q : 54 ,
RX1 tia case :7,absolute value dc_i : 1 , value dc_q : -4 
RX1:reg0x12cc=0x347f344b.
Q:reg0x12d0=0x344b324d.
 RX1 :reg0x1130=0x324d344b.
tia_cnt_i : 0 ,
tia_cnt_q : 52 ,
RX1 tia case :8,absolute value dc_i : 1 , value dc_q : -4 
RX1:reg0x12d0=0x327f324d.
Q:reg0x12d4=0x3449344b.
 RX1 :reg0x1130=0x344b3449.
tia_cnt_i : 0 ,
tia_cnt_q : 54 ,
RX1 tia case :9,absolute value dc_i : 1 , value dc_q : -4 
RX1:reg0x12d4=0x347f344b.
Q:reg0x12d8=0x364b344b.
 RX1 :reg0x1130=0x344b364b.
tia_cnt_i : 0 ,
tia_cnt_q : 52 ,
RX1 tia case :10,absolute value dc_i : 1 , value dc_q : -4 
RX1:reg0x12d8=0x347f344b.
Q:reg0x12dc=0x364b324d.
 RX1 :reg0x1130=0x324d364b.
tia_cnt_i : 0 ,
tia_cnt_q : 52 ,
RX1 tia case :11,absolute value dc_i : 1 , value dc_q : -4 
RX1:reg0x12dc=0x327f324d.
Q:reg0x12e0=0x364b324d.
 RX1 :reg0x1130=0x324d364b.
tia_cnt_i : 0 ,
tia_cnt_q : 52 ,
RX1 tia case :12,absolute value dc_i : 1 , value dc_q : -4 
RX1:reg0x12e0=0x327f324d.
tia calibration end!
rx0 vga calibration begin
reg0x1120=0x3fc100.
vga case:1 pass.
RX0 vga case:1 ,absolute value dc_i_tmp : 3 , value dc_q_tmp : 0 ,I:reg0x1184=0x3131291d.   Q:reg0x11c0=0x1d1b1b21.
vga case:2 pass.
RX0 vga case:2 ,absolute value dc_i_tmp : 4 , value dc_q_tmp : 0 ,I:reg0x1188=0x3333291d.   Q:reg0x11c4=0x1d1b1b21.
vga case:3 pass.
RX0 vga case:3 ,absolute value dc_i_tmp : 4 , value dc_q_tmp : 0 ,I:reg0x118c=0x3131291d.   Q:reg0x11c8=0x1d1b1b21.
vga case:4 pass.
RX0 vga case:4 ,absolute value dc_i_tmp : 3 , value dc_q_tmp : 0 ,I:reg0x1190=0x3533291d.   Q:reg0x11cc=0x1d1b1b21.
vga case:5 pass.
RX0 vga case:5 ,absolute value dc_i_tmp : 4 , value dc_q_tmp : 0 ,I:reg0x1194=0x3331291d.   Q:reg0x11d0=0x1f19191d.
vga case:6 pass.
RX0 vga case:6 ,absolute value dc_i_tmp : 3 , value dc_q_tmp : 0 ,I:reg0x1198=0x3331291d.   Q:reg0x11d4=0x1d1b1b21.
vga case:7 pass.
RX0 vga case:7 ,absolute value dc_i_tmp : 4 , value dc_q_tmp : 0 ,I:reg0x119c=0x3331291d.   Q:reg0x11d8=0x1d1b1b21.
vga case:8 pass.
RX0 vga case:8 ,absolute value dc_i_tmp : 4 , value dc_q_tmp : 0 ,I:reg0x11a0=0x2f35271b.   Q:reg0x11dc=0x1f15191d.
vga case:9 pass.
RX0 vga case:9 ,absolute value dc_i_tmp : 3 , value dc_q_tmp : 0 ,I:reg0x11a4=0x3533291b.   Q:reg0x11e0=0x1f1b1b21.
vga case:10 pass.
RX0 vga case:10 ,absolute value dc_i_tmp : 4 , value dc_q_tmp : 0 ,I:reg0x11a8=0x37312919.   Q:reg0x11e4=0x1b191b21.
vga case:11 pass.
RX0 vga case:11 ,absolute value dc_i_tmp : 3 , value dc_q_tmp : 0 ,I:reg0x11ac=0x35312b19.   Q:reg0x11e8=0x1f191b21.
vga case:12 pass.
RX0 vga case:12 ,absolute value dc_i_tmp : 3 , value dc_q_tmp : 0 ,I:reg0x11b0=0x37332d19.   Q:reg0x11ec=0x1d191b21.
vga case:13 pass.
RX0 vga case:13 ,absolute value dc_i_tmp : 2 , value dc_q_tmp : 0 ,I:reg0x11b4=0x35352d17.   Q:reg0x11f0=0x1f191b21.
vga case:14 pass.
RX0 vga case:14 ,absolute value dc_i_tmp : 2 , value dc_q_tmp : 0 ,I:reg0x11b8=0x3b2b3113.   Q:reg0x11f4=0x171d1921.
rx1 vga calibration begin
rx1 vga case:1 pass.
RX1 vga case:1 ,absolute value dc_i_tmp : 1 , value dc_q_tmp : 1 ,I:reg0x11fc=0x1b1b231d. Q:reg0x1238=0x19131b13.
rx1 vga case:2 pass.
RX1 vga case:2 ,absolute value dc_i_tmp : 1 , value dc_q_tmp : 0 ,I:reg0x1200=0x1b1b231d. Q:reg0x123c=0x19131b13.
rx1 vga case:3 pass.
RX1 vga case:3 ,absolute value dc_i_tmp : 1 , value dc_q_tmp : 0 ,I:reg0x1204=0x1b1b231d. Q:reg0x1240=0x19131b13.
rx1 vga case:4 pass.
RX1 vga case:4 ,absolute value dc_i_tmp : 0 , value dc_q_tmp : 1 ,I:reg0x1208=0x1d1b251f. Q:reg0x1244=0x19131b13.
rx1 vga case:5 pass.
RX1 vga case:5 ,absolute value dc_i_tmp : 1 , value dc_q_tmp : 0 ,I:reg0x120c=0x1d1b251f. Q:reg0x1248=0x19131b13.
rx1 vga case:6 pass.
RX1 vga case:6 ,absolute value dc_i_tmp : 1 , value dc_q_tmp : 0 ,I:reg0x1210=0x1d1b251f. Q:reg0x124c=0x19131b13.
rx1 vga case:7 pass.
RX1 vga case:7 ,absolute value dc_i_tmp : 1 , value dc_q_tmp : 1 ,I:reg0x1214=0x1d19231d. Q:reg0x1250=0x17131b13.
rx1 vga case:8 pass.
RX1 vga case:8 ,absolute value dc_i_tmp : 1 , value dc_q_tmp : 0 ,I:reg0x1218=0x1d1b251d. Q:reg0x1254=0x1b0f1d13.
rx1 vga case:9 pass.
RX1 vga case:9 ,absolute value dc_i_tmp : 1 , value dc_q_tmp : 1 ,I:reg0x121c=0x1f19271b. Q:reg0x1258=0x19151b11.
rx1 vga case:10 pass.
RX1 vga case:10 ,absolute value dc_i_tmp : 0 , value dc_q_tmp : 1 ,I:reg0x1220=0x1d192919. Q:reg0x125c=0x17111d11.
rx1 vga case:11 pass.
RX1 vga case:11 ,absolute value dc_i_tmp : 1 , value dc_q_tmp : 0 ,I:reg0x1224=0x1b1f2b17. Q:reg0x1260=0x1b131d0f.
rx1 vga case:12 pass.
RX1 vga case:12 ,absolute value dc_i_tmp : 1 , value dc_q_tmp : 1 ,I:reg0x1228=0x1b1d2d13. Q:reg0x1264=0x19131f0f.
rx1 vga case:13 pass.
RX1 vga case:13 ,absolute value dc_i_tmp : 0 , value dc_q_tmp : 1 ,I:reg0x122c=0x1d1b310f. Q:reg0x1268=0x17171f0d.
rx1 vga case:14 pass.
RX1 vga case:14 ,absolute value dc_i_tmp : 1 , value dc_q_tmp : 1 ,I:reg0x1230=0x191d3907. Q:reg0x126c=0x1d0f250b.
reg0x1120=0x3c0100.
vga calibration end!
RX0: 0x103c : e002c000 ,0x1040 : b0001102 
RX1: 0x1054 : e002c000 ,0x1058 : b0001100 
THIS CASE J: 0 M:11 
adc calibration begin
calibration begin
RX0 cali pre ,absolute value dc_i_tmp : 1 , value dc_q_tmp : 1 ,
reg0x1180=0x3333251d.
reg0x11bc=0x1b19191d.
RX1 cali pre ,absolute value dc_i_tmp : 5 , value dc_q_tmp : 2 ,reg0x11f8=0x1b1d1d25.
reg0x1234=0x19131d13.
