
read pll state:0x77 
pll state:0x0000007F! 
RX0: 0x103c : e0000000 ,0x1040 :        0 
RX1: 0x1054 : e0000000 ,0x1058 : 0 
THIS CASE J: 0 M: 0 
adc calibration begin
calibration begin
RX0 cali pre ,absolute value dc_i_tmp : 1 , value dc_q_tmp : 2 ,
reg0x1180=0x1717211d.
reg0x11bc=0x2d29150f.
RX1 cali pre ,absolute value dc_i_tmp : 0 , value dc_q_tmp : 1 ,reg0x11f8=0x11192123.
reg0x1234=0x312d1f1f.
rx0 tia cali begin:
####:reg0x1270=0x4e31502d.
tia_cnt_i : 1 ,
tia_cnt_q : 0 ,
I:reg0x1150=0x1717211d.
Q:reg0x1154=0x2d29150f.
RX0 tia case :0,absolute value dc_i : -1 , value dc_q : -1 
####:reg0x1270=0x4e314f2e.
####:reg0x1274=0x502f502f.
tia_cnt_i : 0 ,
tia_cnt_q : 0 ,
I:reg0x1150=0x1717211d.
Q:reg0x1154=0x2d29150f.
RX0 tia case :1,absolute value dc_i : -1 , value dc_q : 0 
####:reg0x1274=0x502f502f.
####:reg0x1278=0x4c334c31.
tia_cnt_i : 0 ,
tia_cnt_q : 0 ,
I:reg0x1150=0x1717211d.
Q:reg0x1154=0x2d29150f.
RX0 tia case :2,absolute value dc_i : 0 , value dc_q : 1 
####:reg0x1278=0x4c334c31.
####:reg0x127c=0x4a354a35.
tia_cnt_i : 0 ,
tia_cnt_q : 0 ,
I:reg0x1150=0x1717211d.
Q:reg0x1154=0x2d29150f.
RX0 tia case :3,absolute value dc_i : 0 , value dc_q : 1 
####:reg0x127c=0x4a354a35.
####:reg0x1280=0x3e433c43.
tia_cnt_i : 0 ,
tia_cnt_q : 0 ,
I:reg0x1150=0x1717211d.
Q:reg0x1154=0x2d29150f.
RX0 tia case :4,absolute value dc_i : 0 , value dc_q : 1 
####:reg0x1280=0x3e433c43.
####:reg0x1284=0x3c413e43.
tia_cnt_i : 0 ,
tia_cnt_q : 0 ,
I:reg0x1150=0x1717211d.
Q:reg0x1154=0x2d29150f.
RX0 tia case :5,absolute value dc_i : 0 , value dc_q : 1 
####:reg0x1284=0x3c413e43.
####:reg0x1288=0x3c433a45.
tia_cnt_i : 0 ,
tia_cnt_q : 0 ,
I:reg0x1150=0x1717211d.
Q:reg0x1154=0x2d29150f.
RX0 tia case :6,absolute value dc_i : 0 , value dc_q : 1 
####:reg0x1288=0x3c433a45.
####:reg0x128c=0x3a453a45.
tia_cnt_i : 0 ,
tia_cnt_q : 0 ,
I:reg0x1150=0x1717211d.
Q:reg0x1154=0x2d29150f.
RX0 tia case :7,absolute value dc_i : 0 , value dc_q : 1 
####:reg0x128c=0x3a453a45.
####:reg0x1290=0x36493449.
tia_cnt_i : 0 ,
tia_cnt_q : 0 ,
I:reg0x1150=0x1717211d.
Q:reg0x1154=0x2d29150f.
RX0 tia case :8,absolute value dc_i : 0 , value dc_q : 1 
####:reg0x1290=0x36493449.
####:reg0x1294=0x36493449.
tia_cnt_i : 0 ,
tia_cnt_q : 0 ,
I:reg0x1150=0x1717211d.
Q:reg0x1154=0x2d29150f.
RX0 tia case :9,absolute value dc_i : 0 , value dc_q : 1 
####:reg0x1294=0x36493449.
####:reg0x1298=0x38473847.
tia_cnt_i : 0 ,
tia_cnt_q : 0 ,
I:reg0x1150=0x1717211d.
Q:reg0x1154=0x2d29150f.
RX0 tia case :10,absolute value dc_i : 0 , value dc_q : 1 
####:reg0x1298=0x38473847.
####:reg0x129c=0x38473649.
tia_cnt_i : 0 ,
tia_cnt_q : 0 ,
I:reg0x1150=0x1717211d.
Q:reg0x1154=0x2d29150f.
RX0 tia case :11,absolute value dc_i : 0 , value dc_q : 1 
####:reg0x129c=0x38473649.
####:reg0x12a0=0x36493847.
tia_cnt_i : 0 ,
tia_cnt_q : 0 ,
I:reg0x1150=0x1717211d.
Q:reg0x1154=0x2d29150f.
RX0 tia case :12,absolute value dc_i : 0 , value dc_q : 1 
####:reg0x12a0=0x36493847.
rx1 tia cali begin:
Q:reg0x12b0=0x48374c33.
 RX1 :reg0x1130=0x4c334837.
tia_cnt_i : 20 ,
tia_cnt_q : 0 ,
RX1 tia case :0,absolute value dc_i : -1 , value dc_q : 0 
RX1:reg0x12b0=0x48373847.
Q:reg0x12b4=0x48374a37.
 RX1 :reg0x1130=0x4a374837.
tia_cnt_i : 0 ,
tia_cnt_q : 0 ,
RX1 tia case :1,absolute value dc_i : 0 , value dc_q : -1 
RX1:reg0x12b4=0x48374a37.
Q:reg0x12b8=0x44394837.
 RX1 :reg0x1130=0x48374439.
tia_cnt_i : 0 ,
tia_cnt_q : 0 ,
RX1 tia case :2,absolute value dc_i : 0 , value dc_q : -1 
RX1:reg0x12b8=0x44394837.
Q:reg0x12bc=0x3e41463b.
 RX1 :reg0x1130=0x463b3e41.
tia_cnt_i : 0 ,
tia_cnt_q : 0 ,
RX1 tia case :3,absolute value dc_i : 0 , value dc_q : -1 
RX1:reg0x12bc=0x3e41463b.
Q:reg0x12c0=0x3e433c43.
 RX1 :reg0x1130=0x3c433e43.
tia_cnt_i : 0 ,
tia_cnt_q : 0 ,
RX1 tia case :4,absolute value dc_i : 0 , value dc_q : -1 
RX1:reg0x12c0=0x3e433c43.
Q:reg0x12c4=0x3649364b.
 RX1 :reg0x1130=0x364b3649.
tia_cnt_i : 0 ,
tia_cnt_q : 0 ,
RX1 tia case :5,absolute value dc_i : 0 , value dc_q : -1 
RX1:reg0x12c4=0x3649364b.
Q:reg0x12c8=0x3649344b.
 RX1 :reg0x1130=0x344b3649.
tia_cnt_i : 0 ,
tia_cnt_q : 0 ,
RX1 tia case :6,absolute value dc_i : 0 , value dc_q : -1 
RX1:reg0x12c8=0x3649344b.
Q:reg0x12cc=0x34492e51.
 RX1 :reg0x1130=0x2e513449.
tia_cnt_i : 0 ,
tia_cnt_q : 0 ,
RX1 tia case :7,absolute value dc_i : 0 , value dc_q : -1 
RX1:reg0x12cc=0x34492e51.
Q:reg0x12d0=0x324d2e51.
 RX1 :reg0x1130=0x2e51324d.
tia_cnt_i : 0 ,
tia_cnt_q : 0 ,
RX1 tia case :8,absolute value dc_i : 0 , value dc_q : -1 
RX1:reg0x12d0=0x324d2e51.
Q:reg0x12d4=0x324d2e53.
 RX1 :reg0x1130=0x2e53324d.
tia_cnt_i : 0 ,
tia_cnt_q : 0 ,
RX1 tia case :9,absolute value dc_i : 0 , value dc_q : -1 
RX1:reg0x12d4=0x324d2e53.
Q:reg0x12d8=0x324d2e53.
 RX1 :reg0x1130=0x2e53324d.
tia_cnt_i : 0 ,
tia_cnt_q : 0 ,
RX1 tia case :10,absolute value dc_i : 0 , value dc_q : -1 
RX1:reg0x12d8=0x324d2e53.
Q:reg0x12dc=0x324d2c51.
 RX1 :reg0x1130=0x2c51324d.
tia_cnt_i : 0 ,
tia_cnt_q : 0 ,
RX1 tia case :11,absolute value dc_i : 0 , value dc_q : -1 
RX1:reg0x12dc=0x324d2c51.
Q:reg0x12e0=0x344b2e53.
 RX1 :reg0x1130=0x2e53344b.
tia_cnt_i : 0 ,
tia_cnt_q : 0 ,
RX1 tia case :12,absolute value dc_i : 0 , value dc_q : -1 
RX1:reg0x12e0=0x344b2e53.
tia calibration end!
rx0 vga calibration begin
reg0x1120=0x3fc100.
vga case:1 pass.
RX0 vga case:1 ,absolute value dc_i_tmp : 1 , value dc_q_tmp : 2 ,I:reg0x1184=0x1515211d.   Q:reg0x11c0=0x2b29150f.
vga case:2 pass.
RX0 vga case:2 ,absolute value dc_i_tmp : 2 , value dc_q_tmp : 1 ,I:reg0x1188=0x1515211d.   Q:reg0x11c4=0x2d29150f.
vga case:3 pass.
RX0 vga case:3 ,absolute value dc_i_tmp : 1 , value dc_q_tmp : 1 ,I:reg0x118c=0x1715211d.   Q:reg0x11c8=0x2d29150f.
vga case:4 pass.
RX0 vga case:4 ,absolute value dc_i_tmp : 1 , value dc_q_tmp : 1 ,I:reg0x1190=0x1715211d.   Q:reg0x11cc=0x2b27150f.
vga case:5 pass.
RX0 vga case:5 ,absolute value dc_i_tmp : 1 , value dc_q_tmp : 1 ,I:reg0x1194=0x1715211d.   Q:reg0x11d0=0x2b27150f.
vga case:6 pass.
RX0 vga case:6 ,absolute value dc_i_tmp : 1 , value dc_q_tmp : 2 ,I:reg0x1198=0x1715211d.   Q:reg0x11d4=0x2b27150f.
vga case:7 pass.
RX0 vga case:7 ,absolute value dc_i_tmp : 1 , value dc_q_tmp : 1 ,I:reg0x119c=0x1915211d.   Q:reg0x11d8=0x2d27150f.
vga case:8 pass.
RX0 vga case:8 ,absolute value dc_i_tmp : 1 , value dc_q_tmp : 1 ,I:reg0x11a0=0x15172321.   Q:reg0x11dc=0x3127150f.
vga case:9 pass.
RX0 vga case:9 ,absolute value dc_i_tmp : 1 , value dc_q_tmp : 1 ,I:reg0x11a4=0x17172321.   Q:reg0x11e0=0x292b130f.
vga case:10 pass.
RX0 vga case:10 ,absolute value dc_i_tmp : 1 , value dc_q_tmp : 1 ,I:reg0x11a8=0x17132321.   Q:reg0x11e4=0x2b27130f.
vga case:11 pass.
RX0 vga case:11 ,absolute value dc_i_tmp : 1 , value dc_q_tmp : 1 ,I:reg0x11ac=0x19112321.   Q:reg0x11e8=0x3125130f.
vga case:12 pass.
RX0 vga case:12 ,absolute value dc_i_tmp : 1 , value dc_q_tmp : 1 ,I:reg0x11b0=0x15152121.   Q:reg0x11ec=0x2b29110f.
vga case:13 pass.
RX0 vga case:13 ,absolute value dc_i_tmp : 1 , value dc_q_tmp : 0 ,I:reg0x11b4=0x19132121.   Q:reg0x11f0=0x31271311.
vga case:14 pass.
RX0 vga case:14 ,absolute value dc_i_tmp : 0 , value dc_q_tmp : 1 ,I:reg0x11b8=0x19151d21.   Q:reg0x11f4=0x2b291113.
rx1 vga calibration begin
rx1 vga case:1 pass.
RX1 vga case:1 ,absolute value dc_i_tmp : 0 , value dc_q_tmp : 1 ,I:reg0x11fc=0x13192323. Q:reg0x1238=0x2f2b1f1f.
rx1 vga case:2 pass.
RX1 vga case:2 ,absolute value dc_i_tmp : 1 , value dc_q_tmp : 1 ,I:reg0x1200=0x13192323. Q:reg0x123c=0x2f2b1f1f.
rx1 vga case:3 pass.
RX1 vga case:3 ,absolute value dc_i_tmp : 0 , value dc_q_tmp : 2 ,I:reg0x1204=0x111b2123. Q:reg0x1240=0x2f2b1f1f.
rx1 vga case:4 pass.
RX1 vga case:4 ,absolute value dc_i_tmp : 0 , value dc_q_tmp : 1 ,I:reg0x1208=0x15192323. Q:reg0x1244=0x312b1f1f.
rx1 vga case:5 pass.
RX1 vga case:5 ,absolute value dc_i_tmp : 1 , value dc_q_tmp : 1 ,I:reg0x120c=0x15192323. Q:reg0x1248=0x312b1f1f.
rx1 vga case:6 pass.
RX1 vga case:6 ,absolute value dc_i_tmp : 0 , value dc_q_tmp : 0 ,I:reg0x1210=0x15172323. Q:reg0x124c=0x332b1f1f.
rx1 vga case:7 pass.
RX1 vga case:7 ,absolute value dc_i_tmp : 0 , value dc_q_tmp : 1 ,I:reg0x1214=0x111f2123. Q:reg0x1250=0x31291f1f.
rx1 vga case:8 pass.
RX1 vga case:8 ,absolute value dc_i_tmp : 0 , value dc_q_tmp : 0 ,I:reg0x1218=0x17172323. Q:reg0x1254=0x332b1f1f.
rx1 vga case:9 pass.
RX1 vga case:9 ,absolute value dc_i_tmp : 1 , value dc_q_tmp : 1 ,I:reg0x121c=0xf1f2123. Q:reg0x1258=0x312b1f1f.
rx1 vga case:10 pass.
RX1 vga case:10 ,absolute value dc_i_tmp : 1 , value dc_q_tmp : 1 ,I:reg0x1220=0x15172323. Q:reg0x125c=0x3329211f.
rx1 vga case:11 pass.
RX1 vga case:11 ,absolute value dc_i_tmp : 1 , value dc_q_tmp : 1 ,I:reg0x1224=0x15172323. Q:reg0x1260=0x312b211f.
rx1 vga case:12 pass.
RX1 vga case:12 ,absolute value dc_i_tmp : 1 , value dc_q_tmp : 1 ,I:reg0x1228=0x17172323. Q:reg0x1264=0x2f2b211f.
rx1 vga case:13 pass.
RX1 vga case:13 ,absolute value dc_i_tmp : 1 , value dc_q_tmp : 0 ,I:reg0x122c=0x15192323. Q:reg0x1268=0x31291f1d.
rx1 vga case:14 pass.
RX1 vga case:14 ,absolute value dc_i_tmp : 0 , value dc_q_tmp : 1 ,I:reg0x1230=0x191b2323. Q:reg0x126c=0x312b211d.
reg0x1120=0x3c0100.
vga calibration end!
RX0: 0x103c : e0004000 ,0x1040 : 10001102 
RX1: 0x1054 : e0004000 ,0x1058 : 10001100 
THIS CASE J: 0 M: 1 
adc calibration begin
calibration begin
RX0 cali pre ,absolute value dc_i_tmp : 12 , value dc_q_tmp : 7 ,
reg0x1180=0x15151f1d.
reg0x11bc=0x2927150f.
RX1 cali pre ,absolute value dc_i_tmp : 1 , value dc_q_tmp : 1 ,reg0x11f8=0x131b2125.
reg0x1234=0x312d1f1f.
rx0 tia cali begin:
####:reg0x1270=0x522f542b.
tia_cnt_i : 84 ,
tia_cnt_q : 1 ,
I:reg0x1150=0x15151f1d.
Q:reg0x1154=0x2927150f.
RX0 tia case :0,absolute value dc_i : -14 , value dc_q : -2 
####:reg0x1270=0x30007f.
####:reg0x1274=0x4e31502d.
tia_cnt_i : 80 ,
tia_cnt_q : 1 ,
I:reg0x1150=0x15151f1d.
Q:reg0x1154=0x2927150f.
RX0 tia case :1,absolute value dc_i : -13 , value dc_q : -3 
####:reg0x1274=0x32007d.
####:reg0x1278=0x4c314e31.
tia_cnt_i : 78 ,
tia_cnt_q : 1 ,
I:reg0x1150=0x15151f1d.
Q:reg0x1154=0x2927150f.
RX0 tia case :2,absolute value dc_i : -11 , value dc_q : -4 
####:reg0x1278=0x32007f.
####:reg0x127c=0x4a354c33.
tia_cnt_i : 76 ,
tia_cnt_q : 1 ,
I:reg0x1150=0x15151f1d.
Q:reg0x1154=0x2927150f.
RX0 tia case :3,absolute value dc_i : -11 , value dc_q : -4 
####:reg0x127c=0x36007f.
####:reg0x1280=0x3e433e43.
tia_cnt_i : 60 ,
tia_cnt_q : 60 ,
I:reg0x1150=0x15151f1d.
Q:reg0x1154=0x2927150f.
RX0 tia case :4,absolute value dc_i : -10 , value dc_q : -4 
####:reg0x1280=0x27f027f.
####:reg0x1284=0x3e433c43.
tia_cnt_i : 60 ,
tia_cnt_q : 1 ,
I:reg0x1150=0x15151f1d.
Q:reg0x1154=0x2927150f.
RX0 tia case :5,absolute value dc_i : -10 , value dc_q : -4 
####:reg0x1284=0x44007f.
####:reg0x1288=0x3c433c43.
tia_cnt_i : 60 ,
tia_cnt_q : 1 ,
I:reg0x1150=0x15151f1d.
Q:reg0x1154=0x2927150f.
RX0 tia case :6,absolute value dc_i : -11 , value dc_q : -4 
####:reg0x1288=0x44007f.
####:reg0x128c=0x3a453845.
tia_cnt_i : 56 ,
tia_cnt_q : 1 ,
I:reg0x1150=0x15151f1d.
Q:reg0x1154=0x2927150f.
RX0 tia case :7,absolute value dc_i : -10 , value dc_q : -4 
####:reg0x128c=0x46007d.
####:reg0x1290=0x38473449.
tia_cnt_i : 52 ,
tia_cnt_q : 1 ,
I:reg0x1150=0x15151f1d.
Q:reg0x1154=0x2927150f.
RX0 tia case :8,absolute value dc_i : -11 , value dc_q : -3 
####:reg0x1290=0x48007d.
####:reg0x1294=0x36493649.
tia_cnt_i : 54 ,
tia_cnt_q : 1 ,
I:reg0x1150=0x15151f1d.
Q:reg0x1154=0x2927150f.
RX0 tia case :9,absolute value dc_i : -9 , value dc_q : -4 
####:reg0x1294=0x4a007f.
####:reg0x1298=0x3a47364b.
tia_cnt_i : 52 ,
tia_cnt_q : 56 ,
I:reg0x1150=0x15151f1d.
Q:reg0x1154=0x2927150f.
RX0 tia case :10,absolute value dc_i : -10 , value dc_q : -4 
####:reg0x1298=0x27f027f.
####:reg0x129c=0x38473649.
tia_cnt_i : 54 ,
tia_cnt_q : 1 ,
I:reg0x1150=0x15151f1d.
Q:reg0x1154=0x2927150f.
RX0 tia case :11,absolute value dc_i : -10 , value dc_q : -4 
####:reg0x129c=0x48007f.
####:reg0x12a0=0x3649364b.
tia_cnt_i : 52 ,
tia_cnt_q : 54 ,
I:reg0x1150=0x15151f1d.
Q:reg0x1154=0x2927150f.
RX0 tia case :12,absolute value dc_i : -10 , value dc_q : -4 
####:reg0x12a0=0x27f027f.
rx1 tia cali begin:
Q:reg0x12b0=0x48374835.
 RX1 :reg0x1130=0x48354837.
tia_cnt_i : 0 ,
tia_cnt_q : 0 ,
RX1 tia case :0,absolute value dc_i : 0 , value dc_q : -1 
RX1:reg0x12b0=0x48374835.
Q:reg0x12b4=0x46394a37.
 RX1 :reg0x1130=0x4a374639.
tia_cnt_i : 0 ,
tia_cnt_q : 0 ,
RX1 tia case :1,absolute value dc_i : 0 , value dc_q : -1 
RX1:reg0x12b4=0x46394a37.
Q:reg0x12b8=0x46394639.
 RX1 :reg0x1130=0x46394639.
tia_cnt_i : 0 ,
tia_cnt_q : 1 ,
RX1 tia case :2,absolute value dc_i : 0 , value dc_q : -1 
RX1:reg0x12b8=0x463a4639.
Q:reg0x12bc=0x3e413e41.
 RX1 :reg0x1130=0x3e413e41.
tia_cnt_i : 0 ,
tia_cnt_q : 1 ,
RX1 tia case :3,absolute value dc_i : 0 , value dc_q : -1 
RX1:reg0x12bc=0x3e423e41.
Q:reg0x12c0=0x3c433c43.
 RX1 :reg0x1130=0x3c433c43.
tia_cnt_i : 0 ,
tia_cnt_q : 12 ,
RX1 tia case :4,absolute value dc_i : 1 , value dc_q : -1 
RX1:reg0x12c0=0x3c4f3c43.
Q:reg0x12c4=0x3649344b.
 RX1 :reg0x1130=0x344b3649.
tia_cnt_i : 0 ,
tia_cnt_q : 3 ,
RX1 tia case :5,absolute value dc_i : 0 , value dc_q : -1 
RX1:reg0x12c4=0x344c344b.
Q:reg0x12c8=0x3847344b.
 RX1 :reg0x1130=0x344b3847.
tia_cnt_i : 0 ,
tia_cnt_q : 7 ,
RX1 tia case :6,absolute value dc_i : 1 , value dc_q : -1 
RX1:reg0x12c8=0x344e344b.
Q:reg0x12cc=0x36492e51.
 RX1 :reg0x1130=0x2e513649.
tia_cnt_i : 0 ,
tia_cnt_q : 1 ,
RX1 tia case :7,absolute value dc_i : 0 , value dc_q : -1 
RX1:reg0x12cc=0x2e4a2e51.
Q:reg0x12d0=0x324d2e53.
 RX1 :reg0x1130=0x2e53324d.
tia_cnt_i : 0 ,
tia_cnt_q : 1 ,
RX1 tia case :8,absolute value dc_i : 0 , value dc_q : -1 
RX1:reg0x12d0=0x2e4e2e53.
Q:reg0x12d4=0x324d2e53.
 RX1 :reg0x1130=0x2e53324d.
tia_cnt_i : 0 ,
tia_cnt_q : 1 ,
RX1 tia case :9,absolute value dc_i : 1 , value dc_q : -1 
RX1:reg0x12d4=0x2e4e2e53.
Q:reg0x12d8=0x324d2e53.
 RX1 :reg0x1130=0x2e53324d.
tia_cnt_i : 0 ,
tia_cnt_q : 1 ,
RX1 tia case :10,absolute value dc_i : 1 , value dc_q : -1 
RX1:reg0x12d8=0x2e4e2e53.
Q:reg0x12dc=0x324d2e53.
 RX1 :reg0x1130=0x2e53324d.
tia_cnt_i : 0 ,
tia_cnt_q : 2 ,
RX1 tia case :11,absolute value dc_i : 0 , value dc_q : -1 
RX1:reg0x12dc=0x2e4f2e53.
Q:reg0x12e0=0x324d2a55.
 RX1 :reg0x1130=0x2a55324d.
tia_cnt_i : 0 ,
tia_cnt_q : 1 ,
RX1 tia case :12,absolute value dc_i : 0 , value dc_q : -1 
RX1:reg0x12e0=0x2a4e2a55.
tia calibration end!
rx0 vga calibration begin
reg0x1120=0x3fc100.
vga case:1 pass.
RX0 vga case:1 ,absolute value dc_i_tmp : 15 , value dc_q_tmp : 7 ,I:reg0x1184=0x1515211d.   Q:reg0x11c0=0x2b27190b.
vga case:2 pass.
RX0 vga case:2 ,absolute value dc_i_tmp : 15 , value dc_q_tmp : 7 ,I:reg0x1188=0x1515211d.   Q:reg0x11c4=0x2b27190b.
vga case:3 pass.
RX0 vga case:3 ,absolute value dc_i_tmp : 14 , value dc_q_tmp : 7 ,I:reg0x118c=0x15172915.   Q:reg0x11c8=0x2d27190b.
vga case:4 pass.
RX0 vga case:4 ,absolute value dc_i_tmp : 14 , value dc_q_tmp : 7 ,I:reg0x1190=0x15172915.   Q:reg0x11cc=0x2d27190b.
vga case:5 pass.
RX0 vga case:5 ,absolute value dc_i_tmp : 11 , value dc_q_tmp : 6 ,I:reg0x1194=0x17172915.   Q:reg0x11d0=0x2f27190b.
vga case:6 pass.
RX0 vga case:6 ,absolute value dc_i_tmp : 11 , value dc_q_tmp : 6 ,I:reg0x1198=0x17172915.   Q:reg0x11d4=0x3127190b.
vga case:7 pass.
RX0 vga case:7 ,absolute value dc_i_tmp : 12 , value dc_q_tmp : 6 ,I:reg0x119c=0x17172915.   Q:reg0x11d8=0x3125190b.
vga case:8 pass.
RX0 vga case:8 ,absolute value dc_i_tmp : 12 , value dc_q_tmp : 7 ,I:reg0x11a0=0x15152b13.   Q:reg0x11dc=0x2929190b.
vga case:9 pass.
RX0 vga case:9 ,absolute value dc_i_tmp : 12 , value dc_q_tmp : 6 ,I:reg0x11a4=0x13192b0f.   Q:reg0x11e0=0x2b291909.
vga case:10 pass.
RX0 vga case:10 ,absolute value dc_i_tmp : 11 , value dc_q_tmp : 6 ,I:reg0x11a8=0x1d11310d.   Q:reg0x11e4=0x29291b09.
vga case:11 pass.
RX0 vga case:11 ,absolute value dc_i_tmp : 12 , value dc_q_tmp : 6 ,I:reg0x11ac=0x131d3309.   Q:reg0x11e8=0x31271d07.
vga case:12 pass.
RX0 vga case:12 ,absolute value dc_i_tmp : 12 , value dc_q_tmp : 6 ,I:reg0x11b0=0x19133905.   Q:reg0x11ec=0x2d272107.
vga case:13 pass.
RX0 vga case:13 ,absolute value dc_i_tmp : 12 , value dc_q_tmp : 5 ,I:reg0x11b4=0xf1d3f01.   Q:reg0x11f0=0x2b272103.
vga case:14 pass.
RX0 vga case:14 ,absolute value dc_i_tmp : 10 , value dc_q_tmp : 5 ,I:reg0x11b8=0x13f3f01.   Q:reg0x11f4=0x2d272901.
rx1 vga calibration begin
rx1 vga case:1 pass.
RX1 vga case:1 ,absolute value dc_i_tmp : 2 , value dc_q_tmp : 2 ,I:reg0x11fc=0x131b2125. Q:reg0x1238=0x2f2b1f1f.
rx1 vga case:2 pass.
RX1 vga case:2 ,absolute value dc_i_tmp : 3 , value dc_q_tmp : 2 ,I:reg0x1200=0x11192125. Q:reg0x123c=0x2f2b1f1f.
rx1 vga case:3 pass.
RX1 vga case:3 ,absolute value dc_i_tmp : 2 , value dc_q_tmp : 3 ,I:reg0x1204=0x131b2125. Q:reg0x1240=0x2f2b1f1f.
rx1 vga case:4 pass.
RX1 vga case:4 ,absolute value dc_i_tmp : 3 , value dc_q_tmp : 1 ,I:reg0x1208=0x11192125. Q:reg0x1244=0x312b1f1f.
rx1 vga case:5 pass.
RX1 vga case:5 ,absolute value dc_i_tmp : 1 , value dc_q_tmp : 2 ,I:reg0x120c=0x13192125. Q:reg0x1248=0x312b1f1f.
rx1 vga case:6 pass.
RX1 vga case:6 ,absolute value dc_i_tmp : 1 , value dc_q_tmp : 1 ,I:reg0x1210=0x13192125. Q:reg0x124c=0x31291f1f.
rx1 vga case:7 pass.
RX1 vga case:7 ,absolute value dc_i_tmp : 1 , value dc_q_tmp : 1 ,I:reg0x1214=0x13192125. Q:reg0x1250=0x33291f1f.
rx1 vga case:8 pass.
RX1 vga case:8 ,absolute value dc_i_tmp : 2 , value dc_q_tmp : 1 ,I:reg0x1218=0x15172125. Q:reg0x1254=0x31291f1f.
rx1 vga case:9 pass.
RX1 vga case:9 ,absolute value dc_i_tmp : 1 , value dc_q_tmp : 1 ,I:reg0x121c=0x131b1f25. Q:reg0x1258=0x312b1f1f.
rx1 vga case:10 pass.
RX1 vga case:10 ,absolute value dc_i_tmp : 1 , value dc_q_tmp : 1 ,I:reg0x1220=0x111d1d25. Q:reg0x125c=0x3329211f.
rx1 vga case:11 pass.
RX1 vga case:11 ,absolute value dc_i_tmp : 2 , value dc_q_tmp : 1 ,I:reg0x1224=0x17171f27. Q:reg0x1260=0x3129211f.
rx1 vga case:12 pass.
RX1 vga case:12 ,absolute value dc_i_tmp : 2 , value dc_q_tmp : 0 ,I:reg0x1228=0xf1f1d29. Q:reg0x1264=0x312b211f.
rx1 vga case:13 pass.
RX1 vga case:13 ,absolute value dc_i_tmp : 1 , value dc_q_tmp : 1 ,I:reg0x122c=0x111b1b29. Q:reg0x1268=0x33291f1d.
rx1 vga case:14 pass.
RX1 vga case:14 ,absolute value dc_i_tmp : 1 , value dc_q_tmp : 0 ,I:reg0x1230=0x111f172b. Q:reg0x126c=0x2f29211d.
reg0x1120=0x3c0100.
vga calibration end!
RX0: 0x103c : e0008000 ,0x1040 : 20001102 
RX1: 0x1054 : e0008000 ,0x1058 : 20001100 
THIS CASE J: 0 M: 2 
adc calibration begin
calibration begin
RX0 cali pre ,absolute value dc_i_tmp : 11 , value dc_q_tmp : 7 ,
reg0x1180=0x1713211b.
reg0x11bc=0x2d29150f.
RX1 cali pre ,absolute value dc_i_tmp : 2 , value dc_q_tmp : 2 ,reg0x11f8=0x131b2125.
reg0x1234=0x2f2b211f.
rx0 tia cali begin:
####:reg0x1270=0x502f522d.
tia_cnt_i : 82 ,
tia_cnt_q : 1 ,
I:reg0x1150=0x1713211b.
Q:reg0x1154=0x2d29150f.
RX0 tia case :0,absolute value dc_i : -8 , value dc_q : -3 
####:reg0x1270=0x30007f.
####:reg0x1274=0x4e31502d.
tia_cnt_i : 80 ,
tia_cnt_q : 1 ,
I:reg0x1150=0x1713211b.
Q:reg0x1154=0x2d29150f.
RX0 tia case :1,absolute value dc_i : -8 , value dc_q : -3 
####:reg0x1274=0x32007d.
####:reg0x1278=0x4c334c31.
tia_cnt_i : 76 ,
tia_cnt_q : 1 ,
I:reg0x1150=0x1713211b.
Q:reg0x1154=0x2d29150f.
RX0 tia case :2,absolute value dc_i : -8 , value dc_q : -4 
####:reg0x1278=0x34007d.
####:reg0x127c=0x4a354c33.
tia_cnt_i : 76 ,
tia_cnt_q : 1 ,
I:reg0x1150=0x1713211b.
Q:reg0x1154=0x2d29150f.
RX0 tia case :3,absolute value dc_i : -7 , value dc_q : -4 
####:reg0x127c=0x36007f.
####:reg0x1280=0x3c413e43.
tia_cnt_i : 60 ,
tia_cnt_q : 62 ,
I:reg0x1150=0x1713211b.
Q:reg0x1154=0x2d29150f.
RX0 tia case :4,absolute value dc_i : -7 , value dc_q : -4 
####:reg0x1280=0x27f027f.
####:reg0x1284=0x3e433c41.
tia_cnt_i : 60 ,
tia_cnt_q : 1 ,
I:reg0x1150=0x1713211b.
Q:reg0x1154=0x2d29150f.
RX0 tia case :5,absolute value dc_i : -7 , value dc_q : -4 
####:reg0x1284=0x44007d.
####:reg0x1288=0x3c433c43.
tia_cnt_i : 60 ,
tia_cnt_q : 1 ,
I:reg0x1150=0x1713211b.
Q:reg0x1154=0x2d29150f.
RX0 tia case :6,absolute value dc_i : -7 , value dc_q : -4 
####:reg0x1288=0x44007f.
####:reg0x128c=0x3c433a47.
tia_cnt_i : 56 ,
tia_cnt_q : 60 ,
I:reg0x1150=0x1713211b.
Q:reg0x1154=0x2d29150f.
RX0 tia case :7,absolute value dc_i : -8 , value dc_q : -4 
####:reg0x128c=0x27f027f.
####:reg0x1290=0x3649364b.
tia_cnt_i : 52 ,
tia_cnt_q : 54 ,
I:reg0x1150=0x1713211b.
Q:reg0x1154=0x2d29150f.
RX0 tia case :8,absolute value dc_i : -7 , value dc_q : -4 
####:reg0x1290=0x27f027f.
####:reg0x1294=0x3649364b.
tia_cnt_i : 52 ,
tia_cnt_q : 54 ,
I:reg0x1150=0x1713211b.
Q:reg0x1154=0x2d29150f.
RX0 tia case :9,absolute value dc_i : -8 , value dc_q : -4 
####:reg0x1294=0x27f027f.
####:reg0x1298=0x3847364b.
tia_cnt_i : 52 ,
tia_cnt_q : 56 ,
I:reg0x1150=0x1713211b.
Q:reg0x1154=0x2d29150f.
RX0 tia case :10,absolute value dc_i : -7 , value dc_q : -4 
####:reg0x1298=0x27f027f.
####:reg0x129c=0x3847364b.
tia_cnt_i : 52 ,
tia_cnt_q : 56 ,
I:reg0x1150=0x1713211b.
Q:reg0x1154=0x2d29150f.
RX0 tia case :11,absolute value dc_i : -8 , value dc_q : -4 
####:reg0x129c=0x27f027f.
####:reg0x12a0=0x3847364b.
tia_cnt_i : 52 ,
tia_cnt_q : 56 ,
I:reg0x1150=0x1713211b.
Q:reg0x1154=0x2d29150f.
RX0 tia case :12,absolute value dc_i : -8 , value dc_q : -4 
####:reg0x12a0=0x27f027f.
rx1 tia cali begin:
Q:reg0x12b0=0x48374c33.
 RX1 :reg0x1130=0x4c334837.
tia_cnt_i : 0 ,
tia_cnt_q : 17 ,
RX1 tia case :0,absolute value dc_i : 0 , value dc_q : -1 
RX1:reg0x12b0=0x4c484c33.
Q:reg0x12b4=0x46394a37.
 RX1 :reg0x1130=0x4a374639.
tia_cnt_i : 0 ,
tia_cnt_q : 29 ,
RX1 tia case :1,absolute value dc_i : 0 , value dc_q : -1 
RX1:reg0x12b4=0x4a564a37.
Q:reg0x12b8=0x44394837.
 RX1 :reg0x1130=0x48374439.
tia_cnt_i : 0 ,
tia_cnt_q : 49 ,
RX1 tia case :2,absolute value dc_i : 0 , value dc_q : -1 
RX1:reg0x12b8=0x486a4837.
Q:reg0x12bc=0x443b443b.
 RX1 :reg0x1130=0x443b443b.
tia_cnt_i : 0 ,
tia_cnt_q : 68 ,
RX1 tia case :3,absolute value dc_i : 0 , value dc_q : -3 
RX1:reg0x12bc=0x447f443b.
Q:reg0x12c0=0x3c433845.
 RX1 :reg0x1130=0x38453c43.
tia_cnt_i : 0 ,
tia_cnt_q : 60 ,
RX1 tia case :4,absolute value dc_i : 0 , value dc_q : -3 
RX1:reg0x12c0=0x387f3845.
Q:reg0x12c4=0x3847344b.
 RX1 :reg0x1130=0x344b3847.
tia_cnt_i : 0 ,
tia_cnt_q : 56 ,
RX1 tia case :5,absolute value dc_i : 0 , value dc_q : -4 
RX1:reg0x12c4=0x347f344b.
Q:reg0x12c8=0x364b2e51.
 RX1 :reg0x1130=0x2e51364b.
tia_cnt_i : 0 ,
tia_cnt_q : 52 ,
RX1 tia case :6,absolute value dc_i : 0 , value dc_q : -3 
RX1:reg0x12c8=0x2e7f2e51.
Q:reg0x12cc=0x344b324f.
 RX1 :reg0x1130=0x324f344b.
tia_cnt_i : 0 ,
tia_cnt_q : 52 ,
RX1 tia case :7,absolute value dc_i : 1 , value dc_q : -3 
RX1:reg0x12cc=0x327f324f.
Q:reg0x12d0=0x344b2e53.
 RX1 :reg0x1130=0x2e53344b.
tia_cnt_i : 0 ,
tia_cnt_q : 52 ,
RX1 tia case :8,absolute value dc_i : 0 , value dc_q : -3 
RX1:reg0x12d0=0x2e7f2e53.
Q:reg0x12d4=0x324d2c53.
 RX1 :reg0x1130=0x2c53324d.
tia_cnt_i : 0 ,
tia_cnt_q : 50 ,
RX1 tia case :9,absolute value dc_i : 0 , value dc_q : -4 
RX1:reg0x12d4=0x2c7f2c53.
Q:reg0x12d8=0x324d2c53.
 RX1 :reg0x1130=0x2c53324d.
tia_cnt_i : 0 ,
tia_cnt_q : 50 ,
RX1 tia case :10,absolute value dc_i : 0 , value dc_q : -4 
RX1:reg0x12d8=0x2c7f2c53.
Q:reg0x12dc=0x324d2c53.
 RX1 :reg0x1130=0x2c53324d.
tia_cnt_i : 0 ,
tia_cnt_q : 50 ,
RX1 tia case :11,absolute value dc_i : 0 , value dc_q : -3 
RX1:reg0x12dc=0x2c7f2c53.
Q:reg0x12e0=0x324d2c53.
 RX1 :reg0x1130=0x2c53324d.
tia_cnt_i : 0 ,
tia_cnt_q : 50 ,
RX1 tia case :12,absolute value dc_i : 0 , value dc_q : -3 
RX1:reg0x12e0=0x2c7f2c53.
tia calibration end!
rx0 vga calibration begin
reg0x1120=0x3fc100.
vga case:1 pass.
RX0 vga case:1 ,absolute value dc_i_tmp : 13 , value dc_q_tmp : 8 ,I:reg0x1184=0x15172713.   Q:reg0x11c0=0x2d29190b.
vga case:2 pass.
RX0 vga case:2 ,absolute value dc_i_tmp : 14 , value dc_q_tmp : 8 ,I:reg0x1188=0x15172915.   Q:reg0x11c4=0x2b27190b.
vga case:3 pass.
RX0 vga case:3 ,absolute value dc_i_tmp : 11 , value dc_q_tmp : 7 ,I:reg0x118c=0x17192713.   Q:reg0x11c8=0x2d27190b.
vga case:4 pass.
RX0 vga case:4 ,absolute value dc_i_tmp : 12 , value dc_q_tmp : 7 ,I:reg0x1190=0x15172915.   Q:reg0x11cc=0x2d27190b.
vga case:5 pass.
RX0 vga case:5 ,absolute value dc_i_tmp : 12 , value dc_q_tmp : 8 ,I:reg0x1194=0x15172915.   Q:reg0x11d0=0x2d27190b.
vga case:6 pass.
RX0 vga case:6 ,absolute value dc_i_tmp : 10 , value dc_q_tmp : 6 ,I:reg0x1198=0x17172915.   Q:reg0x11d4=0x3127190b.
vga case:7 pass.
RX0 vga case:7 ,absolute value dc_i_tmp : 10 , value dc_q_tmp : 7 ,I:reg0x119c=0x17172915.   Q:reg0x11d8=0x3125190b.
vga case:8 pass.
RX0 vga case:8 ,absolute value dc_i_tmp : 10 , value dc_q_tmp : 7 ,I:reg0x11a0=0x17172b13.   Q:reg0x11dc=0x2929190b.
vga case:9 pass.
RX0 vga case:9 ,absolute value dc_i_tmp : 10 , value dc_q_tmp : 7 ,I:reg0x11a4=0x151b2b0f.   Q:reg0x11e0=0x2b291b0b.
vga case:10 pass.
RX0 vga case:10 ,absolute value dc_i_tmp : 11 , value dc_q_tmp : 7 ,I:reg0x11a8=0x190f310d.   Q:reg0x11e4=0x31231d09.
vga case:11 pass.
RX0 vga case:11 ,absolute value dc_i_tmp : 11 , value dc_q_tmp : 6 ,I:reg0x11ac=0x19133509.   Q:reg0x11e8=0x31271d07.
vga case:12 pass.
RX0 vga case:12 ,absolute value dc_i_tmp : 11 , value dc_q_tmp : 6 ,I:reg0x11b0=0x19173905.   Q:reg0x11ec=0x2b2d1d05.
vga case:13 pass.
RX0 vga case:13 ,absolute value dc_i_tmp : 11 , value dc_q_tmp : 6 ,I:reg0x11b4=0xf1f3f01.   Q:reg0x11f0=0x2d2b2103.
vga case:14 pass.
RX0 vga case:14 ,absolute value dc_i_tmp : 7 , value dc_q_tmp : 5 ,I:reg0x11b8=0x13f3f01.   Q:reg0x11f4=0x2d292901.
rx1 vga calibration begin
rx1 vga case:1 pass.
RX1 vga case:1 ,absolute value dc_i_tmp : 1 , value dc_q_tmp : 1 ,I:reg0x11fc=0x13192125. Q:reg0x1238=0x2f2b211f.
rx1 vga case:2 pass.
RX1 vga case:2 ,absolute value dc_i_tmp : 1 , value dc_q_tmp : 2 ,I:reg0x1200=0x13192125. Q:reg0x123c=0x2f2b211f.
rx1 vga case:3 pass.
RX1 vga case:3 ,absolute value dc_i_tmp : 2 , value dc_q_tmp : 3 ,I:reg0x1204=0x13192125. Q:reg0x1240=0x2f2b211f.
rx1 vga case:4 pass.
RX1 vga case:4 ,absolute value dc_i_tmp : 2 , value dc_q_tmp : 3 ,I:reg0x1208=0x13192125. Q:reg0x1244=0x2f2b211f.
rx1 vga case:5 pass.
RX1 vga case:5 ,absolute value dc_i_tmp : 1 , value dc_q_tmp : 1 ,I:reg0x120c=0x15192125. Q:reg0x1248=0x312b211f.
rx1 vga case:6 pass.
RX1 vga case:6 ,absolute value dc_i_tmp : 2 , value dc_q_tmp : 2 ,I:reg0x1210=0x13172125. Q:reg0x124c=0x312b211f.
rx1 vga case:7 pass.
RX1 vga case:7 ,absolute value dc_i_tmp : 1 , value dc_q_tmp : 1 ,I:reg0x1214=0x15172125. Q:reg0x1250=0x3129211f.
rx1 vga case:8 pass.
RX1 vga case:8 ,absolute value dc_i_tmp : 2 , value dc_q_tmp : 2 ,I:reg0x1218=0x111b1f25. Q:reg0x1254=0x312b211f.
rx1 vga case:9 pass.
RX1 vga case:9 ,absolute value dc_i_tmp : 2 , value dc_q_tmp : 1 ,I:reg0x121c=0xf1f1d25. Q:reg0x1258=0x33291f1d.
rx1 vga case:10 pass.
RX1 vga case:10 ,absolute value dc_i_tmp : 1 , value dc_q_tmp : 2 ,I:reg0x1220=0x15191f27. Q:reg0x125c=0x3329211d.
rx1 vga case:11 pass.
RX1 vga case:11 ,absolute value dc_i_tmp : 2 , value dc_q_tmp : 1 ,I:reg0x1224=0x13191d27. Q:reg0x1260=0x2f2b211d.
rx1 vga case:12 pass.
RX1 vga case:12 ,absolute value dc_i_tmp : 1 , value dc_q_tmp : 1 ,I:reg0x1228=0x15171d29. Q:reg0x1264=0x3327231d.
rx1 vga case:13 pass.
RX1 vga case:13 ,absolute value dc_i_tmp : 1 , value dc_q_tmp : 1 ,I:reg0x122c=0x131d1b2b. Q:reg0x1268=0x2d2b211b.
rx1 vga case:14 pass.
RX1 vga case:14 ,absolute value dc_i_tmp : 0 , value dc_q_tmp : 1 ,I:reg0x1230=0x111b172d. Q:reg0x126c=0x2d2d231b.
reg0x1120=0x3c0100.
vga calibration end!
RX0: 0x103c : e000c000 ,0x1040 : 30001102 
RX1: 0x1054 : e000c000 ,0x1058 : 30001100 
THIS CASE J: 0 M: 3 
adc calibration begin
calibration begin
RX0 cali pre ,absolute value dc_i_tmp : 15 , value dc_q_tmp : 15 ,
reg0x1180=0x1713211b.
reg0x11bc=0x2d29150f.
RX1 cali pre ,absolute value dc_i_tmp : 15 , value dc_q_tmp : 15 ,reg0x11f8=0x131b2125.
reg0x1234=0x2f2b211f.
rx0 tia cali begin:
####:reg0x1270=0x502f502d.
tia_cnt_i : 80 ,
tia_cnt_q : 1 ,
I:reg0x1150=0x1713211b.
Q:reg0x1154=0x2d29150f.
RX0 tia case :0,absolute value dc_i : -16 , value dc_q : -16 
####:reg0x1270=0x30007d.
####:reg0x1274=0x4e31502f.
tia_cnt_i : 80 ,
tia_cnt_q : 1 ,
I:reg0x1150=0x1713211b.
Q:reg0x1154=0x2d29150f.
RX0 tia case :1,absolute value dc_i : -16 , value dc_q : -16 
####:reg0x1274=0x32007f.
####:reg0x1278=0x4c334c31.
tia_cnt_i : 76 ,
tia_cnt_q : 1 ,
I:reg0x1150=0x1713211b.
Q:reg0x1154=0x2d29150f.
RX0 tia case :2,absolute value dc_i : -16 , value dc_q : -16 
####:reg0x1278=0x34007d.
####:reg0x127c=0x4a354c33.
tia_cnt_i : 76 ,
tia_cnt_q : 1 ,
I:reg0x1150=0x1713211b.
Q:reg0x1154=0x2d29150f.
RX0 tia case :3,absolute value dc_i : -16 , value dc_q : -16 
####:reg0x127c=0x36007f.
####:reg0x1280=0x3c413c43.
tia_cnt_i : 60 ,
tia_cnt_q : 1 ,
I:reg0x1150=0x1713211b.
Q:reg0x1154=0x2d29150f.
RX0 tia case :4,absolute value dc_i : -16 , value dc_q : -16 
####:reg0x1280=0x42007f.
####:reg0x1284=0x3c413c43.
tia_cnt_i : 60 ,
tia_cnt_q : 1 ,
I:reg0x1150=0x1713211b.
Q:reg0x1154=0x2d29150f.
RX0 tia case :5,absolute value dc_i : -16 , value dc_q : -16 
####:reg0x1284=0x42007f.
####:reg0x1288=0x3c433a45.
tia_cnt_i : 58 ,
tia_cnt_q : 1 ,
I:reg0x1150=0x1713211b.
Q:reg0x1154=0x2d29150f.
RX0 tia case :6,absolute value dc_i : -16 , value dc_q : -16 
####:reg0x1288=0x44007f.
####:reg0x128c=0x38453845.
tia_cnt_i : 56 ,
tia_cnt_q : 1 ,
I:reg0x1150=0x1713211b.
Q:reg0x1154=0x2d29150f.
RX0 tia case :7,absolute value dc_i : -16 , value dc_q : -16 
####:reg0x128c=0x46007d.
####:reg0x1290=0x3649344b.
tia_cnt_i : 52 ,
tia_cnt_q : 1 ,
I:reg0x1150=0x1713211b.
Q:reg0x1154=0x2d29150f.
RX0 tia case :8,absolute value dc_i : -16 , value dc_q : -16 
####:reg0x1290=0x4a007f.
####:reg0x1294=0x3649364b.
tia_cnt_i : 52 ,
tia_cnt_q : 54 ,
I:reg0x1150=0x1713211b.
Q:reg0x1154=0x2d29150f.
RX0 tia case :9,absolute value dc_i : -16 , value dc_q : -16 
####:reg0x1294=0x27f027f.
####:reg0x1298=0x38473649.
tia_cnt_i : 54 ,
tia_cnt_q : 1 ,
I:reg0x1150=0x1713211b.
Q:reg0x1154=0x2d29150f.
RX0 tia case :10,absolute value dc_i : -16 , value dc_q : -16 
####:reg0x1298=0x48007f.
####:reg0x129c=0x38473649.
tia_cnt_i : 54 ,
tia_cnt_q : 1 ,
I:reg0x1150=0x1713211b.
Q:reg0x1154=0x2d29150f.
RX0 tia case :11,absolute value dc_i : -16 , value dc_q : -16 
####:reg0x129c=0x48007f.
####:reg0x12a0=0x38473449.
tia_cnt_i : 52 ,
tia_cnt_q : 1 ,
I:reg0x1150=0x1713211b.
Q:reg0x1154=0x2d29150f.
RX0 tia case :12,absolute value dc_i : -16 , value dc_q : -16 
####:reg0x12a0=0x48007d.
rx1 tia cali begin:
Q:reg0x12b0=0x4a354c31.
 RX1 :reg0x1130=0x4c314a35.
tia_cnt_i : 76 ,
tia_cnt_q : 1 ,
RX1 tia case :0,absolute value dc_i : -16 , value dc_q : -16 
RX1:reg0x12b0=0x36007d.
Q:reg0x12b4=0x46394835.
 RX1 :reg0x1130=0x48354639.
tia_cnt_i : 72 ,
tia_cnt_q : 1 ,
RX1 tia case :1,absolute value dc_i : -16 , value dc_q : -16 
RX1:reg0x12b4=0x3a007d.
Q:reg0x12b8=0x46394837.
 RX1 :reg0x1130=0x48374639.
tia_cnt_i : 72 ,
tia_cnt_q : 1 ,
RX1 tia case :2,absolute value dc_i : -16 , value dc_q : -16 
RX1:reg0x12b8=0x3a007f.
Q:reg0x12bc=0x3e41423d.
 RX1 :reg0x1130=0x423d3e41.
tia_cnt_i : 66 ,
tia_cnt_q : 1 ,
RX1 tia case :3,absolute value dc_i : -16 , value dc_q : -16 
RX1:reg0x12bc=0x42007f.
Q:reg0x12c0=0x3a453a45.
 RX1 :reg0x1130=0x3a453a45.
tia_cnt_i : 58 ,
tia_cnt_q : 1 ,
RX1 tia case :4,absolute value dc_i : -16 , value dc_q : -16 
RX1:reg0x12c0=0x46007f.
Q:reg0x12c4=0x3847344b.
 RX1 :reg0x1130=0x344b3847.
tia_cnt_i : 52 ,
tia_cnt_q : 1 ,
RX1 tia case :5,absolute value dc_i : -16 , value dc_q : -16 
RX1:reg0x12c4=0x48007f.
Q:reg0x12c8=0x3649304d.
 RX1 :reg0x1130=0x304d3649.
tia_cnt_i : 48 ,
tia_cnt_q : 1 ,
RX1 tia case :6,absolute value dc_i : -16 , value dc_q : -16 
RX1:reg0x12c8=0x4a007d.
Q:reg0x12cc=0x34492e51.
 RX1 :reg0x1130=0x2e513449.
tia_cnt_i : 46 ,
tia_cnt_q : 1 ,
RX1 tia case :7,absolute value dc_i : -16 , value dc_q : -16 
RX1:reg0x12cc=0x4a007f.
Q:reg0x12d0=0x344b2c51.
 RX1 :reg0x1130=0x2c51344b.
tia_cnt_i : 44 ,
tia_cnt_q : 1 ,
RX1 tia case :8,absolute value dc_i : -16 , value dc_q : -16 
RX1:reg0x12d0=0x4c007d.
Q:reg0x12d4=0x324d2c53.
 RX1 :reg0x1130=0x2c53324d.
tia_cnt_i : 44 ,
tia_cnt_q : 1 ,
RX1 tia case :9,absolute value dc_i : -16 , value dc_q : -16 
RX1:reg0x12d4=0x4e007f.
Q:reg0x12d8=0x324d2c53.
 RX1 :reg0x1130=0x2c53324d.
tia_cnt_i : 44 ,
tia_cnt_q : 1 ,
RX1 tia case :10,absolute value dc_i : -16 , value dc_q : -16 
RX1:reg0x12d8=0x4e007f.
Q:reg0x12dc=0x344b2c53.
 RX1 :reg0x1130=0x2c53344b.
tia_cnt_i : 44 ,
tia_cnt_q : 1 ,
RX1 tia case :11,absolute value dc_i : -16 , value dc_q : -16 
RX1:reg0x12dc=0x4c007f.
Q:reg0x12e0=0x324d2c53.
 RX1 :reg0x1130=0x2c53324d.
tia_cnt_i : 44 ,
tia_cnt_q : 1 ,
RX1 tia case :12,absolute value dc_i : -16 , value dc_q : -16 
RX1:reg0x12e0=0x4e007f.
tia calibration end!
rx0 vga calibration begin
reg0x1120=0x3fc100.
vga case:1 pass.
RX0 vga case:1 ,absolute value dc_i_tmp : 15 , value dc_q_tmp : 15 ,I:reg0x1184=0x15172713.   Q:reg0x11c0=0x2d29190b.
vga case:2 pass.
RX0 vga case:2 ,absolute value dc_i_tmp : 15 , value dc_q_tmp : 15 ,I:reg0x1188=0x15172915.   Q:reg0x11c4=0x2b27190b.
vga case:3 pass.
RX0 vga case:3 ,absolute value dc_i_tmp : 15 , value dc_q_tmp : 15 ,I:reg0x118c=0x17192713.   Q:reg0x11c8=0x2d27190b.
vga case:4 pass.
RX0 vga case:4 ,absolute value dc_i_tmp : 15 , value dc_q_tmp : 15 ,I:reg0x1190=0x15172915.   Q:reg0x11cc=0x2d27190b.
vga case:5 pass.
RX0 vga case:5 ,absolute value dc_i_tmp : 15 , value dc_q_tmp : 15 ,I:reg0x1194=0x15172915.   Q:reg0x11d0=0x2d27190b.
vga case:6 pass.
RX0 vga case:6 ,absolute value dc_i_tmp : 15 , value dc_q_tmp : 15 ,I:reg0x1198=0x17172915.   Q:reg0x11d4=0x3127190b.
vga case:7 pass.
RX0 vga case:7 ,absolute value dc_i_tmp : 15 , value dc_q_tmp : 15 ,I:reg0x119c=0x17172915.   Q:reg0x11d8=0x3125190b.
vga case:8 pass.
RX0 vga case:8 ,absolute value dc_i_tmp : 15 , value dc_q_tmp : 15 ,I:reg0x11a0=0x17172b13.   Q:reg0x11dc=0x2929190b.
vga case:9 pass.
RX0 vga case:9 ,absolute value dc_i_tmp : 15 , value dc_q_tmp : 15 ,I:reg0x11a4=0x151b2b0f.   Q:reg0x11e0=0x2b291b0b.
vga case:10 pass.
RX0 vga case:10 ,absolute value dc_i_tmp : 15 , value dc_q_tmp : 15 ,I:reg0x11a8=0x190f310d.   Q:reg0x11e4=0x31231d09.
vga case:11 pass.
RX0 vga case:11 ,absolute value dc_i_tmp : 15 , value dc_q_tmp : 15 ,I:reg0x11ac=0x19133509.   Q:reg0x11e8=0x31271d07.
vga case:12 pass.
RX0 vga case:12 ,absolute value dc_i_tmp : 15 , value dc_q_tmp : 15 ,I:reg0x11b0=0x19173905.   Q:reg0x11ec=0x2b2d1d05.
vga case:13 pass.
RX0 vga case:13 ,absolute value dc_i_tmp : 15 , value dc_q_tmp : 15 ,I:reg0x11b4=0xf1f3f01.   Q:reg0x11f0=0x2d2b2103.
vga case:14 pass.
RX0 vga case:14 ,absolute value dc_i_tmp : 15 , value dc_q_tmp : 15 ,I:reg0x11b8=0x13f3f01.   Q:reg0x11f4=0x2d292901.
rx1 vga calibration begin
rx1 vga case:1 pass.
RX1 vga case:1 ,absolute value dc_i_tmp : 15 , value dc_q_tmp : 15 ,I:reg0x11fc=0x13192125. Q:reg0x1238=0x2f2b211f.
rx1 vga case:2 pass.
RX1 vga case:2 ,absolute value dc_i_tmp : 15 , value dc_q_tmp : 15 ,I:reg0x1200=0x13192125. Q:reg0x123c=0x2f2b211f.
rx1 vga case:3 pass.
RX1 vga case:3 ,absolute value dc_i_tmp : 15 , value dc_q_tmp : 15 ,I:reg0x1204=0x13192125. Q:reg0x1240=0x2f2b211f.
rx1 vga case:4 pass.
RX1 vga case:4 ,absolute value dc_i_tmp : 15 , value dc_q_tmp : 15 ,I:reg0x1208=0x13192125. Q:reg0x1244=0x2f2b211f.
rx1 vga case:5 pass.
RX1 vga case:5 ,absolute value dc_i_tmp : 15 , value dc_q_tmp : 15 ,I:reg0x120c=0x15192125. Q:reg0x1248=0x312b211f.
rx1 vga case:6 pass.
RX1 vga case:6 ,absolute value dc_i_tmp : 15 , value dc_q_tmp : 15 ,I:reg0x1210=0x13172125. Q:reg0x124c=0x312b211f.
rx1 vga case:7 pass.
RX1 vga case:7 ,absolute value dc_i_tmp : 15 , value dc_q_tmp : 15 ,I:reg0x1214=0x15172125. Q:reg0x1250=0x3129211f.
rx1 vga case:8 pass.
RX1 vga case:8 ,absolute value dc_i_tmp : 15 , value dc_q_tmp : 15 ,I:reg0x1218=0x111b1f25. Q:reg0x1254=0x312b211f.
rx1 vga case:9 pass.
RX1 vga case:9 ,absolute value dc_i_tmp : 15 , value dc_q_tmp : 15 ,I:reg0x121c=0xf1f1d25. Q:reg0x1258=0x33291f1d.
rx1 vga case:10 pass.
RX1 vga case:10 ,absolute value dc_i_tmp : 15 , value dc_q_tmp : 15 ,I:reg0x1220=0x15191f27. Q:reg0x125c=0x3329211d.
rx1 vga case:11 pass.
RX1 vga case:11 ,absolute value dc_i_tmp : 15 , value dc_q_tmp : 15 ,I:reg0x1224=0x13191d27. Q:reg0x1260=0x2f2b211d.
rx1 vga case:12 pass.
RX1 vga case:12 ,absolute value dc_i_tmp : 15 , value dc_q_tmp : 15 ,I:reg0x1228=0x15171d29. Q:reg0x1264=0x3327231d.
rx1 vga case:13 pass.
RX1 vga case:13 ,absolute value dc_i_tmp : 15 , value dc_q_tmp : 15 ,I:reg0x122c=0x131d1b2b. Q:reg0x1268=0x2d2b211b.
rx1 vga case:14 pass.
RX1 vga case:14 ,absolute value dc_i_tmp : 15 , value dc_q_tmp : 15 ,I:reg0x1230=0x111b172d. Q:reg0x126c=0x2d2d231b.
reg0x1120=0x3c0100.
vga calibration end!
RX0: 0x103c : e0010000 ,0x1040 : 40001102 
RX1: 0x1054 : e0010000 ,0x1058 : 40001100 
THIS CASE J: 0 M: 4 
adc calibration begin
calibration begin
RX0 cali pre ,absolute value dc_i_tmp : 7 , value dc_q_tmp : 7 ,
reg0x1180=0x3b3f0b09.
reg0x11bc=0x2b29150f.
RX1 cali pre ,absolute value dc_i_tmp : 5 , value dc_q_tmp : 5 ,reg0x11f8=0x11191d21.
reg0x1234=0x2f2b1f1f.
rx0 tia cali begin:
####:reg0x1270=0x502f522f.
tia_cnt_i : 6 ,
tia_cnt_q : 80 ,
I:reg0x1150=0x3b3f0b09.
Q:reg0x1154=0x2b29150f.
RX0 tia case :0,absolute value dc_i : -1 , value dc_q : -2 
####:reg0x1270=0x4c7f4c35.
####:reg0x1274=0x4e31522f.
tia_cnt_i : 5 ,
tia_cnt_q : 78 ,
I:reg0x1150=0x3b3f0b09.
Q:reg0x1154=0x2b29150f.
RX0 tia case :1,absolute value dc_i : -1 , value dc_q : -4 
####:reg0x1274=0x4d7f4d34.
####:reg0x1278=0x4e334c31.
tia_cnt_i : 1 ,
tia_cnt_q : 76 ,
I:reg0x1150=0x3b3f0b09.
Q:reg0x1154=0x2b29150f.
RX0 tia case :2,absolute value dc_i : -1 , value dc_q : -4 
####:reg0x1278=0x4b7f4b32.
####:reg0x127c=0x4a354c33.
tia_cnt_i : 0 ,
tia_cnt_q : 74 ,
I:reg0x1150=0x3b3f0b09.
Q:reg0x1154=0x2b29150f.
RX0 tia case :3,absolute value dc_i : -1 , value dc_q : -5 
####:reg0x127c=0x4c7f4c33.
####:reg0x1280=0x3e433c43.
tia_cnt_i : 0 ,
tia_cnt_q : 60 ,
I:reg0x1150=0x3b3f0b09.
Q:reg0x1154=0x2b29150f.
RX0 tia case :4,absolute value dc_i : 0 , value dc_q : -5 
####:reg0x1280=0x3c7f3c43.
####:reg0x1284=0x3e433c43.
tia_cnt_i : 0 ,
tia_cnt_q : 60 ,
I:reg0x1150=0x3b3f0b09.
Q:reg0x1154=0x2b29150f.
RX0 tia case :5,absolute value dc_i : 0 , value dc_q : -5 
####:reg0x1284=0x3c7f3c43.
####:reg0x1288=0x3c433c43.
tia_cnt_i : 0 ,
tia_cnt_q : 60 ,
I:reg0x1150=0x3b3f0b09.
Q:reg0x1154=0x2b29150f.
RX0 tia case :6,absolute value dc_i : 0 , value dc_q : -5 
####:reg0x1288=0x3c7f3c43.
####:reg0x128c=0x3a453845.
tia_cnt_i : 0 ,
tia_cnt_q : 58 ,
I:reg0x1150=0x3b3f0b09.
Q:reg0x1154=0x2b29150f.
RX0 tia case :7,absolute value dc_i : 1 , value dc_q : -5 
####:reg0x128c=0x387f3845.
####:reg0x1290=0x3847364b.
tia_cnt_i : 0 ,
tia_cnt_q : 56 ,
I:reg0x1150=0x3b3f0b09.
Q:reg0x1154=0x2b29150f.
RX0 tia case :8,absolute value dc_i : 1 , value dc_q : -5 
####:reg0x1290=0x367f364b.
####:reg0x1294=0x36493449.
tia_cnt_i : 0 ,
tia_cnt_q : 54 ,
I:reg0x1150=0x3b3f0b09.
Q:reg0x1154=0x2b29150f.
RX0 tia case :9,absolute value dc_i : 0 , value dc_q : -5 
####:reg0x1294=0x347f3449.
####:reg0x1298=0x38473449.
tia_cnt_i : 0 ,
tia_cnt_q : 56 ,
I:reg0x1150=0x3b3f0b09.
Q:reg0x1154=0x2b29150f.
RX0 tia case :10,absolute value dc_i : 1 , value dc_q : -5 
####:reg0x1298=0x347f3449.
####:reg0x129c=0x36493649.
tia_cnt_i : 0 ,
tia_cnt_q : 54 ,
I:reg0x1150=0x3b3f0b09.
Q:reg0x1154=0x2b29150f.
RX0 tia case :11,absolute value dc_i : 1 , value dc_q : -5 
####:reg0x129c=0x367f3649.
####:reg0x12a0=0x36493449.
tia_cnt_i : 0 ,
tia_cnt_q : 54 ,
I:reg0x1150=0x3b3f0b09.
Q:reg0x1154=0x2b29150f.
RX0 tia case :12,absolute value dc_i : 1 , value dc_q : -5 
####:reg0x12a0=0x347f3449.
rx1 tia cali begin:
Q:reg0x12b0=0x4a374a35.
 RX1 :reg0x1130=0x4a354a37.
tia_cnt_i : 74 ,
tia_cnt_q : 1 ,
RX1 tia case :0,absolute value dc_i : -4 , value dc_q : -1 
RX1:reg0x12b0=0x38007f.
Q:reg0x12b4=0x46394837.
 RX1 :reg0x1130=0x48374639.
tia_cnt_i : 72 ,
tia_cnt_q : 1 ,
RX1 tia case :1,absolute value dc_i : -4 , value dc_q : -3 
RX1:reg0x12b4=0x3a007f.
Q:reg0x12b8=0x46394439.
 RX1 :reg0x1130=0x44394639.
tia_cnt_i : 68 ,
tia_cnt_q : 1 ,
RX1 tia case :2,absolute value dc_i : -4 , value dc_q : -4 
RX1:reg0x12b8=0x3a007d.
Q:reg0x12bc=0x3e413e41.
 RX1 :reg0x1130=0x3e413e41.
tia_cnt_i : 62 ,
tia_cnt_q : 1 ,
RX1 tia case :3,absolute value dc_i : -4 , value dc_q : -4 
RX1:reg0x12bc=0x42007f.
Q:reg0x12c0=0x3c433a45.
 RX1 :reg0x1130=0x3a453c43.
tia_cnt_i : 58 ,
tia_cnt_q : 1 ,
RX1 tia case :4,absolute value dc_i : -4 , value dc_q : -5 
RX1:reg0x12c0=0x44007f.
Q:reg0x12c4=0x3649344b.
 RX1 :reg0x1130=0x344b3649.
tia_cnt_i : 52 ,
tia_cnt_q : 1 ,
RX1 tia case :5,absolute value dc_i : -4 , value dc_q : -5 
RX1:reg0x12c4=0x4a007f.
Q:reg0x12c8=0x364b344b.
 RX1 :reg0x1130=0x344b364b.
tia_cnt_i : 52 ,
tia_cnt_q : 1 ,
RX1 tia case :6,absolute value dc_i : -4 , value dc_q : -5 
RX1:reg0x12c8=0x4c007f.
Q:reg0x12cc=0x3449324f.
 RX1 :reg0x1130=0x324f3449.
tia_cnt_i : 48 ,
tia_cnt_q : 54 ,
RX1 tia case :7,absolute value dc_i : -4 , value dc_q : -4 
RX1:reg0x12cc=0x27f027f.
Q:reg0x12d0=0x324d2c51.
 RX1 :reg0x1130=0x2c51324d.
tia_cnt_i : 44 ,
tia_cnt_q : 1 ,
RX1 tia case :8,absolute value dc_i : -4 , value dc_q : -5 
RX1:reg0x12d0=0x4e007d.
Q:reg0x12d4=0x324d2a55.
 RX1 :reg0x1130=0x2a55324d.
tia_cnt_i : 42 ,
tia_cnt_q : 1 ,
RX1 tia case :9,absolute value dc_i : -4 , value dc_q : -5 
RX1:reg0x12d4=0x4e007f.
Q:reg0x12d8=0x324d2c53.
 RX1 :reg0x1130=0x2c53324d.
tia_cnt_i : 44 ,
tia_cnt_q : 1 ,
RX1 tia case :10,absolute value dc_i : -4 , value dc_q : -5 
RX1:reg0x12d8=0x4e007f.
Q:reg0x12dc=0x324d2c53.
 RX1 :reg0x1130=0x2c53324d.
tia_cnt_i : 44 ,
tia_cnt_q : 1 ,
RX1 tia case :11,absolute value dc_i : -4 , value dc_q : -5 
RX1:reg0x12dc=0x4e007f.
Q:reg0x12e0=0x344b2c53.
 RX1 :reg0x1130=0x2c53344b.
tia_cnt_i : 44 ,
tia_cnt_q : 1 ,
RX1 tia case :12,absolute value dc_i : -4 , value dc_q : -5 
RX1:reg0x12e0=0x4c007f.
tia calibration end!
rx0 vga calibration begin
reg0x1120=0x3fc100.
vga case:1 pass.
RX0 vga case:1 ,absolute value dc_i_tmp : 8 , value dc_q_tmp : 9 ,I:reg0x1184=0x1717231d.   Q:reg0x11c0=0x2b29190b.
vga case:2 pass.
RX0 vga case:2 ,absolute value dc_i_tmp : 9 , value dc_q_tmp : 9 ,I:reg0x1188=0x1717231d.   Q:reg0x11c4=0x2b29190b.
vga case:3 pass.
RX0 vga case:3 ,absolute value dc_i_tmp : 8 , value dc_q_tmp : 9 ,I:reg0x118c=0x1717231d.   Q:reg0x11c8=0x2b29190b.
vga case:4 pass.
RX0 vga case:4 ,absolute value dc_i_tmp : 8 , value dc_q_tmp : 9 ,I:reg0x1190=0x1917231d.   Q:reg0x11cc=0x2b29190b.
vga case:5 pass.
RX0 vga case:5 ,absolute value dc_i_tmp : 8 , value dc_q_tmp : 9 ,I:reg0x1194=0x1917231d.   Q:reg0x11d0=0x2b29190b.
vga case:6 pass.
RX0 vga case:6 ,absolute value dc_i_tmp : 8 , value dc_q_tmp : 8 ,I:reg0x1198=0x1715231d.   Q:reg0x11d4=0x2d29190b.
vga case:7 pass.
RX0 vga case:7 ,absolute value dc_i_tmp : 8 , value dc_q_tmp : 8 ,I:reg0x119c=0x1715231d.   Q:reg0x11d8=0x2d29190b.
vga case:8 pass.
RX0 vga case:8 ,absolute value dc_i_tmp : 7 , value dc_q_tmp : 8 ,I:reg0x11a0=0x1515231d.   Q:reg0x11dc=0x2b271b0b.
vga case:9 pass.
RX0 vga case:9 ,absolute value dc_i_tmp : 8 , value dc_q_tmp : 8 ,I:reg0x11a4=0x1717231d.   Q:reg0x11e0=0x2d291b09.
vga case:10 pass.
RX0 vga case:10 ,absolute value dc_i_tmp : 6 , value dc_q_tmp : 7 ,I:reg0x11a8=0x1917211b.   Q:reg0x11e4=0x2d2b1b07.
vga case:11 pass.
RX0 vga case:11 ,absolute value dc_i_tmp : 8 , value dc_q_tmp : 8 ,I:reg0x11ac=0x1319211b.   Q:reg0x11e8=0x31272107.
vga case:12 pass.
RX0 vga case:12 ,absolute value dc_i_tmp : 7 , value dc_q_tmp : 6 ,I:reg0x11b0=0x1d15231b.   Q:reg0x11ec=0x31252103.
vga case:13 pass.
RX0 vga case:13 ,absolute value dc_i_tmp : 7 , value dc_q_tmp : 7 ,I:reg0x11b4=0x1919231b.   Q:reg0x11f0=0x31232501.
vga case:14 pass.
RX0 vga case:14 ,absolute value dc_i_tmp : 6 , value dc_q_tmp : 8 ,I:reg0x11b8=0x1f11251b.   Q:reg0x11f4=0x31253101.
rx1 vga calibration begin
rx1 vga case:1 pass.
RX1 vga case:1 ,absolute value dc_i_tmp : 4 , value dc_q_tmp : 6 ,I:reg0x11fc=0x1319291b. Q:reg0x1238=0x2f2d211b.
rx1 vga case:2 pass.
RX1 vga case:2 ,absolute value dc_i_tmp : 4 , value dc_q_tmp : 5 ,I:reg0x1200=0x1319291b. Q:reg0x123c=0x2f2d211b.
rx1 vga case:3 pass.
RX1 vga case:3 ,absolute value dc_i_tmp : 5 , value dc_q_tmp : 5 ,I:reg0x1204=0x1319291b. Q:reg0x1240=0x2f2d211b.
rx1 vga case:4 pass.
RX1 vga case:4 ,absolute value dc_i_tmp : 5 , value dc_q_tmp : 5 ,I:reg0x1208=0x1319291b. Q:reg0x1244=0x2f2d211b.
rx1 vga case:5 pass.
RX1 vga case:5 ,absolute value dc_i_tmp : 6 , value dc_q_tmp : 5 ,I:reg0x120c=0x1319291b. Q:reg0x1248=0x2f2d211b.
rx1 vga case:6 pass.
RX1 vga case:6 ,absolute value dc_i_tmp : 5 , value dc_q_tmp : 5 ,I:reg0x1210=0x1317291b. Q:reg0x124c=0x2f2d231d.
rx1 vga case:7 pass.
RX1 vga case:7 ,absolute value dc_i_tmp : 5 , value dc_q_tmp : 5 ,I:reg0x1214=0x1519291b. Q:reg0x1250=0x2f2f211b.
rx1 vga case:8 pass.
RX1 vga case:8 ,absolute value dc_i_tmp : 5 , value dc_q_tmp : 5 ,I:reg0x1218=0x111b2919. Q:reg0x1254=0x2f2b231b.
rx1 vga case:9 pass.
RX1 vga case:9 ,absolute value dc_i_tmp : 5 , value dc_q_tmp : 5 ,I:reg0x121c=0x15172d17. Q:reg0x1258=0x2f2d2319.
rx1 vga case:10 pass.
RX1 vga case:10 ,absolute value dc_i_tmp : 5 , value dc_q_tmp : 6 ,I:reg0x1220=0x111b2f15. Q:reg0x125c=0x33292719.
rx1 vga case:11 pass.
RX1 vga case:11 ,absolute value dc_i_tmp : 5 , value dc_q_tmp : 4 ,I:reg0x1224=0x111d3111. Q:reg0x1260=0x2f2f2717.
rx1 vga case:12 pass.
RX1 vga case:12 ,absolute value dc_i_tmp : 4 , value dc_q_tmp : 4 ,I:reg0x1228=0x151b370f. Q:reg0x1264=0x2f2b2915.
rx1 vga case:13 pass.
RX1 vga case:13 ,absolute value dc_i_tmp : 5 , value dc_q_tmp : 5 ,I:reg0x122c=0x15193b09. Q:reg0x1268=0x31292d13.
rx1 vga case:14 pass.
RX1 vga case:14 ,absolute value dc_i_tmp : 0 , value dc_q_tmp : 4 ,I:reg0x1230=0x13f3f01. Q:reg0x126c=0x332d310d.
reg0x1120=0x3c0100.
vga calibration end!
RX0: 0x103c : e0014000 ,0x1040 : 50001102 
RX1: 0x1054 : e0014000 ,0x1058 : 50001100 
THIS CASE J: 0 M: 5 
adc calibration begin
calibration begin
RX0 cali pre ,absolute value dc_i_tmp : 1 , value dc_q_tmp : 3 ,
reg0x1180=0x17171f1d.
reg0x11bc=0x2b29150f.
RX1 cali pre ,absolute value dc_i_tmp : 1 , value dc_q_tmp : 1 ,reg0x11f8=0x1319191b.
reg0x1234=0x312d211f.
rx0 tia cali begin:
####:reg0x1270=0x4e31502f.
tia_cnt_i : 0 ,
tia_cnt_q : 13 ,
I:reg0x1150=0x17171f1d.
Q:reg0x1154=0x2b29150f.
RX0 tia case :0,absolute value dc_i : -1 , value dc_q : -1 
####:reg0x1270=0x503e502f.
####:reg0x1274=0x4e314e31.
tia_cnt_i : 0 ,
tia_cnt_q : 8 ,
I:reg0x1150=0x17171f1d.
Q:reg0x1154=0x2b29150f.
RX0 tia case :1,absolute value dc_i : 0 , value dc_q : -1 
####:reg0x1274=0x4e394e31.
####:reg0x1278=0x4c314e31.
tia_cnt_i : 0 ,
tia_cnt_q : 5 ,
I:reg0x1150=0x17171f1d.
Q:reg0x1154=0x2b29150f.
RX0 tia case :2,absolute value dc_i : 0 , value dc_q : -1 
####:reg0x1278=0x4e364e31.
####:reg0x127c=0x4c334c33.
tia_cnt_i : 0 ,
tia_cnt_q : 1 ,
I:reg0x1150=0x17171f1d.
Q:reg0x1154=0x2b29150f.
RX0 tia case :3,absolute value dc_i : 0 , value dc_q : -1 
####:reg0x127c=0x4c344c33.
####:reg0x1280=0x3e433e43.
tia_cnt_i : 0 ,
tia_cnt_q : 0 ,
I:reg0x1150=0x17171f1d.
Q:reg0x1154=0x2b29150f.
RX0 tia case :4,absolute value dc_i : 1 , value dc_q : 0 
####:reg0x1280=0x3e433e43.
####:reg0x1284=0x3e433c43.
tia_cnt_i : 0 ,
tia_cnt_q : 0 ,
I:reg0x1150=0x17171f1d.
Q:reg0x1154=0x2b29150f.
RX0 tia case :5,absolute value dc_i : 1 , value dc_q : 0 
####:reg0x1284=0x3e433c43.
####:reg0x1288=0x3c433c43.
tia_cnt_i : 0 ,
tia_cnt_q : 0 ,
I:reg0x1150=0x17171f1d.
Q:reg0x1154=0x2b29150f.
RX0 tia case :6,absolute value dc_i : 1 , value dc_q : 0 
####:reg0x1288=0x3c433c43.
####:reg0x128c=0x3a453845.
tia_cnt_i : 0 ,
tia_cnt_q : 0 ,
I:reg0x1150=0x17171f1d.
Q:reg0x1154=0x2b29150f.
RX0 tia case :7,absolute value dc_i : 1 , value dc_q : 0 
####:reg0x128c=0x3a453845.
####:reg0x1290=0x36493449.
tia_cnt_i : 0 ,
tia_cnt_q : 0 ,
I:reg0x1150=0x17171f1d.
Q:reg0x1154=0x2b29150f.
RX0 tia case :8,absolute value dc_i : 1 , value dc_q : 0 
####:reg0x1290=0x36493449.
####:reg0x1294=0x36493449.
tia_cnt_i : 0 ,
tia_cnt_q : 0 ,
I:reg0x1150=0x17171f1d.
Q:reg0x1154=0x2b29150f.
RX0 tia case :9,absolute value dc_i : 1 , value dc_q : 0 
####:reg0x1294=0x36493449.
####:reg0x1298=0x36493449.
tia_cnt_i : 0 ,
tia_cnt_q : 0 ,
I:reg0x1150=0x17171f1d.
Q:reg0x1154=0x2b29150f.
RX0 tia case :10,absolute value dc_i : 1 , value dc_q : 0 
####:reg0x1298=0x36493449.
####:reg0x129c=0x38473449.
tia_cnt_i : 0 ,
tia_cnt_q : 0 ,
I:reg0x1150=0x17171f1d.
Q:reg0x1154=0x2b29150f.
RX0 tia case :11,absolute value dc_i : 1 , value dc_q : 0 
####:reg0x129c=0x38473449.
####:reg0x12a0=0x36493449.
tia_cnt_i : 0 ,
tia_cnt_q : 0 ,
I:reg0x1150=0x17171f1d.
Q:reg0x1154=0x2b29150f.
RX0 tia case :12,absolute value dc_i : 1 , value dc_q : 0 
####:reg0x12a0=0x36493449.
rx1 tia cali begin:
Q:reg0x12b0=0x48374a35.
 RX1 :reg0x1130=0x4a354837.
tia_cnt_i : 0 ,
tia_cnt_q : 0 ,
RX1 tia case :0,absolute value dc_i : 1 , value dc_q : -1 
RX1:reg0x12b0=0x48374a35.
Q:reg0x12b4=0x48374835.
 RX1 :reg0x1130=0x48354837.
tia_cnt_i : 0 ,
tia_cnt_q : 13 ,
RX1 tia case :1,absolute value dc_i : 1 , value dc_q : -1 
RX1:reg0x12b4=0x48444835.
Q:reg0x12b8=0x463b4837.
 RX1 :reg0x1130=0x4837463b.
tia_cnt_i : 55 ,
tia_cnt_q : 68 ,
RX1 tia case :2,absolute value dc_i : 2 , value dc_q : -2 
RX1:reg0x12b8=0x7f7f7f00.
Q:reg0x12bc=0x443b3e41.
 RX1 :reg0x1130=0x3e41443b.
tia_cnt_i : 65 ,
tia_cnt_q : 68 ,
RX1 tia case :3,absolute value dc_i : 2 , value dc_q : -3 
RX1:reg0x12bc=0x7f7f7f00.
Q:reg0x12c0=0x3a453a45.
 RX1 :reg0x1130=0x3a453a45.
tia_cnt_i : 69 ,
tia_cnt_q : 58 ,
RX1 tia case :4,absolute value dc_i : 2 , value dc_q : -3 
RX1:reg0x12c0=0x7f7f7f00.
Q:reg0x12c4=0x3649344b.
 RX1 :reg0x1130=0x344b3649.
tia_cnt_i : 75 ,
tia_cnt_q : 54 ,
RX1 tia case :5,absolute value dc_i : 2 , value dc_q : -3 
RX1:reg0x12c4=0x7f7f7f00.
Q:reg0x12c8=0x34492e51.
 RX1 :reg0x1130=0x2e513449.
tia_cnt_i : 81 ,
tia_cnt_q : 54 ,
RX1 tia case :6,absolute value dc_i : 2 , value dc_q : -3 
RX1:reg0x12c8=0x7f7f7f00.
Q:reg0x12cc=0x34492e51.
 RX1 :reg0x1130=0x2e513449.
tia_cnt_i : 81 ,
tia_cnt_q : 54 ,
RX1 tia case :7,absolute value dc_i : 2 , value dc_q : -3 
RX1:reg0x12cc=0x7f7f7f00.
Q:reg0x12d0=0x324f2e53.
 RX1 :reg0x1130=0x2e53324f.
tia_cnt_i : 81 ,
tia_cnt_q : 48 ,
RX1 tia case :8,absolute value dc_i : 2 , value dc_q : -3 
RX1:reg0x12d0=0x7f7f7f02.
Q:reg0x12d4=0x344b2c53.
 RX1 :reg0x1130=0x2c53344b.
tia_cnt_i : 83 ,
tia_cnt_q : 52 ,
RX1 tia case :9,absolute value dc_i : 2 , value dc_q : -3 
RX1:reg0x12d4=0x7f7f7f00.
Q:reg0x12d8=0x324d2c53.
 RX1 :reg0x1130=0x2c53324d.
tia_cnt_i : 83 ,
tia_cnt_q : 50 ,
RX1 tia case :10,absolute value dc_i : 2 , value dc_q : -3 
RX1:reg0x12d8=0x7f7f7f00.
Q:reg0x12dc=0x324d2e53.
 RX1 :reg0x1130=0x2e53324d.
tia_cnt_i : 81 ,
tia_cnt_q : 50 ,
RX1 tia case :11,absolute value dc_i : 2 , value dc_q : -3 
RX1:reg0x12dc=0x7f7f7f02.
Q:reg0x12e0=0x344b2c53.
 RX1 :reg0x1130=0x2c53344b.
tia_cnt_i : 83 ,
tia_cnt_q : 52 ,
RX1 tia case :12,absolute value dc_i : 3 , value dc_q : -3 
RX1:reg0x12e0=0x7f7f7f00.
tia calibration end!
rx0 vga calibration begin
reg0x1120=0x3fc100.
vga case:1 pass.
RX0 vga case:1 ,absolute value dc_i_tmp : 1 , value dc_q_tmp : 2 ,I:reg0x1184=0x1717211d.   Q:reg0x11c0=0x2b27170f.
vga case:2 pass.
RX0 vga case:2 ,absolute value dc_i_tmp : 2 , value dc_q_tmp : 1 ,I:reg0x1188=0x15172321.   Q:reg0x11c4=0x2d27170f.
vga case:3 pass.
RX0 vga case:3 ,absolute value dc_i_tmp : 2 , value dc_q_tmp : 2 ,I:reg0x118c=0x1515211d.   Q:reg0x11c8=0x2929150f.
vga case:4 pass.
RX0 vga case:4 ,absolute value dc_i_tmp : 1 , value dc_q_tmp : 2 ,I:reg0x1190=0x1917211d.   Q:reg0x11cc=0x2d27170f.
vga case:5 pass.
RX0 vga case:5 ,absolute value dc_i_tmp : 1 , value dc_q_tmp : 1 ,I:reg0x1194=0x1715211d.   Q:reg0x11d0=0x2b2b150f.
vga case:6 pass.
RX0 vga case:6 ,absolute value dc_i_tmp : 1 , value dc_q_tmp : 1 ,I:reg0x1198=0x1715211d.   Q:reg0x11d4=0x292b150f.
vga case:7 pass.
RX0 vga case:7 ,absolute value dc_i_tmp : 0 , value dc_q_tmp : 1 ,I:reg0x119c=0x17192321.   Q:reg0x11d8=0x3125170f.
vga case:8 pass.
RX0 vga case:8 ,absolute value dc_i_tmp : 1 , value dc_q_tmp : 1 ,I:reg0x11a0=0x1913211d.   Q:reg0x11dc=0x292b150f.
vga case:9 pass.
RX0 vga case:9 ,absolute value dc_i_tmp : 1 , value dc_q_tmp : 2 ,I:reg0x11a4=0x17172321.   Q:reg0x11e0=0x2b2b150f.
vga case:10 pass.
RX0 vga case:10 ,absolute value dc_i_tmp : 0 , value dc_q_tmp : 1 ,I:reg0x11a8=0x19152321.   Q:reg0x11e4=0x2b29150f.
vga case:11 pass.
RX0 vga case:11 ,absolute value dc_i_tmp : 1 , value dc_q_tmp : 1 ,I:reg0x11ac=0x1b132321.   Q:reg0x11e8=0x2d29150f.
vga case:12 pass.
RX0 vga case:12 ,absolute value dc_i_tmp : 1 , value dc_q_tmp : 1 ,I:reg0x11b0=0x17172121.   Q:reg0x11ec=0x2f27150f.
vga case:13 pass.
RX0 vga case:13 ,absolute value dc_i_tmp : 1 , value dc_q_tmp : 0 ,I:reg0x11b4=0x17132121.   Q:reg0x11f0=0x3125150f.
vga case:14 pass.
RX0 vga case:14 ,absolute value dc_i_tmp : 0 , value dc_q_tmp : 1 ,I:reg0x11b8=0x17151d21.   Q:reg0x11f4=0x2b29130f.
rx1 vga calibration begin
rx1 vga case:1 pass.
RX1 vga case:1 ,absolute value dc_i_tmp : 1 , value dc_q_tmp : 0 ,I:reg0x11fc=0x11192125. Q:reg0x1238=0x2f2b1f1f.
rx1 vga case:2 pass.
RX1 vga case:2 ,absolute value dc_i_tmp : 1 , value dc_q_tmp : 1 ,I:reg0x1200=0x131b2125. Q:reg0x123c=0x2f2b1f1f.
rx1 vga case:3 pass.
RX1 vga case:3 ,absolute value dc_i_tmp : 0 , value dc_q_tmp : 1 ,I:reg0x1204=0x13192125. Q:reg0x1240=0x2f2b1f1f.
rx1 vga case:4 pass.
RX1 vga case:4 ,absolute value dc_i_tmp : 0 , value dc_q_tmp : 1 ,I:reg0x1208=0x13192125. Q:reg0x1244=0x2f2b1f1f.
rx1 vga case:5 pass.
RX1 vga case:5 ,absolute value dc_i_tmp : 0 , value dc_q_tmp : 2 ,I:reg0x120c=0x13192125. Q:reg0x1248=0x2f2b1f1f.
rx1 vga case:6 pass.
RX1 vga case:6 ,absolute value dc_i_tmp : 1 , value dc_q_tmp : 1 ,I:reg0x1210=0x13192125. Q:reg0x124c=0x312b1f1f.
rx1 vga case:7 pass.
RX1 vga case:7 ,absolute value dc_i_tmp : 1 , value dc_q_tmp : 0 ,I:reg0x1214=0x13192125. Q:reg0x1250=0x31291f1f.
rx1 vga case:8 pass.
RX1 vga case:8 ,absolute value dc_i_tmp : 1 , value dc_q_tmp : 0 ,I:reg0x1218=0xf1d1f25. Q:reg0x1254=0x312b1f1f.
rx1 vga case:9 pass.
RX1 vga case:9 ,absolute value dc_i_tmp : 1 , value dc_q_tmp : 1 ,I:reg0x121c=0x13191f25. Q:reg0x1258=0x3329211f.
rx1 vga case:10 pass.
RX1 vga case:10 ,absolute value dc_i_tmp : 1 , value dc_q_tmp : 1 ,I:reg0x1220=0x111b1f27. Q:reg0x125c=0x312b211f.
rx1 vga case:11 pass.
RX1 vga case:11 ,absolute value dc_i_tmp : 1 , value dc_q_tmp : 0 ,I:reg0x1224=0xf1b1d27. Q:reg0x1260=0x2f2b211f.
rx1 vga case:12 pass.
RX1 vga case:12 ,absolute value dc_i_tmp : 1 , value dc_q_tmp : 1 ,I:reg0x1228=0x111b1d29. Q:reg0x1264=0x31291f1d.
rx1 vga case:13 pass.
RX1 vga case:13 ,absolute value dc_i_tmp : 0 , value dc_q_tmp : 1 ,I:reg0x122c=0x13191b29. Q:reg0x1268=0x332b211d.
rx1 vga case:14 pass.
RX1 vga case:14 ,absolute value dc_i_tmp : 0 , value dc_q_tmp : 1 ,I:reg0x1230=0x111d192d. Q:reg0x126c=0x2d2f211d.
reg0x1120=0x3c0100.
vga calibration end!
RX0: 0x103c : e0018000 ,0x1040 : 60001102 
RX1: 0x1054 : e0018000 ,0x1058 : 60001100 
THIS CASE J: 0 M: 6 
adc calibration begin
calibration begin
RX0 cali pre ,absolute value dc_i_tmp : 1 , value dc_q_tmp : 3 ,
reg0x1180=0x17171f1d.
reg0x11bc=0x2b29150f.
RX1 cali pre ,absolute value dc_i_tmp : 1 , value dc_q_tmp : 1 ,reg0x11f8=0x131b2125.
reg0x1234=0x2f2b211f.
rx0 tia cali begin:
####:reg0x1270=0x4e31522f.
tia_cnt_i : 0 ,
tia_cnt_q : 14 ,
I:reg0x1150=0x17171f1d.
Q:reg0x1154=0x2b29150f.
RX0 tia case :0,absolute value dc_i : -1 , value dc_q : -1 
####:reg0x1270=0x523f522f.
####:reg0x1274=0x4e31522f.
tia_cnt_i : 0 ,
tia_cnt_q : 11 ,
I:reg0x1150=0x17171f1d.
Q:reg0x1154=0x2b29150f.
RX0 tia case :1,absolute value dc_i : -1 , value dc_q : -1 
####:reg0x1274=0x523c522f.
####:reg0x1278=0x4c334c31.
tia_cnt_i : 0 ,
tia_cnt_q : 0 ,
I:reg0x1150=0x17171f1d.
Q:reg0x1154=0x2b29150f.
RX0 tia case :2,absolute value dc_i : 0 , value dc_q : -1 
####:reg0x1278=0x4c334c31.
####:reg0x127c=0x4a354c33.
tia_cnt_i : 0 ,
tia_cnt_q : 0 ,
I:reg0x1150=0x17171f1d.
Q:reg0x1154=0x2b29150f.
RX0 tia case :3,absolute value dc_i : 0 , value dc_q : -1 
####:reg0x127c=0x4a354c33.
####:reg0x1280=0x3c433c43.
tia_cnt_i : 0 ,
tia_cnt_q : 0 ,
I:reg0x1150=0x17171f1d.
Q:reg0x1154=0x2b29150f.
RX0 tia case :4,absolute value dc_i : 1 , value dc_q : 0 
####:reg0x1280=0x3c433c43.
####:reg0x1284=0x3c433c43.
tia_cnt_i : 0 ,
tia_cnt_q : 0 ,
I:reg0x1150=0x17171f1d.
Q:reg0x1154=0x2b29150f.
RX0 tia case :5,absolute value dc_i : 1 , value dc_q : 0 
####:reg0x1284=0x3c433c43.
####:reg0x1288=0x3c433c43.
tia_cnt_i : 0 ,
tia_cnt_q : 0 ,
I:reg0x1150=0x17171f1d.
Q:reg0x1154=0x2b29150f.
RX0 tia case :6,absolute value dc_i : 1 , value dc_q : 0 
####:reg0x1288=0x3c433c43.
####:reg0x128c=0x3a453a47.
tia_cnt_i : 0 ,
tia_cnt_q : 0 ,
I:reg0x1150=0x17171f1d.
Q:reg0x1154=0x2b29150f.
RX0 tia case :7,absolute value dc_i : 1 , value dc_q : 0 
####:reg0x128c=0x3a453a47.
####:reg0x1290=0x3649364b.
tia_cnt_i : 0 ,
tia_cnt_q : 0 ,
I:reg0x1150=0x17171f1d.
Q:reg0x1154=0x2b29150f.
RX0 tia case :8,absolute value dc_i : 1 , value dc_q : 0 
####:reg0x1290=0x3649364b.
####:reg0x1294=0x38473449.
tia_cnt_i : 0 ,
tia_cnt_q : 0 ,
I:reg0x1150=0x17171f1d.
Q:reg0x1154=0x2b29150f.
RX0 tia case :9,absolute value dc_i : 1 , value dc_q : 0 
####:reg0x1294=0x38473449.
####:reg0x1298=0x36493449.
tia_cnt_i : 0 ,
tia_cnt_q : 0 ,
I:reg0x1150=0x17171f1d.
Q:reg0x1154=0x2b29150f.
RX0 tia case :10,absolute value dc_i : 1 , value dc_q : 0 
####:reg0x1298=0x36493449.
####:reg0x129c=0x3649364b.
tia_cnt_i : 0 ,
tia_cnt_q : 0 ,
I:reg0x1150=0x17171f1d.
Q:reg0x1154=0x2b29150f.
RX0 tia case :11,absolute value dc_i : 1 , value dc_q : 0 
####:reg0x129c=0x3649364b.
####:reg0x12a0=0x3649364b.
tia_cnt_i : 0 ,
tia_cnt_q : 0 ,
I:reg0x1150=0x17171f1d.
Q:reg0x1154=0x2b29150f.
RX0 tia case :12,absolute value dc_i : 1 , value dc_q : 0 
####:reg0x12a0=0x3649364b.
rx1 tia cali begin:
Q:reg0x12b0=0x4a374a35.
 RX1 :reg0x1130=0x4a354a37.
tia_cnt_i : 0 ,
tia_cnt_q : 3 ,
RX1 tia case :0,absolute value dc_i : 1 , value dc_q : -1 
RX1:reg0x12b0=0x4a3a4a35.
Q:reg0x12b4=0x48354a37.
 RX1 :reg0x1130=0x4a374835.
tia_cnt_i : 0 ,
tia_cnt_q : 19 ,
RX1 tia case :1,absolute value dc_i : 1 , value dc_q : -1 
RX1:reg0x12b4=0x4a484a37.
Q:reg0x12b8=0x46394837.
 RX1 :reg0x1130=0x48374639.
tia_cnt_i : 0 ,
tia_cnt_q : 34 ,
RX1 tia case :2,absolute value dc_i : 1 , value dc_q : -1 
RX1:reg0x12b8=0x485b4837.
Q:reg0x12bc=0x3e41443b.
 RX1 :reg0x1130=0x443b3e41.
tia_cnt_i : 2 ,
tia_cnt_q : 51 ,
RX1 tia case :3,absolute value dc_i : 1 , value dc_q : -1 
RX1:reg0x12bc=0x46744639.
Q:reg0x12c0=0x3c433a45.
 RX1 :reg0x1130=0x3a453c43.
tia_cnt_i : 8 ,
tia_cnt_q : 60 ,
RX1 tia case :4,absolute value dc_i : 1 , value dc_q : -2 
RX1:reg0x12c0=0x427f423d.
Q:reg0x12c4=0x38473649.
 RX1 :reg0x1130=0x36493847.
tia_cnt_i : 1 ,
tia_cnt_q : 56 ,
RX1 tia case :5,absolute value dc_i : 1 , value dc_q : -2 
RX1:reg0x12c4=0x377f3748.
Q:reg0x12c8=0x3649344b.
 RX1 :reg0x1130=0x344b3649.
tia_cnt_i : 20 ,
tia_cnt_q : 54 ,
RX1 tia case :6,absolute value dc_i : 1 , value dc_q : -2 
RX1:reg0x12c8=0x487f4837.
Q:reg0x12cc=0x3449324d.
 RX1 :reg0x1130=0x324d3449.
tia_cnt_i : 2 ,
tia_cnt_q : 54 ,
RX1 tia case :7,absolute value dc_i : 1 , value dc_q : -2 
RX1:reg0x12cc=0x347f344b.
Q:reg0x12d0=0x324d2e53.
 RX1 :reg0x1130=0x2e53324d.
tia_cnt_i : 0 ,
tia_cnt_q : 50 ,
RX1 tia case :8,absolute value dc_i : 1 , value dc_q : -2 
RX1:reg0x12d0=0x2e7f2e53.
Q:reg0x12d4=0x344b2c53.
 RX1 :reg0x1130=0x2c53344b.
tia_cnt_i : 1 ,
tia_cnt_q : 52 ,
RX1 tia case :9,absolute value dc_i : 1 , value dc_q : -2 
RX1:reg0x12d4=0x2d7f2d52.
Q:reg0x12d8=0x324d2c53.
 RX1 :reg0x1130=0x2c53324d.
tia_cnt_i : 0 ,
tia_cnt_q : 50 ,
RX1 tia case :10,absolute value dc_i : 1 , value dc_q : -2 
RX1:reg0x12d8=0x2c7f2c53.
Q:reg0x12dc=0x324d2c53.
 RX1 :reg0x1130=0x2c53324d.
tia_cnt_i : 1 ,
tia_cnt_q : 50 ,
RX1 tia case :11,absolute value dc_i : 1 , value dc_q : -2 
RX1:reg0x12dc=0x2d7f2d52.
Q:reg0x12e0=0x324d2c53.
 RX1 :reg0x1130=0x2c53324d.
tia_cnt_i : 1 ,
tia_cnt_q : 50 ,
RX1 tia case :12,absolute value dc_i : 1 , value dc_q : -2 
RX1:reg0x12e0=0x2d7f2d52.
tia calibration end!
rx0 vga calibration begin
reg0x1120=0x3fc100.
vga case:1 pass.
RX0 vga case:1 ,absolute value dc_i_tmp : 1 , value dc_q_tmp : 2 ,I:reg0x1184=0x17171f1d.   Q:reg0x11c0=0x2b27170f.
vga case:2 pass.
RX0 vga case:2 ,absolute value dc_i_tmp : 2 , value dc_q_tmp : 2 ,I:reg0x1188=0x15172321.   Q:reg0x11c4=0x2d27170f.
vga case:3 pass.
RX0 vga case:3 ,absolute value dc_i_tmp : 1 , value dc_q_tmp : 2 ,I:reg0x118c=0x1715211d.   Q:reg0x11c8=0x2d27170f.
vga case:4 pass.
RX0 vga case:4 ,absolute value dc_i_tmp : 1 , value dc_q_tmp : 2 ,I:reg0x1190=0x1715211d.   Q:reg0x11cc=0x2b2b150f.
vga case:5 pass.
RX0 vga case:5 ,absolute value dc_i_tmp : 1 , value dc_q_tmp : 1 ,I:reg0x1194=0x1713211d.   Q:reg0x11d0=0x2b2b150f.
vga case:6 pass.
RX0 vga case:6 ,absolute value dc_i_tmp : 1 , value dc_q_tmp : 1 ,I:reg0x1198=0x1713211d.   Q:reg0x11d4=0x2b2b150f.
vga case:7 pass.
RX0 vga case:7 ,absolute value dc_i_tmp : 1 , value dc_q_tmp : 1 ,I:reg0x119c=0x17192321.   Q:reg0x11d8=0x3123170f.
vga case:8 pass.
RX0 vga case:8 ,absolute value dc_i_tmp : 1 , value dc_q_tmp : 1 ,I:reg0x11a0=0x17172321.   Q:reg0x11dc=0x2b2b150f.
vga case:9 pass.
RX0 vga case:9 ,absolute value dc_i_tmp : 0 , value dc_q_tmp : 1 ,I:reg0x11a4=0x19152321.   Q:reg0x11e0=0x2b2b150f.
vga case:10 pass.
RX0 vga case:10 ,absolute value dc_i_tmp : 1 , value dc_q_tmp : 1 ,I:reg0x11a8=0x13192121.   Q:reg0x11e4=0x2d29150f.
vga case:11 pass.
RX0 vga case:11 ,absolute value dc_i_tmp : 0 , value dc_q_tmp : 1 ,I:reg0x11ac=0x15152121.   Q:reg0x11e8=0x2d27150f.
vga case:12 pass.
RX0 vga case:12 ,absolute value dc_i_tmp : 1 , value dc_q_tmp : 1 ,I:reg0x11b0=0x19132121.   Q:reg0x11ec=0x3127150f.
vga case:13 pass.
RX0 vga case:13 ,absolute value dc_i_tmp : 0 , value dc_q_tmp : 1 ,I:reg0x11b4=0x19131f21.   Q:reg0x11f0=0x292b130f.
vga case:14 pass.
RX0 vga case:14 ,absolute value dc_i_tmp : 1 , value dc_q_tmp : 0 ,I:reg0x11b8=0x131d1b21.   Q:reg0x11f4=0x3125130f.
rx1 vga calibration begin
rx1 vga case:1 pass.
RX1 vga case:1 ,absolute value dc_i_tmp : 1 , value dc_q_tmp : 0 ,I:reg0x11fc=0x11192125. Q:reg0x1238=0x312d1f1f.
rx1 vga case:2 pass.
RX1 vga case:2 ,absolute value dc_i_tmp : 1 , value dc_q_tmp : 1 ,I:reg0x1200=0x131b2125. Q:reg0x123c=0x312d1f1f.
rx1 vga case:3 pass.
RX1 vga case:3 ,absolute value dc_i_tmp : 1 , value dc_q_tmp : 1 ,I:reg0x1204=0x131b2125. Q:reg0x1240=0x2f2b1f1f.
rx1 vga case:4 pass.
RX1 vga case:4 ,absolute value dc_i_tmp : 0 , value dc_q_tmp : 1 ,I:reg0x1208=0x13192125. Q:reg0x1244=0x2f2b1f1f.
rx1 vga case:5 pass.
RX1 vga case:5 ,absolute value dc_i_tmp : 0 , value dc_q_tmp : 1 ,I:reg0x120c=0x13192125. Q:reg0x1248=0x2f2b1f1f.
rx1 vga case:6 pass.
RX1 vga case:6 ,absolute value dc_i_tmp : 0 , value dc_q_tmp : 0 ,I:reg0x1210=0x13192125. Q:reg0x124c=0x312b1f1f.
rx1 vga case:7 pass.
RX1 vga case:7 ,absolute value dc_i_tmp : 1 , value dc_q_tmp : 1 ,I:reg0x1214=0x13192125. Q:reg0x1250=0x312b1f1f.
rx1 vga case:8 pass.
RX1 vga case:8 ,absolute value dc_i_tmp : 0 , value dc_q_tmp : 1 ,I:reg0x1218=0x17172125. Q:reg0x1254=0x3329211f.
rx1 vga case:9 pass.
RX1 vga case:9 ,absolute value dc_i_tmp : 1 , value dc_q_tmp : 1 ,I:reg0x121c=0x11192127. Q:reg0x1258=0x332b211f.
rx1 vga case:10 pass.
RX1 vga case:10 ,absolute value dc_i_tmp : 1 , value dc_q_tmp : 0 ,I:reg0x1220=0xf1b1f27. Q:reg0x125c=0x312b211f.
rx1 vga case:11 pass.
RX1 vga case:11 ,absolute value dc_i_tmp : 1 , value dc_q_tmp : 0 ,I:reg0x1224=0xf1d1d27. Q:reg0x1260=0x2f2d211f.
rx1 vga case:12 pass.
RX1 vga case:12 ,absolute value dc_i_tmp : 1 , value dc_q_tmp : 1 ,I:reg0x1228=0x111d1d29. Q:reg0x1264=0x3329211d.
rx1 vga case:13 pass.
RX1 vga case:13 ,absolute value dc_i_tmp : 1 , value dc_q_tmp : 1 ,I:reg0x122c=0x11191b29. Q:reg0x1268=0x2f2b211d.
rx1 vga case:14 pass.
RX1 vga case:14 ,absolute value dc_i_tmp : 1 , value dc_q_tmp : 0 ,I:reg0x1230=0xf1d192d. Q:reg0x126c=0x332b231d.
reg0x1120=0x3c0100.
vga calibration end!
RX0: 0x103c : e001c000 ,0x1040 : 70001102 
RX1: 0x1054 : e001c000 ,0x1058 : 70001100 
THIS CASE J: 0 M: 7 
adc calibration begin
calibration begin
RX0 cali pre ,absolute value dc_i_tmp : 13 , value dc_q_tmp : 6 ,
reg0x1180=0x1515211d.
reg0x11bc=0x2b27150f.
RX1 cali pre ,absolute value dc_i_tmp : 1 , value dc_q_tmp : 2 ,reg0x11f8=0x131b2125.
reg0x1234=0x312d211f.
rx0 tia cali begin:
####:reg0x1270=0x4e31522d.
tia_cnt_i : 82 ,
tia_cnt_q : 1 ,
I:reg0x1150=0x1515211d.
Q:reg0x1154=0x2b27150f.
RX0 tia case :0,absolute value dc_i : -11 , value dc_q : -1 
####:reg0x1270=0x32007f.
####:reg0x1274=0x4e31522f.
tia_cnt_i : 80 ,
tia_cnt_q : 2 ,
I:reg0x1150=0x1515211d.
Q:reg0x1154=0x2b27150f.
RX0 tia case :1,absolute value dc_i : -9 , value dc_q : -1 
####:reg0x1274=0x233027f.
####:reg0x1278=0x4e334c31.
tia_cnt_i : 76 ,
tia_cnt_q : 1 ,
I:reg0x1150=0x1515211d.
Q:reg0x1154=0x2b27150f.
RX0 tia case :2,absolute value dc_i : -9 , value dc_q : -2 
####:reg0x1278=0x34007d.
####:reg0x127c=0x4a354c33.
tia_cnt_i : 76 ,
tia_cnt_q : 1 ,
I:reg0x1150=0x1515211d.
Q:reg0x1154=0x2b27150f.
RX0 tia case :3,absolute value dc_i : -8 , value dc_q : -2 
####:reg0x127c=0x36007f.
####:reg0x1280=0x3e433a45.
tia_cnt_i : 58 ,
tia_cnt_q : 1 ,
I:reg0x1150=0x1515211d.
Q:reg0x1154=0x2b27150f.
RX0 tia case :4,absolute value dc_i : -9 , value dc_q : -2 
####:reg0x1280=0x44007f.
####:reg0x1284=0x3c433c43.
tia_cnt_i : 60 ,
tia_cnt_q : 1 ,
I:reg0x1150=0x1515211d.
Q:reg0x1154=0x2b27150f.
RX0 tia case :5,absolute value dc_i : -9 , value dc_q : -2 
####:reg0x1284=0x44007f.
####:reg0x1288=0x3c433c43.
tia_cnt_i : 60 ,
tia_cnt_q : 1 ,
I:reg0x1150=0x1515211d.
Q:reg0x1154=0x2b27150f.
RX0 tia case :6,absolute value dc_i : -9 , value dc_q : -2 
####:reg0x1288=0x44007f.
####:reg0x128c=0x3a453a45.
tia_cnt_i : 58 ,
tia_cnt_q : 1 ,
I:reg0x1150=0x1515211d.
Q:reg0x1154=0x2b27150f.
RX0 tia case :7,absolute value dc_i : -9 , value dc_q : -3 
####:reg0x128c=0x46007f.
####:reg0x1290=0x34493449.
tia_cnt_i : 52 ,
tia_cnt_q : 1 ,
I:reg0x1150=0x1515211d.
Q:reg0x1154=0x2b27150f.
RX0 tia case :8,absolute value dc_i : -8 , value dc_q : -3 
####:reg0x1290=0x4a007d.
####:reg0x1294=0x3847344b.
tia_cnt_i : 52 ,
tia_cnt_q : 1 ,
I:reg0x1150=0x1515211d.
Q:reg0x1154=0x2b27150f.
RX0 tia case :9,absolute value dc_i : -8 , value dc_q : -3 
####:reg0x1294=0x48007f.
####:reg0x1298=0x3847364b.
tia_cnt_i : 52 ,
tia_cnt_q : 56 ,
I:reg0x1150=0x1515211d.
Q:reg0x1154=0x2b27150f.
RX0 tia case :10,absolute value dc_i : -9 , value dc_q : -2 
####:reg0x1298=0x27f027f.
####:reg0x129c=0x3847364b.
tia_cnt_i : 52 ,
tia_cnt_q : 56 ,
I:reg0x1150=0x1515211d.
Q:reg0x1154=0x2b27150f.
RX0 tia case :11,absolute value dc_i : -9 , value dc_q : -2 
####:reg0x129c=0x27f027f.
####:reg0x12a0=0x3847364b.
tia_cnt_i : 52 ,
tia_cnt_q : 56 ,
I:reg0x1150=0x1515211d.
Q:reg0x1154=0x2b27150f.
RX0 tia case :12,absolute value dc_i : -9 , value dc_q : -2 
####:reg0x12a0=0x27f027f.
rx1 tia cali begin:
Q:reg0x12b0=0x4a354a35.
 RX1 :reg0x1130=0x4a354a35.
tia_cnt_i : 0 ,
tia_cnt_q : 15 ,
RX1 tia case :0,absolute value dc_i : 0 , value dc_q : -1 
RX1:reg0x12b0=0x4a444a35.
Q:reg0x12b4=0x46394835.
 RX1 :reg0x1130=0x48354639.
tia_cnt_i : 0 ,
tia_cnt_q : 19 ,
RX1 tia case :1,absolute value dc_i : 0 , value dc_q : -1 
RX1:reg0x12b4=0x484c4835.
Q:reg0x12b8=0x46394639.
 RX1 :reg0x1130=0x46394639.
tia_cnt_i : 0 ,
tia_cnt_q : 41 ,
RX1 tia case :2,absolute value dc_i : 0 , value dc_q : -1 
RX1:reg0x12b8=0x46624639.
Q:reg0x12bc=0x443b443b.
 RX1 :reg0x1130=0x443b443b.
tia_cnt_i : 0 ,
tia_cnt_q : 65 ,
RX1 tia case :3,absolute value dc_i : 0 , value dc_q : -1 
RX1:reg0x12bc=0x447c443b.
Q:reg0x12c0=0x3a453c43.
 RX1 :reg0x1130=0x3c433a45.
tia_cnt_i : 0 ,
tia_cnt_q : 58 ,
RX1 tia case :4,absolute value dc_i : 0 , value dc_q : -3 
RX1:reg0x12c0=0x3c7f3c43.
Q:reg0x12c4=0x36493449.
 RX1 :reg0x1130=0x34493649.
tia_cnt_i : 0 ,
tia_cnt_q : 54 ,
RX1 tia case :5,absolute value dc_i : 1 , value dc_q : -3 
RX1:reg0x12c4=0x347f3449.
Q:reg0x12c8=0x3649344b.
 RX1 :reg0x1130=0x344b3649.
tia_cnt_i : 0 ,
tia_cnt_q : 54 ,
RX1 tia case :6,absolute value dc_i : 0 , value dc_q : -3 
RX1:reg0x12c8=0x347f344b.
Q:reg0x12cc=0x364b324d.
 RX1 :reg0x1130=0x324d364b.
tia_cnt_i : 0 ,
tia_cnt_q : 52 ,
RX1 tia case :7,absolute value dc_i : 0 , value dc_q : -3 
RX1:reg0x12cc=0x327f324d.
Q:reg0x12d0=0x344b2c51.
 RX1 :reg0x1130=0x2c51344b.
tia_cnt_i : 0 ,
tia_cnt_q : 52 ,
RX1 tia case :8,absolute value dc_i : 0 , value dc_q : -3 
RX1:reg0x12d0=0x2c7f2c51.
Q:reg0x12d4=0x344b2c53.
 RX1 :reg0x1130=0x2c53344b.
tia_cnt_i : 0 ,
tia_cnt_q : 52 ,
RX1 tia case :9,absolute value dc_i : 0 , value dc_q : -3 
RX1:reg0x12d4=0x2c7f2c53.
Q:reg0x12d8=0x324d2e53.
 RX1 :reg0x1130=0x2e53324d.
tia_cnt_i : 0 ,
tia_cnt_q : 50 ,
RX1 tia case :10,absolute value dc_i : 0 , value dc_q : -3 
RX1:reg0x12d8=0x2e7f2e53.
Q:reg0x12dc=0x324d2c51.
 RX1 :reg0x1130=0x2c51324d.
tia_cnt_i : 0 ,
tia_cnt_q : 50 ,
RX1 tia case :11,absolute value dc_i : 0 , value dc_q : -3 
RX1:reg0x12dc=0x2c7f2c51.
Q:reg0x12e0=0x324d2c53.
 RX1 :reg0x1130=0x2c53324d.
tia_cnt_i : 0 ,
tia_cnt_q : 50 ,
RX1 tia case :12,absolute value dc_i : 0 , value dc_q : -3 
RX1:reg0x12e0=0x2c7f2c53.
tia calibration end!
rx0 vga calibration begin
reg0x1120=0x3fc100.
vga case:1 pass.
RX0 vga case:1 ,absolute value dc_i_tmp : 14 , value dc_q_tmp : 7 ,I:reg0x1184=0x13152915.   Q:reg0x11c0=0x2d29190b.
vga case:2 pass.
RX0 vga case:2 ,absolute value dc_i_tmp : 14 , value dc_q_tmp : 6 ,I:reg0x1188=0x13152915.   Q:reg0x11c4=0x2b27190b.
vga case:3 pass.
RX0 vga case:3 ,absolute value dc_i_tmp : 11 , value dc_q_tmp : 7 ,I:reg0x118c=0x17172915.   Q:reg0x11c8=0x2d29190b.
vga case:4 pass.
RX0 vga case:4 ,absolute value dc_i_tmp : 13 , value dc_q_tmp : 6 ,I:reg0x1190=0x15172915.   Q:reg0x11cc=0x2d27190b.
vga case:5 pass.
RX0 vga case:5 ,absolute value dc_i_tmp : 12 , value dc_q_tmp : 6 ,I:reg0x1194=0x15172915.   Q:reg0x11d0=0x2d27190b.
vga case:6 pass.
RX0 vga case:6 ,absolute value dc_i_tmp : 12 , value dc_q_tmp : 6 ,I:reg0x1198=0x15172915.   Q:reg0x11d4=0x2f27190b.
vga case:7 pass.
RX0 vga case:7 ,absolute value dc_i_tmp : 11 , value dc_q_tmp : 5 ,I:reg0x119c=0x17172915.   Q:reg0x11d8=0x3125190b.
vga case:8 pass.
RX0 vga case:8 ,absolute value dc_i_tmp : 10 , value dc_q_tmp : 6 ,I:reg0x11a0=0x17172b13.   Q:reg0x11dc=0x2d2d190b.
vga case:9 pass.
RX0 vga case:9 ,absolute value dc_i_tmp : 12 , value dc_q_tmp : 5 ,I:reg0x11a4=0x13192b0f.   Q:reg0x11e0=0x2b2b1909.
vga case:10 pass.
RX0 vga case:10 ,absolute value dc_i_tmp : 10 , value dc_q_tmp : 5 ,I:reg0x11a8=0x170f310d.   Q:reg0x11e4=0x292b1907.
vga case:11 pass.
RX0 vga case:11 ,absolute value dc_i_tmp : 11 , value dc_q_tmp : 6 ,I:reg0x11ac=0x1b133509.   Q:reg0x11e8=0x2d291d07.
vga case:12 pass.
RX0 vga case:12 ,absolute value dc_i_tmp : 11 , value dc_q_tmp : 5 ,I:reg0x11b0=0x19153905.   Q:reg0x11ec=0x31271f05.
vga case:13 pass.
RX0 vga case:13 ,absolute value dc_i_tmp : 11 , value dc_q_tmp : 4 ,I:reg0x11b4=0xd1f3f01.   Q:reg0x11f0=0x2b2d2103.
vga case:14 pass.
RX0 vga case:14 ,absolute value dc_i_tmp : 8 , value dc_q_tmp : 5 ,I:reg0x11b8=0x13f3f01.   Q:reg0x11f4=0x2d272b01.
rx1 vga calibration begin
rx1 vga case:1 pass.
RX1 vga case:1 ,absolute value dc_i_tmp : 3 , value dc_q_tmp : 2 ,I:reg0x11fc=0x131b2125. Q:reg0x1238=0x312d211f.
rx1 vga case:2 pass.
RX1 vga case:2 ,absolute value dc_i_tmp : 3 , value dc_q_tmp : 2 ,I:reg0x1200=0x11192125. Q:reg0x123c=0x312d211f.
rx1 vga case:3 pass.
RX1 vga case:3 ,absolute value dc_i_tmp : 3 , value dc_q_tmp : 3 ,I:reg0x1204=0x131b2125. Q:reg0x1240=0x2f2b211f.
rx1 vga case:4 pass.
RX1 vga case:4 ,absolute value dc_i_tmp : 1 , value dc_q_tmp : 1 ,I:reg0x1208=0x13192125. Q:reg0x1244=0x312b211f.
rx1 vga case:5 pass.
RX1 vga case:5 ,absolute value dc_i_tmp : 1 , value dc_q_tmp : 2 ,I:reg0x120c=0x13192125. Q:reg0x1248=0x312b211f.
rx1 vga case:6 pass.
RX1 vga case:6 ,absolute value dc_i_tmp : 1 , value dc_q_tmp : 1 ,I:reg0x1210=0x13192125. Q:reg0x124c=0x3129211f.
rx1 vga case:7 pass.
RX1 vga case:7 ,absolute value dc_i_tmp : 1 , value dc_q_tmp : 1 ,I:reg0x1214=0x13192125. Q:reg0x1250=0x3329211f.
rx1 vga case:8 pass.
RX1 vga case:8 ,absolute value dc_i_tmp : 1 , value dc_q_tmp : 1 ,I:reg0x1218=0x15152125. Q:reg0x1254=0x332b211f.
rx1 vga case:9 pass.
RX1 vga case:9 ,absolute value dc_i_tmp : 1 , value dc_q_tmp : 1 ,I:reg0x121c=0x13191f25. Q:reg0x1258=0x2f2b211f.
rx1 vga case:10 pass.
RX1 vga case:10 ,absolute value dc_i_tmp : 1 , value dc_q_tmp : 1 ,I:reg0x1220=0x111b1d25. Q:reg0x125c=0x312b1f1d.
rx1 vga case:11 pass.
RX1 vga case:11 ,absolute value dc_i_tmp : 1 , value dc_q_tmp : 1 ,I:reg0x1224=0x111f1d27. Q:reg0x1260=0x3129211d.
rx1 vga case:12 pass.
RX1 vga case:12 ,absolute value dc_i_tmp : 1 , value dc_q_tmp : 1 ,I:reg0x1228=0x131d1d29. Q:reg0x1264=0x2f2d211d.
rx1 vga case:13 pass.
RX1 vga case:13 ,absolute value dc_i_tmp : 1 , value dc_q_tmp : 1 ,I:reg0x122c=0x131b1b29. Q:reg0x1268=0x312b231d.
rx1 vga case:14 pass.
RX1 vga case:14 ,absolute value dc_i_tmp : 1 , value dc_q_tmp : 1 ,I:reg0x1230=0x111d192d. Q:reg0x126c=0x2f2d231b.
reg0x1120=0x3c0100.
vga calibration end!
RX0: 0x103c : e0020000 ,0x1040 : 80001102 
RX1: 0x1054 : e0020000 ,0x1058 : 80001100 
THIS CASE J: 0 M: 8 
adc calibration begin
calibration begin
RX0 cali pre ,absolute value dc_i_tmp : 6 , value dc_q_tmp : 5 ,
reg0x1180=0x373f0b09.
reg0x11bc=0x2b27150f.
RX1 cali pre ,absolute value dc_i_tmp : 4 , value dc_q_tmp : 5 ,reg0x11f8=0x131b2125.
reg0x1234=0x312d211f.
rx0 tia cali begin:
####:reg0x1270=0x502f502d.
tia_cnt_i : 8 ,
tia_cnt_q : 69 ,
I:reg0x1150=0x373f0b09.
Q:reg0x1154=0x2b27150f.
RX0 tia case :0,absolute value dc_i : -1 , value dc_q : -1 
####:reg0x1270=0x48744835.
####:reg0x1274=0x4c31502f.
tia_cnt_i : 7 ,
tia_cnt_q : 78 ,
I:reg0x1150=0x373f0b09.
Q:reg0x1154=0x2b27150f.
RX0 tia case :1,absolute value dc_i : -1 , value dc_q : -3 
####:reg0x1274=0x497f4936.
####:reg0x1278=0x4c334e31.
tia_cnt_i : 7 ,
tia_cnt_q : 76 ,
I:reg0x1150=0x373f0b09.
Q:reg0x1154=0x2b27150f.
RX0 tia case :2,absolute value dc_i : -1 , value dc_q : -4 
####:reg0x1278=0x477f4738.
####:reg0x127c=0x4a354a35.
tia_cnt_i : 7 ,
tia_cnt_q : 74 ,
I:reg0x1150=0x373f0b09.
Q:reg0x1154=0x2b27150f.
RX0 tia case :3,absolute value dc_i : -1 , value dc_q : -4 
####:reg0x127c=0x437f433c.
####:reg0x1280=0x3e433c43.
tia_cnt_i : 3 ,
tia_cnt_q : 60 ,
I:reg0x1150=0x373f0b09.
Q:reg0x1154=0x2b27150f.
RX0 tia case :4,absolute value dc_i : -1 , value dc_q : -4 
####:reg0x1280=0x397f3946.
####:reg0x1284=0x3e433c41.
tia_cnt_i : 3 ,
tia_cnt_q : 60 ,
I:reg0x1150=0x373f0b09.
Q:reg0x1154=0x2b27150f.
RX0 tia case :5,absolute value dc_i : -1 , value dc_q : -4 
####:reg0x1284=0x397f3944.
####:reg0x1288=0x3c433a45.
tia_cnt_i : 2 ,
tia_cnt_q : 60 ,
I:reg0x1150=0x373f0b09.
Q:reg0x1154=0x2b27150f.
RX0 tia case :6,absolute value dc_i : -1 , value dc_q : -4 
####:reg0x1288=0x387f3847.
####:reg0x128c=0x3a453a45.
tia_cnt_i : 1 ,
tia_cnt_q : 58 ,
I:reg0x1150=0x373f0b09.
Q:reg0x1154=0x2b27150f.
RX0 tia case :7,absolute value dc_i : -1 , value dc_q : -4 
####:reg0x128c=0x397f3946.
####:reg0x1290=0x36493649.
tia_cnt_i : 3 ,
tia_cnt_q : 54 ,
I:reg0x1150=0x373f0b09.
Q:reg0x1154=0x2b27150f.
RX0 tia case :8,absolute value dc_i : -1 , value dc_q : -4 
####:reg0x1290=0x337f334c.
####:reg0x1294=0x36493649.
tia_cnt_i : 1 ,
tia_cnt_q : 54 ,
I:reg0x1150=0x373f0b09.
Q:reg0x1154=0x2b27150f.
RX0 tia case :9,absolute value dc_i : -1 , value dc_q : -4 
####:reg0x1294=0x357f354a.
####:reg0x1298=0x3649364b.
tia_cnt_i : 0 ,
tia_cnt_q : 54 ,
I:reg0x1150=0x373f0b09.
Q:reg0x1154=0x2b27150f.
RX0 tia case :10,absolute value dc_i : -1 , value dc_q : -4 
####:reg0x1298=0x367f364b.
####:reg0x129c=0x3649364b.
tia_cnt_i : 0 ,
tia_cnt_q : 54 ,
I:reg0x1150=0x373f0b09.
Q:reg0x1154=0x2b27150f.
RX0 tia case :11,absolute value dc_i : -1 , value dc_q : -4 
####:reg0x129c=0x367f364b.
####:reg0x12a0=0x36493449.
tia_cnt_i : 1 ,
tia_cnt_q : 54 ,
I:reg0x1150=0x373f0b09.
Q:reg0x1154=0x2b27150f.
RX0 tia case :12,absolute value dc_i : -1 , value dc_q : -4 
####:reg0x12a0=0x337f334a.
rx1 tia cali begin:
Q:reg0x12b0=0x4a374a35.
 RX1 :reg0x1130=0x4a354a37.
tia_cnt_i : 74 ,
tia_cnt_q : 1 ,
RX1 tia case :0,absolute value dc_i : -4 , value dc_q : -1 
RX1:reg0x12b0=0x38007f.
Q:reg0x12b4=0x46394837.
 RX1 :reg0x1130=0x48374639.
tia_cnt_i : 72 ,
tia_cnt_q : 1 ,
RX1 tia case :1,absolute value dc_i : -4 , value dc_q : -3 
RX1:reg0x12b4=0x3a007f.
Q:reg0x12b8=0x44394837.
 RX1 :reg0x1130=0x48374439.
tia_cnt_i : 72 ,
tia_cnt_q : 1 ,
RX1 tia case :2,absolute value dc_i : -4 , value dc_q : -4 
RX1:reg0x12b8=0x3a007f.
Q:reg0x12bc=0x3e41423d.
 RX1 :reg0x1130=0x423d3e41.
tia_cnt_i : 66 ,
tia_cnt_q : 1 ,
RX1 tia case :3,absolute value dc_i : -4 , value dc_q : -5 
RX1:reg0x12bc=0x42007f.
Q:reg0x12c0=0x3c433a45.
 RX1 :reg0x1130=0x3a453c43.
tia_cnt_i : 58 ,
tia_cnt_q : 1 ,
RX1 tia case :4,absolute value dc_i : -4 , value dc_q : -6 
RX1:reg0x12c0=0x44007f.
Q:reg0x12c4=0x3649344b.
 RX1 :reg0x1130=0x344b3649.
tia_cnt_i : 52 ,
tia_cnt_q : 1 ,
RX1 tia case :5,absolute value dc_i : -4 , value dc_q : -6 
RX1:reg0x12c4=0x4a007f.
Q:reg0x12c8=0x364b324d.
 RX1 :reg0x1130=0x324d364b.
tia_cnt_i : 50 ,
tia_cnt_q : 1 ,
RX1 tia case :6,absolute value dc_i : -4 , value dc_q : -6 
RX1:reg0x12c8=0x4c007f.
Q:reg0x12cc=0x3449304d.
 RX1 :reg0x1130=0x304d3449.
tia_cnt_i : 48 ,
tia_cnt_q : 1 ,
RX1 tia case :7,absolute value dc_i : -4 , value dc_q : -6 
RX1:reg0x12cc=0x4a007d.
Q:reg0x12d0=0x324d2e53.
 RX1 :reg0x1130=0x2e53324d.
tia_cnt_i : 44 ,
tia_cnt_q : 50 ,
RX1 tia case :8,absolute value dc_i : -4 , value dc_q : -5 
RX1:reg0x12d0=0x27f027f.
Q:reg0x12d4=0x324d2c53.
 RX1 :reg0x1130=0x2c53324d.
tia_cnt_i : 44 ,
tia_cnt_q : 1 ,
RX1 tia case :9,absolute value dc_i : -4 , value dc_q : -6 
RX1:reg0x12d4=0x4e007f.
Q:reg0x12d8=0x344b2c51.
 RX1 :reg0x1130=0x2c51344b.
tia_cnt_i : 44 ,
tia_cnt_q : 1 ,
RX1 tia case :10,absolute value dc_i : -4 , value dc_q : -6 
RX1:reg0x12d8=0x4c007d.
Q:reg0x12dc=0x324d2c53.
 RX1 :reg0x1130=0x2c53324d.
tia_cnt_i : 44 ,
tia_cnt_q : 1 ,
RX1 tia case :11,absolute value dc_i : -4 , value dc_q : -6 
RX1:reg0x12dc=0x4e007f.
Q:reg0x12e0=0x344b2e53.
 RX1 :reg0x1130=0x2e53344b.
tia_cnt_i : 44 ,
tia_cnt_q : 52 ,
RX1 tia case :12,absolute value dc_i : -4 , value dc_q : -5 
RX1:reg0x12e0=0x27f027f.
tia calibration end!
rx0 vga calibration begin
reg0x1120=0x3fc100.
vga case:1 pass.
RX0 vga case:1 ,absolute value dc_i_tmp : 6 , value dc_q_tmp : 7 ,I:reg0x1184=0x1717231d.   Q:reg0x11c0=0x2b27190b.
vga case:2 pass.
RX0 vga case:2 ,absolute value dc_i_tmp : 6 , value dc_q_tmp : 8 ,I:reg0x1188=0x1717231d.   Q:reg0x11c4=0x2b27190b.
vga case:3 pass.
RX0 vga case:3 ,absolute value dc_i_tmp : 6 , value dc_q_tmp : 6 ,I:reg0x118c=0x1717231d.   Q:reg0x11c8=0x2b27190b.
vga case:4 pass.
RX0 vga case:4 ,absolute value dc_i_tmp : 6 , value dc_q_tmp : 5 ,I:reg0x1190=0x1515231d.   Q:reg0x11cc=0x2d27190b.
vga case:5 pass.
RX0 vga case:5 ,absolute value dc_i_tmp : 6 , value dc_q_tmp : 7 ,I:reg0x1194=0x1715211b.   Q:reg0x11d0=0x2d27190b.
vga case:6 pass.
RX0 vga case:6 ,absolute value dc_i_tmp : 7 , value dc_q_tmp : 7 ,I:reg0x1198=0x1917231d.   Q:reg0x11d4=0x2f27190b.
vga case:7 pass.
RX0 vga case:7 ,absolute value dc_i_tmp : 7 , value dc_q_tmp : 7 ,I:reg0x119c=0x1917231d.   Q:reg0x11d8=0x3127190b.
vga case:8 pass.
RX0 vga case:8 ,absolute value dc_i_tmp : 6 , value dc_q_tmp : 7 ,I:reg0x11a0=0x1317231d.   Q:reg0x11dc=0x292b190b.
vga case:9 pass.
RX0 vga case:9 ,absolute value dc_i_tmp : 6 , value dc_q_tmp : 7 ,I:reg0x11a4=0x1517211b.   Q:reg0x11e0=0x292b1909.
vga case:10 pass.
RX0 vga case:10 ,absolute value dc_i_tmp : 5 , value dc_q_tmp : 7 ,I:reg0x11a8=0x1119211b.   Q:reg0x11e4=0x31231b07.
vga case:11 pass.
RX0 vga case:11 ,absolute value dc_i_tmp : 6 , value dc_q_tmp : 7 ,I:reg0x11ac=0x1311231b.   Q:reg0x11e8=0x2b291d07.
vga case:12 pass.
RX0 vga case:12 ,absolute value dc_i_tmp : 6 , value dc_q_tmp : 6 ,I:reg0x11b0=0x1b19231b.   Q:reg0x11ec=0x31252105.
vga case:13 pass.
RX0 vga case:13 ,absolute value dc_i_tmp : 5 , value dc_q_tmp : 6 ,I:reg0x11b4=0x15112319.   Q:reg0x11f0=0x31272303.
vga case:14 pass.
RX0 vga case:14 ,absolute value dc_i_tmp : 5 , value dc_q_tmp : 7 ,I:reg0x11b8=0x13152519.   Q:reg0x11f4=0x2b272b01.
rx1 vga calibration begin
rx1 vga case:1 pass.
RX1 vga case:1 ,absolute value dc_i_tmp : 4 , value dc_q_tmp : 5 ,I:reg0x11fc=0x1319291b. Q:reg0x1238=0x2f2d211b.
rx1 vga case:2 pass.
RX1 vga case:2 ,absolute value dc_i_tmp : 5 , value dc_q_tmp : 5 ,I:reg0x1200=0x1319291b. Q:reg0x123c=0x2f2d231d.
rx1 vga case:3 pass.
RX1 vga case:3 ,absolute value dc_i_tmp : 5 , value dc_q_tmp : 5 ,I:reg0x1204=0x1319291b. Q:reg0x1240=0x2f2d211b.
rx1 vga case:4 pass.
RX1 vga case:4 ,absolute value dc_i_tmp : 5 , value dc_q_tmp : 5 ,I:reg0x1208=0x1319291b. Q:reg0x1244=0x2f2d231d.
rx1 vga case:5 pass.
RX1 vga case:5 ,absolute value dc_i_tmp : 5 , value dc_q_tmp : 5 ,I:reg0x120c=0x1317291b. Q:reg0x1248=0x2f2d231d.
rx1 vga case:6 pass.
RX1 vga case:6 ,absolute value dc_i_tmp : 5 , value dc_q_tmp : 5 ,I:reg0x1210=0x1319291b. Q:reg0x124c=0x2f2d231d.
rx1 vga case:7 pass.
RX1 vga case:7 ,absolute value dc_i_tmp : 5 , value dc_q_tmp : 4 ,I:reg0x1214=0x1519291b. Q:reg0x1250=0x2f2d231d.
rx1 vga case:8 pass.
RX1 vga case:8 ,absolute value dc_i_tmp : 5 , value dc_q_tmp : 5 ,I:reg0x1218=0x111b2919. Q:reg0x1254=0x2f2d231b.
rx1 vga case:9 pass.
RX1 vga case:9 ,absolute value dc_i_tmp : 5 , value dc_q_tmp : 5 ,I:reg0x121c=0x15172d17. Q:reg0x1258=0x2f2d251b.
rx1 vga case:10 pass.
RX1 vga case:10 ,absolute value dc_i_tmp : 5 , value dc_q_tmp : 5 ,I:reg0x1220=0x111b2f15. Q:reg0x125c=0x33292719.
rx1 vga case:11 pass.
RX1 vga case:11 ,absolute value dc_i_tmp : 4 , value dc_q_tmp : 4 ,I:reg0x1224=0x111d3111. Q:reg0x1260=0x2f2f2717.
rx1 vga case:12 pass.
RX1 vga case:12 ,absolute value dc_i_tmp : 4 , value dc_q_tmp : 4 ,I:reg0x1228=0x1119370f. Q:reg0x1264=0x2f2d2915.
rx1 vga case:13 pass.
RX1 vga case:13 ,absolute value dc_i_tmp : 5 , value dc_q_tmp : 4 ,I:reg0x122c=0x15193b09. Q:reg0x1268=0x332b2d13.
rx1 vga case:14 pass.
RX1 vga case:14 ,absolute value dc_i_tmp : 0 , value dc_q_tmp : 4 ,I:reg0x1230=0x13d3f01. Q:reg0x126c=0x332d310d.
reg0x1120=0x3c0100.
vga calibration end!
RX0: 0x103c : e0024000 ,0x1040 : 90001102 
RX1: 0x1054 : e0024000 ,0x1058 : 90001100 
THIS CASE J: 0 M: 9 
adc calibration begin
calibration begin
RX0 cali pre ,absolute value dc_i_tmp : 1 , value dc_q_tmp : 2 ,
reg0x1180=0x17171f1d.
reg0x11bc=0x2b27150f.
RX1 cali pre ,absolute value dc_i_tmp : 1 , value dc_q_tmp : 0 ,reg0x11f8=0x151f1519.
reg0x1234=0x312d1f1f.
rx0 tia cali begin:
####:reg0x1270=0x4c31522f.
tia_cnt_i : 0 ,
tia_cnt_q : 0 ,
I:reg0x1150=0x17171f1d.
Q:reg0x1154=0x2b27150f.
RX0 tia case :0,absolute value dc_i : -1 , value dc_q : -1 
####:reg0x1270=0x4c31522f.
####:reg0x1274=0x4e31502f.
tia_cnt_i : 0 ,
tia_cnt_q : 0 ,
I:reg0x1150=0x17171f1d.
Q:reg0x1154=0x2b27150f.
RX0 tia case :1,absolute value dc_i : -1 , value dc_q : 0 
####:reg0x1274=0x4e31502f.
####:reg0x1278=0x4c334e31.
tia_cnt_i : 0 ,
tia_cnt_q : 0 ,
I:reg0x1150=0x17171f1d.
Q:reg0x1154=0x2b27150f.
RX0 tia case :2,absolute value dc_i : 0 , value dc_q : 0 
####:reg0x1278=0x4c334e31.
####:reg0x127c=0x4a354a35.
tia_cnt_i : 0 ,
tia_cnt_q : 0 ,
I:reg0x1150=0x17171f1d.
Q:reg0x1154=0x2b27150f.
RX0 tia case :3,absolute value dc_i : 0 , value dc_q : 1 
####:reg0x127c=0x4a354a35.
####:reg0x1280=0x3e433c43.
tia_cnt_i : 0 ,
tia_cnt_q : 0 ,
I:reg0x1150=0x17171f1d.
Q:reg0x1154=0x2b27150f.
RX0 tia case :4,absolute value dc_i : 0 , value dc_q : 1 
####:reg0x1280=0x3e433c43.
####:reg0x1284=0x3c433c43.
tia_cnt_i : 0 ,
tia_cnt_q : 0 ,
I:reg0x1150=0x17171f1d.
Q:reg0x1154=0x2b27150f.
RX0 tia case :5,absolute value dc_i : 1 , value dc_q : 1 
####:reg0x1284=0x3c433c43.
####:reg0x1288=0x3a453c43.
tia_cnt_i : 0 ,
tia_cnt_q : 0 ,
I:reg0x1150=0x17171f1d.
Q:reg0x1154=0x2b27150f.
RX0 tia case :6,absolute value dc_i : 0 , value dc_q : 1 
####:reg0x1288=0x3a453c43.
####:reg0x128c=0x3a453845.
tia_cnt_i : 0 ,
tia_cnt_q : 0 ,
I:reg0x1150=0x17171f1d.
Q:reg0x1154=0x2b27150f.
RX0 tia case :7,absolute value dc_i : 0 , value dc_q : 1 
####:reg0x128c=0x3a453845.
####:reg0x1290=0x3649344b.
tia_cnt_i : 0 ,
tia_cnt_q : 0 ,
I:reg0x1150=0x17171f1d.
Q:reg0x1154=0x2b27150f.
RX0 tia case :8,absolute value dc_i : 0 , value dc_q : 1 
####:reg0x1290=0x3649344b.
####:reg0x1294=0x3847364b.
tia_cnt_i : 0 ,
tia_cnt_q : 0 ,
I:reg0x1150=0x17171f1d.
Q:reg0x1154=0x2b27150f.
RX0 tia case :9,absolute value dc_i : 0 , value dc_q : 1 
####:reg0x1294=0x3847364b.
####:reg0x1298=0x38473449.
tia_cnt_i : 0 ,
tia_cnt_q : 0 ,
I:reg0x1150=0x17171f1d.
Q:reg0x1154=0x2b27150f.
RX0 tia case :10,absolute value dc_i : 1 , value dc_q : 1 
####:reg0x1298=0x38473449.
####:reg0x129c=0x3847344b.
tia_cnt_i : 0 ,
tia_cnt_q : 0 ,
I:reg0x1150=0x17171f1d.
Q:reg0x1154=0x2b27150f.
RX0 tia case :11,absolute value dc_i : 1 , value dc_q : 1 
####:reg0x129c=0x3847344b.
####:reg0x12a0=0x36493449.
tia_cnt_i : 0 ,
tia_cnt_q : 0 ,
I:reg0x1150=0x17171f1d.
Q:reg0x1154=0x2b27150f.
RX0 tia case :12,absolute value dc_i : 1 , value dc_q : 1 
####:reg0x12a0=0x36493449.
rx1 tia cali begin:
Q:reg0x12b0=0x48374a35.
 RX1 :reg0x1130=0x4a354837.
tia_cnt_i : 9 ,
tia_cnt_q : 0 ,
RX1 tia case :0,absolute value dc_i : 1 , value dc_q : 0 
RX1:reg0x12b0=0x4837532c.
Q:reg0x12b4=0x46394639.
 RX1 :reg0x1130=0x46394639.
tia_cnt_i : 57 ,
tia_cnt_q : 0 ,
RX1 tia case :1,absolute value dc_i : 3 , value dc_q : 0 
RX1:reg0x12b4=0x46397f00.
Q:reg0x12b8=0x443b4639.
 RX1 :reg0x1130=0x4639443b.
tia_cnt_i : 57 ,
tia_cnt_q : 0 ,
RX1 tia case :2,absolute value dc_i : 3 , value dc_q : -1 
RX1:reg0x12b8=0x443b7f00.
Q:reg0x12bc=0x3e413e41.
 RX1 :reg0x1130=0x3e413e41.
tia_cnt_i : 65 ,
tia_cnt_q : 0 ,
RX1 tia case :3,absolute value dc_i : 3 , value dc_q : -1 
RX1:reg0x12bc=0x3e417f00.
Q:reg0x12c0=0x3a453a45.
 RX1 :reg0x1130=0x3a453a45.
tia_cnt_i : 69 ,
tia_cnt_q : 58 ,
RX1 tia case :4,absolute value dc_i : 4 , value dc_q : -2 
RX1:reg0x12c0=0x7f7f7f00.
Q:reg0x12c4=0x3649344b.
 RX1 :reg0x1130=0x344b3649.
tia_cnt_i : 75 ,
tia_cnt_q : 0 ,
RX1 tia case :5,absolute value dc_i : 3 , value dc_q : -1 
RX1:reg0x12c4=0x36497f00.
Q:reg0x12c8=0x364b2e51.
 RX1 :reg0x1130=0x2e51364b.
tia_cnt_i : 81 ,
tia_cnt_q : 52 ,
RX1 tia case :6,absolute value dc_i : 4 , value dc_q : -2 
RX1:reg0x12c8=0x7f7f7f00.
Q:reg0x12cc=0x364b324d.
 RX1 :reg0x1130=0x324d364b.
tia_cnt_i : 77 ,
tia_cnt_q : 0 ,
RX1 tia case :7,absolute value dc_i : 3 , value dc_q : -1 
RX1:reg0x12cc=0x364b7f00.
Q:reg0x12d0=0x324d2e53.
 RX1 :reg0x1130=0x2e53324d.
tia_cnt_i : 81 ,
tia_cnt_q : 50 ,
RX1 tia case :8,absolute value dc_i : 3 , value dc_q : -2 
RX1:reg0x12d0=0x7f7f7f02.
Q:reg0x12d4=0x324d2a55.
 RX1 :reg0x1130=0x2a55324d.
tia_cnt_i : 85 ,
tia_cnt_q : 0 ,
RX1 tia case :9,absolute value dc_i : 3 , value dc_q : -1 
RX1:reg0x12d4=0x324d7f00.
Q:reg0x12d8=0x324d2e53.
 RX1 :reg0x1130=0x2e53324d.
tia_cnt_i : 81 ,
tia_cnt_q : 0 ,
RX1 tia case :10,absolute value dc_i : 3 , value dc_q : -1 
RX1:reg0x12d8=0x324d7f02.
Q:reg0x12dc=0x344b2e53.
 RX1 :reg0x1130=0x2e53344b.
tia_cnt_i : 81 ,
tia_cnt_q : 52 ,
RX1 tia case :11,absolute value dc_i : 3 , value dc_q : -2 
RX1:reg0x12dc=0x7f7f7f02.
Q:reg0x12e0=0x324d2e53.
 RX1 :reg0x1130=0x2e53324d.
tia_cnt_i : 81 ,
tia_cnt_q : 50 ,
RX1 tia case :12,absolute value dc_i : 3 , value dc_q : -2 
RX1:reg0x12e0=0x7f7f7f02.
tia calibration end!
rx0 vga calibration begin
reg0x1120=0x3fc100.
vga case:1 pass.
RX0 vga case:1 ,absolute value dc_i_tmp : 1 , value dc_q_tmp : 2 ,I:reg0x1184=0x15151f1d.   Q:reg0x11c0=0x2b29150f.
vga case:2 pass.
RX0 vga case:2 ,absolute value dc_i_tmp : 1 , value dc_q_tmp : 3 ,I:reg0x1188=0x1715211d.   Q:reg0x11c4=0x2b29150f.
vga case:3 pass.
RX0 vga case:3 ,absolute value dc_i_tmp : 1 , value dc_q_tmp : 1 ,I:reg0x118c=0x1715211d.   Q:reg0x11c8=0x2d29150f.
vga case:4 pass.
RX0 vga case:4 ,absolute value dc_i_tmp : 1 , value dc_q_tmp : 1 ,I:reg0x1190=0x1715211d.   Q:reg0x11cc=0x2d29150f.
vga case:5 pass.
RX0 vga case:5 ,absolute value dc_i_tmp : 1 , value dc_q_tmp : 1 ,I:reg0x1194=0x17172321.   Q:reg0x11d0=0x2d29150f.
vga case:6 pass.
RX0 vga case:6 ,absolute value dc_i_tmp : 1 , value dc_q_tmp : 2 ,I:reg0x1198=0x15172321.   Q:reg0x11d4=0x2d29150f.
vga case:7 pass.
RX0 vga case:7 ,absolute value dc_i_tmp : 0 , value dc_q_tmp : 1 ,I:reg0x119c=0x1911211d.   Q:reg0x11d8=0x2d27150f.
vga case:8 pass.
RX0 vga case:8 ,absolute value dc_i_tmp : 1 , value dc_q_tmp : 1 ,I:reg0x11a0=0x15152321.   Q:reg0x11dc=0x2f27150f.
vga case:9 pass.
RX0 vga case:9 ,absolute value dc_i_tmp : 0 , value dc_q_tmp : 1 ,I:reg0x11a4=0x19111f1d.   Q:reg0x11e0=0x3125150f.
vga case:10 pass.
RX0 vga case:10 ,absolute value dc_i_tmp : 0 , value dc_q_tmp : 1 ,I:reg0x11a8=0x15192121.   Q:reg0x11e4=0x2b2b130f.
vga case:11 pass.
RX0 vga case:11 ,absolute value dc_i_tmp : 1 , value dc_q_tmp : 1 ,I:reg0x11ac=0x19172121.   Q:reg0x11e8=0x2f27130f.
vga case:12 pass.
RX0 vga case:12 ,absolute value dc_i_tmp : 1 , value dc_q_tmp : 0 ,I:reg0x11b0=0x19132121.   Q:reg0x11ec=0x2b2b110f.
vga case:13 pass.
RX0 vga case:13 ,absolute value dc_i_tmp : 1 , value dc_q_tmp : 1 ,I:reg0x11b4=0x190f1f21.   Q:reg0x11f0=0x292f0f0f.
vga case:14 pass.
RX0 vga case:14 ,absolute value dc_i_tmp : 1 , value dc_q_tmp : 1 ,I:reg0x11b8=0x15191b21.   Q:reg0x11f4=0x2f271111.
rx1 vga calibration begin
rx1 vga case:1 pass.
RX1 vga case:1 ,absolute value dc_i_tmp : 1 , value dc_q_tmp : 0 ,I:reg0x11fc=0x131b1f25. Q:reg0x1238=0x312d1f1f.
rx1 vga case:2 pass.
RX1 vga case:2 ,absolute value dc_i_tmp : 0 , value dc_q_tmp : 1 ,I:reg0x1200=0x13191f25. Q:reg0x123c=0x2f2b1f1f.
rx1 vga case:3 pass.
RX1 vga case:3 ,absolute value dc_i_tmp : 0 , value dc_q_tmp : 1 ,I:reg0x1204=0x13191f25. Q:reg0x1240=0x2f2b1f1f.
rx1 vga case:4 pass.
RX1 vga case:4 ,absolute value dc_i_tmp : 0 , value dc_q_tmp : 1 ,I:reg0x1208=0x13191f25. Q:reg0x1244=0x2f2b1f1f.
rx1 vga case:5 pass.
RX1 vga case:5 ,absolute value dc_i_tmp : 0 , value dc_q_tmp : 0 ,I:reg0x120c=0x13191f25. Q:reg0x1248=0x312b1f1f.
rx1 vga case:6 pass.
RX1 vga case:6 ,absolute value dc_i_tmp : 0 , value dc_q_tmp : 1 ,I:reg0x1210=0x13191f25. Q:reg0x124c=0x312b1f1f.
rx1 vga case:7 pass.
RX1 vga case:7 ,absolute value dc_i_tmp : 1 , value dc_q_tmp : 0 ,I:reg0x1214=0x13191f25. Q:reg0x1250=0x332b1f1f.
rx1 vga case:8 pass.
RX1 vga case:8 ,absolute value dc_i_tmp : 1 , value dc_q_tmp : 0 ,I:reg0x1218=0xf1b1f27. Q:reg0x1254=0x312b1f1f.
rx1 vga case:9 pass.
RX1 vga case:9 ,absolute value dc_i_tmp : 1 , value dc_q_tmp : 0 ,I:reg0x121c=0x111d1d27. Q:reg0x1258=0x3329211f.
rx1 vga case:10 pass.
RX1 vga case:10 ,absolute value dc_i_tmp : 1 , value dc_q_tmp : 1 ,I:reg0x1220=0x111b1d29. Q:reg0x125c=0x312b211f.
rx1 vga case:11 pass.
RX1 vga case:11 ,absolute value dc_i_tmp : 0 , value dc_q_tmp : 0 ,I:reg0x1224=0x15171b29. Q:reg0x1260=0x2b2f1d1d.
rx1 vga case:12 pass.
RX1 vga case:12 ,absolute value dc_i_tmp : 1 , value dc_q_tmp : 1 ,I:reg0x1228=0x131d192b. Q:reg0x1264=0x3327211d.
rx1 vga case:13 pass.
RX1 vga case:13 ,absolute value dc_i_tmp : 1 , value dc_q_tmp : 0 ,I:reg0x122c=0x111d172d. Q:reg0x1268=0x312b211d.
rx1 vga case:14 pass.
RX1 vga case:14 ,absolute value dc_i_tmp : 0 , value dc_q_tmp : 0 ,I:reg0x1230=0x15171331. Q:reg0x126c=0x3329231d.
reg0x1120=0x3c0100.
vga calibration end!
RX0: 0x103c : e0028000 ,0x1040 : a0001102 
RX1: 0x1054 : e0028000 ,0x1058 : a0001100 
THIS CASE J: 0 M:10 
adc calibration begin
calibration begin
RX0 cali pre ,absolute value dc_i_tmp : 1 , value dc_q_tmp : 1 ,
reg0x1180=0x17171f1d.
reg0x11bc=0x2d29150f.
RX1 cali pre ,absolute value dc_i_tmp : 1 , value dc_q_tmp : 1 ,reg0x11f8=0x11192125.
reg0x1234=0x312d211f.
rx0 tia cali begin:
####:reg0x1270=0x502f522d.
tia_cnt_i : 0 ,
tia_cnt_q : 6 ,
I:reg0x1150=0x17171f1d.
Q:reg0x1154=0x2d29150f.
RX0 tia case :0,absolute value dc_i : -1 , value dc_q : -1 
####:reg0x1270=0x5235522d.
####:reg0x1274=0x4e334e31.
tia_cnt_i : 0 ,
tia_cnt_q : 0 ,
I:reg0x1150=0x17171f1d.
Q:reg0x1154=0x2d29150f.
RX0 tia case :1,absolute value dc_i : 0 , value dc_q : 0 
####:reg0x1274=0x4e334e31.
####:reg0x1278=0x4c334e31.
tia_cnt_i : 0 ,
tia_cnt_q : 0 ,
I:reg0x1150=0x17171f1d.
Q:reg0x1154=0x2d29150f.
RX0 tia case :2,absolute value dc_i : 0 , value dc_q : 0 
####:reg0x1278=0x4c334e31.
####:reg0x127c=0x4a354a35.
tia_cnt_i : 0 ,
tia_cnt_q : 0 ,
I:reg0x1150=0x17171f1d.
Q:reg0x1154=0x2d29150f.
RX0 tia case :3,absolute value dc_i : 0 , value dc_q : 1 
####:reg0x127c=0x4a354a35.
####:reg0x1280=0x3e433a45.
tia_cnt_i : 0 ,
tia_cnt_q : 0 ,
I:reg0x1150=0x17171f1d.
Q:reg0x1154=0x2d29150f.
RX0 tia case :4,absolute value dc_i : 1 , value dc_q : 1 
####:reg0x1280=0x3e433a45.
####:reg0x1284=0x3e433c43.
tia_cnt_i : 0 ,
tia_cnt_q : 0 ,
I:reg0x1150=0x17171f1d.
Q:reg0x1154=0x2d29150f.
RX0 tia case :5,absolute value dc_i : 1 , value dc_q : 1 
####:reg0x1284=0x3e433c43.
####:reg0x1288=0x3a453a45.
tia_cnt_i : 0 ,
tia_cnt_q : 0 ,
I:reg0x1150=0x17171f1d.
Q:reg0x1154=0x2d29150f.
RX0 tia case :6,absolute value dc_i : 1 , value dc_q : 1 
####:reg0x1288=0x3a453a45.
####:reg0x128c=0x3a453845.
tia_cnt_i : 0 ,
tia_cnt_q : 0 ,
I:reg0x1150=0x17171f1d.
Q:reg0x1154=0x2d29150f.
RX0 tia case :7,absolute value dc_i : 1 , value dc_q : 1 
####:reg0x128c=0x3a453845.
####:reg0x1290=0x364b3649.
tia_cnt_i : 0 ,
tia_cnt_q : 0 ,
I:reg0x1150=0x17171f1d.
Q:reg0x1154=0x2d29150f.
RX0 tia case :8,absolute value dc_i : 1 , value dc_q : 1 
####:reg0x1290=0x364b3649.
####:reg0x1294=0x3649344b.
tia_cnt_i : 0 ,
tia_cnt_q : 0 ,
I:reg0x1150=0x17171f1d.
Q:reg0x1154=0x2d29150f.
RX0 tia case :9,absolute value dc_i : 1 , value dc_q : 1 
####:reg0x1294=0x3649344b.
####:reg0x1298=0x36493449.
tia_cnt_i : 0 ,
tia_cnt_q : 0 ,
I:reg0x1150=0x17171f1d.
Q:reg0x1154=0x2d29150f.
RX0 tia case :10,absolute value dc_i : 1 , value dc_q : 1 
####:reg0x1298=0x36493449.
####:reg0x129c=0x38473449.
tia_cnt_i : 0 ,
tia_cnt_q : 0 ,
I:reg0x1150=0x17171f1d.
Q:reg0x1154=0x2d29150f.
RX0 tia case :11,absolute value dc_i : 1 , value dc_q : 1 
####:reg0x129c=0x38473449.
####:reg0x12a0=0x3847344b.
tia_cnt_i : 0 ,
tia_cnt_q : 0 ,
I:reg0x1150=0x17171f1d.
Q:reg0x1154=0x2d29150f.
RX0 tia case :12,absolute value dc_i : 0 , value dc_q : 1 
####:reg0x12a0=0x3847344b.
rx1 tia cali begin:
Q:reg0x12b0=0x48354c33.
 RX1 :reg0x1130=0x4c334835.
tia_cnt_i : 0 ,
tia_cnt_q : 6 ,
RX1 tia case :0,absolute value dc_i : 1 , value dc_q : -1 
RX1:reg0x12b0=0x4c3b4c33.
Q:reg0x12b4=0x48374837.
 RX1 :reg0x1130=0x48374837.
tia_cnt_i : 0 ,
tia_cnt_q : 15 ,
RX1 tia case :1,absolute value dc_i : 1 , value dc_q : -1 
RX1:reg0x12b4=0x48464837.
Q:reg0x12b8=0x463b4639.
 RX1 :reg0x1130=0x4639463b.
tia_cnt_i : 0 ,
tia_cnt_q : 28 ,
RX1 tia case :2,absolute value dc_i : 1 , value dc_q : -1 
RX1:reg0x12b8=0x46574639.
Q:reg0x12bc=0x3c413e41.
 RX1 :reg0x1130=0x3e413c41.
tia_cnt_i : 0 ,
tia_cnt_q : 47 ,
RX1 tia case :3,absolute value dc_i : 1 , value dc_q : -1 
RX1:reg0x12bc=0x3e703e41.
Q:reg0x12c0=0x3a453c43.
 RX1 :reg0x1130=0x3c433a45.
tia_cnt_i : 0 ,
tia_cnt_q : 58 ,
RX1 tia case :4,absolute value dc_i : 1 , value dc_q : -2 
RX1:reg0x12c0=0x3c7f3c43.
Q:reg0x12c4=0x38473449.
 RX1 :reg0x1130=0x34493847.
tia_cnt_i : 0 ,
tia_cnt_q : 56 ,
RX1 tia case :5,absolute value dc_i : 1 , value dc_q : -2 
RX1:reg0x12c4=0x347f3449.
Q:reg0x12c8=0x3649364b.
 RX1 :reg0x1130=0x364b3649.
tia_cnt_i : 0 ,
tia_cnt_q : 54 ,
RX1 tia case :6,absolute value dc_i : 1 , value dc_q : -2 
RX1:reg0x12c8=0x367f364b.
Q:reg0x12cc=0x344b324d.
 RX1 :reg0x1130=0x324d344b.
tia_cnt_i : 0 ,
tia_cnt_q : 52 ,
RX1 tia case :7,absolute value dc_i : 1 , value dc_q : -2 
RX1:reg0x12cc=0x327f324d.
Q:reg0x12d0=0x324d2e53.
 RX1 :reg0x1130=0x2e53324d.
tia_cnt_i : 0 ,
tia_cnt_q : 50 ,
RX1 tia case :8,absolute value dc_i : 1 , value dc_q : -2 
RX1:reg0x12d0=0x2e7f2e53.
Q:reg0x12d4=0x324d2c53.
 RX1 :reg0x1130=0x2c53324d.
tia_cnt_i : 0 ,
tia_cnt_q : 50 ,
RX1 tia case :9,absolute value dc_i : 1 , value dc_q : -2 
RX1:reg0x12d4=0x2c7f2c53.
Q:reg0x12d8=0x304d2a55.
 RX1 :reg0x1130=0x2a55304d.
tia_cnt_i : 0 ,
tia_cnt_q : 50 ,
RX1 tia case :10,absolute value dc_i : 1 , value dc_q : -2 
RX1:reg0x12d8=0x2a7f2a55.
Q:reg0x12dc=0x324d2e53.
 RX1 :reg0x1130=0x2e53324d.
tia_cnt_i : 0 ,
tia_cnt_q : 50 ,
RX1 tia case :11,absolute value dc_i : 1 , value dc_q : -2 
RX1:reg0x12dc=0x2e7f2e53.
Q:reg0x12e0=0x324d2c51.
 RX1 :reg0x1130=0x2c51324d.
tia_cnt_i : 0 ,
tia_cnt_q : 50 ,
RX1 tia case :12,absolute value dc_i : 1 , value dc_q : -2 
RX1:reg0x12e0=0x2c7f2c51.
tia calibration end!
rx0 vga calibration begin
reg0x1120=0x3fc100.
vga case:1 pass.
RX0 vga case:1 ,absolute value dc_i_tmp : 1 , value dc_q_tmp : 1 ,I:reg0x1184=0x17171f1d.   Q:reg0x11c0=0x2d29150f.
vga case:2 pass.
RX0 vga case:2 ,absolute value dc_i_tmp : 1 , value dc_q_tmp : 1 ,I:reg0x1188=0x15151f1d.   Q:reg0x11c4=0x2d29150f.
vga case:3 pass.
RX0 vga case:3 ,absolute value dc_i_tmp : 1 , value dc_q_tmp : 2 ,I:reg0x118c=0x17172321.   Q:reg0x11c8=0x2d29150f.
vga case:4 pass.
RX0 vga case:4 ,absolute value dc_i_tmp : 1 , value dc_q_tmp : 2 ,I:reg0x1190=0x1915211d.   Q:reg0x11cc=0x2d29150f.
vga case:5 pass.
RX0 vga case:5 ,absolute value dc_i_tmp : 1 , value dc_q_tmp : 2 ,I:reg0x1194=0x17172321.   Q:reg0x11d0=0x2d29150f.
vga case:6 pass.
RX0 vga case:6 ,absolute value dc_i_tmp : 1 , value dc_q_tmp : 1 ,I:reg0x1198=0x17151f1d.   Q:reg0x11d4=0x2d27150f.
vga case:7 pass.
RX0 vga case:7 ,absolute value dc_i_tmp : 1 , value dc_q_tmp : 1 ,I:reg0x119c=0x17151f1d.   Q:reg0x11d8=0x2d27150f.
vga case:8 pass.
RX0 vga case:8 ,absolute value dc_i_tmp : 1 , value dc_q_tmp : 1 ,I:reg0x11a0=0x17152321.   Q:reg0x11dc=0x3125150f.
vga case:9 pass.
RX0 vga case:9 ,absolute value dc_i_tmp : 1 , value dc_q_tmp : 1 ,I:reg0x11a4=0x19132321.   Q:reg0x11e0=0x2b2b130f.
vga case:10 pass.
RX0 vga case:10 ,absolute value dc_i_tmp : 1 , value dc_q_tmp : 1 ,I:reg0x11a8=0x17172121.   Q:reg0x11e4=0x2d27130f.
vga case:11 pass.
RX0 vga case:11 ,absolute value dc_i_tmp : 0 , value dc_q_tmp : 1 ,I:reg0x11ac=0x1d152121.   Q:reg0x11e8=0x3125130f.
vga case:12 pass.
RX0 vga case:12 ,absolute value dc_i_tmp : 1 , value dc_q_tmp : 1 ,I:reg0x11b0=0x19111f21.   Q:reg0x11ec=0x2b27110f.
vga case:13 pass.
RX0 vga case:13 ,absolute value dc_i_tmp : 1 , value dc_q_tmp : 1 ,I:reg0x11b4=0x19151d21.   Q:reg0x11f0=0x31271311.
vga case:14 pass.
RX0 vga case:14 ,absolute value dc_i_tmp : 1 , value dc_q_tmp : 1 ,I:reg0x11b8=0x19131b21.   Q:reg0x11f4=0x2d291113.
rx1 vga calibration begin
rx1 vga case:1 pass.
RX1 vga case:1 ,absolute value dc_i_tmp : 0 , value dc_q_tmp : 1 ,I:reg0x11fc=0x13192125. Q:reg0x1238=0x2f2b1f1f.
rx1 vga case:2 pass.
RX1 vga case:2 ,absolute value dc_i_tmp : 0 , value dc_q_tmp : 1 ,I:reg0x1200=0x13192125. Q:reg0x123c=0x2f2b1f1f.
rx1 vga case:3 pass.
RX1 vga case:3 ,absolute value dc_i_tmp : 1 , value dc_q_tmp : 1 ,I:reg0x1204=0x13192125. Q:reg0x1240=0x2f2b1f1f.
rx1 vga case:4 pass.
RX1 vga case:4 ,absolute value dc_i_tmp : 1 , value dc_q_tmp : 2 ,I:reg0x1208=0x13192125. Q:reg0x1244=0x2f2b1f1f.
rx1 vga case:5 pass.
RX1 vga case:5 ,absolute value dc_i_tmp : 0 , value dc_q_tmp : 0 ,I:reg0x120c=0x15192125. Q:reg0x1248=0x312b1f1f.
rx1 vga case:6 pass.
RX1 vga case:6 ,absolute value dc_i_tmp : 0 , value dc_q_tmp : 1 ,I:reg0x1210=0x15192125. Q:reg0x124c=0x312b1f1f.
rx1 vga case:7 pass.
RX1 vga case:7 ,absolute value dc_i_tmp : 1 , value dc_q_tmp : 0 ,I:reg0x1214=0x13172125. Q:reg0x1250=0x332b1f1f.
rx1 vga case:8 pass.
RX1 vga case:8 ,absolute value dc_i_tmp : 0 , value dc_q_tmp : 0 ,I:reg0x1218=0x131d1f25. Q:reg0x1254=0x312b1f1f.
rx1 vga case:9 pass.
RX1 vga case:9 ,absolute value dc_i_tmp : 1 , value dc_q_tmp : 1 ,I:reg0x121c=0x15171f25. Q:reg0x1258=0x3329211f.
rx1 vga case:10 pass.
RX1 vga case:10 ,absolute value dc_i_tmp : 1 , value dc_q_tmp : 0 ,I:reg0x1220=0x13191f27. Q:reg0x125c=0x332b211f.
rx1 vga case:11 pass.
RX1 vga case:11 ,absolute value dc_i_tmp : 1 , value dc_q_tmp : 1 ,I:reg0x1224=0x13191d27. Q:reg0x1260=0x2f2b211f.
rx1 vga case:12 pass.
RX1 vga case:12 ,absolute value dc_i_tmp : 0 , value dc_q_tmp : 1 ,I:reg0x1228=0x15171d29. Q:reg0x1264=0x2d2d211f.
rx1 vga case:13 pass.
RX1 vga case:13 ,absolute value dc_i_tmp : 1 , value dc_q_tmp : 0 ,I:reg0x122c=0x111b1b2b. Q:reg0x1268=0x3329211d.
rx1 vga case:14 pass.
RX1 vga case:14 ,absolute value dc_i_tmp : 0 , value dc_q_tmp : 1 ,I:reg0x1230=0x131b172d. Q:reg0x126c=0x3527231d.
reg0x1120=0x3c0100.
vga calibration end!
RX0: 0x103c : e002c000 ,0x1040 : b0001102 
RX1: 0x1054 : e002c000 ,0x1058 : b0001100 
THIS CASE J: 0 M:11 
adc calibration begin
calibration begin
RX0 cali pre ,absolute value dc_i_tmp : 11 , value dc_q_tmp : 8 ,
reg0x1180=0x17172321.
reg0x11bc=0x2d2b130f.
RX1 cali pre ,absolute value dc_i_tmp : 2 , value dc_q_tmp : 2 ,reg0x11f8=0x131b2125.
reg0x1234=0x312d211f.
rx0 tia cali begin:
