
read pll state:0x77 
pll state:0x0000007F! 
RX0: 0x103c : e0000000 ,0x1040 :        0 
RX1: 0x1054 : e0000000 ,0x1058 : 0 
THIS CASE J: 0 M: 0 
adc calibration begin
calibration begin
RX0 cali pre ,absolute value dc_i_tmp : 1 , value dc_q_tmp : 0 ,
reg0x1180=0x231d272d.
reg0x11bc=0x1b1f2725.
RX1 cali pre ,absolute value dc_i_tmp : 3 , value dc_q_tmp : 2 ,reg0x11f8=0x251f211d.
reg0x1234=0x3b3f2529.
rx0 tia cali begin:
####:reg0x1270=0x38473845.
tia_cnt_i : 0 ,
tia_cnt_q : 0 ,
I:reg0x1150=0x231d272d.
Q:reg0x1154=0x1b1f2725.
RX0 tia case :0,absolute value dc_i : -1 , value dc_q : 0 
####:reg0x1270=0x38473845.
####:reg0x1274=0x38473847.
tia_cnt_i : 0 ,
tia_cnt_q : 0 ,
I:reg0x1150=0x231d272d.
Q:reg0x1154=0x1b1f2725.
RX0 tia case :1,absolute value dc_i : -1 , value dc_q : 0 
####:reg0x1274=0x38473847.
####:reg0x1278=0x38473847.
tia_cnt_i : 0 ,
tia_cnt_q : 0 ,
I:reg0x1150=0x231d272d.
Q:reg0x1154=0x1b1f2725.
RX0 tia case :2,absolute value dc_i : -1 , value dc_q : 0 
####:reg0x1278=0x38473847.
####:reg0x127c=0x364b3a47.
tia_cnt_i : 0 ,
tia_cnt_q : 0 ,
I:reg0x1150=0x231d272d.
Q:reg0x1154=0x1b1f2725.
RX0 tia case :3,absolute value dc_i : -1 , value dc_q : 0 
####:reg0x127c=0x364b3a47.
####:reg0x1280=0x364b3649.
tia_cnt_i : 0 ,
tia_cnt_q : 0 ,
I:reg0x1150=0x231d272d.
Q:reg0x1154=0x1b1f2725.
RX0 tia case :4,absolute value dc_i : -1 , value dc_q : 0 
####:reg0x1280=0x364b3649.
####:reg0x1284=0x324d3649.
tia_cnt_i : 0 ,
tia_cnt_q : 0 ,
I:reg0x1150=0x231d272d.
Q:reg0x1154=0x1b1f2725.
RX0 tia case :5,absolute value dc_i : -1 , value dc_q : 0 
####:reg0x1284=0x324d3649.
####:reg0x1288=0x344b3649.
tia_cnt_i : 0 ,
tia_cnt_q : 0 ,
I:reg0x1150=0x231d272d.
Q:reg0x1154=0x1b1f2725.
RX0 tia case :6,absolute value dc_i : -1 , value dc_q : 0 
####:reg0x1288=0x344b3649.
####:reg0x128c=0x324d364b.
tia_cnt_i : 0 ,
tia_cnt_q : 0 ,
I:reg0x1150=0x231d272d.
Q:reg0x1154=0x1b1f2725.
RX0 tia case :7,absolute value dc_i : -1 , value dc_q : 0 
####:reg0x128c=0x324d364b.
####:reg0x1290=0x304d344b.
tia_cnt_i : 0 ,
tia_cnt_q : 0 ,
I:reg0x1150=0x231d272d.
Q:reg0x1154=0x1b1f2725.
RX0 tia case :8,absolute value dc_i : -1 , value dc_q : 0 
####:reg0x1290=0x304d344b.
####:reg0x1294=0x324d344b.
tia_cnt_i : 0 ,
tia_cnt_q : 0 ,
I:reg0x1150=0x231d272d.
Q:reg0x1154=0x1b1f2725.
RX0 tia case :9,absolute value dc_i : -1 , value dc_q : 0 
####:reg0x1294=0x324d344b.
####:reg0x1298=0x324d344b.
tia_cnt_i : 0 ,
tia_cnt_q : 0 ,
I:reg0x1150=0x231d272d.
Q:reg0x1154=0x1b1f2725.
RX0 tia case :10,absolute value dc_i : -1 , value dc_q : 0 
####:reg0x1298=0x324d344b.
####:reg0x129c=0x324d364b.
tia_cnt_i : 0 ,
tia_cnt_q : 0 ,
I:reg0x1150=0x231d272d.
Q:reg0x1154=0x1b1f2725.
RX0 tia case :11,absolute value dc_i : -1 , value dc_q : 0 
####:reg0x129c=0x324d364b.
####:reg0x12a0=0x324d344b.
tia_cnt_i : 0 ,
tia_cnt_q : 0 ,
I:reg0x1150=0x231d272d.
Q:reg0x1154=0x1b1f2725.
RX0 tia case :12,absolute value dc_i : -1 , value dc_q : 0 
####:reg0x12a0=0x324d344b.
rx1 tia cali begin:
Q:reg0x12b0=0x542b5c23.
 RX1 :reg0x1130=0x5c23542b.
tia_cnt_i : 0 ,
tia_cnt_q : 14 ,
RX1 tia case :0,absolute value dc_i : -1 , value dc_q : -1 
RX1:reg0x12b0=0x5c395c23.
Q:reg0x12b4=0x542b5e23.
 RX1 :reg0x1130=0x5e23542b.
tia_cnt_i : 0 ,
tia_cnt_q : 16 ,
RX1 tia case :1,absolute value dc_i : -1 , value dc_q : -1 
RX1:reg0x12b4=0x5e3b5e23.
Q:reg0x12b8=0x562b5a25.
 RX1 :reg0x1130=0x5a25562b.
tia_cnt_i : 0 ,
tia_cnt_q : 12 ,
RX1 tia case :2,absolute value dc_i : -1 , value dc_q : -1 
RX1:reg0x12b8=0x5a375a25.
Q:reg0x12bc=0x542b5c23.
 RX1 :reg0x1130=0x5c23542b.
tia_cnt_i : 0 ,
tia_cnt_q : 15 ,
RX1 tia case :3,absolute value dc_i : -1 , value dc_q : -1 
RX1:reg0x12bc=0x5c3a5c23.
Q:reg0x12c0=0x562b5a25.
 RX1 :reg0x1130=0x5a25562b.
tia_cnt_i : 0 ,
tia_cnt_q : 24 ,
RX1 tia case :4,absolute value dc_i : -1 , value dc_q : -1 
RX1:reg0x12c0=0x5a435a25.
Q:reg0x12c4=0x522d5a25.
 RX1 :reg0x1130=0x5a25522d.
tia_cnt_i : 0 ,
tia_cnt_q : 28 ,
RX1 tia case :5,absolute value dc_i : -1 , value dc_q : -1 
RX1:reg0x12c4=0x5a495a25.
Q:reg0x12c8=0x522d5c23.
 RX1 :reg0x1130=0x5c23522d.
tia_cnt_i : 0 ,
tia_cnt_q : 24 ,
RX1 tia case :6,absolute value dc_i : -1 , value dc_q : -1 
RX1:reg0x12c8=0x5c455c23.
Q:reg0x12cc=0x522d5c23.
 RX1 :reg0x1130=0x5c23522d.
tia_cnt_i : 0 ,
tia_cnt_q : 26 ,
RX1 tia case :7,absolute value dc_i : -1 , value dc_q : -1 
RX1:reg0x12cc=0x5c475c23.
Q:reg0x12d0=0x522d5a27.
 RX1 :reg0x1130=0x5a27522d.
tia_cnt_i : 0 ,
tia_cnt_q : 28 ,
RX1 tia case :8,absolute value dc_i : -1 , value dc_q : -1 
RX1:reg0x12d0=0x5a495a27.
Q:reg0x12d4=0x522d5a25.
 RX1 :reg0x1130=0x5a25522d.
tia_cnt_i : 0 ,
tia_cnt_q : 27 ,
RX1 tia case :9,absolute value dc_i : -1 , value dc_q : -1 
RX1:reg0x12d4=0x5a485a25.
Q:reg0x12d8=0x502d5825.
 RX1 :reg0x1130=0x5825502d.
tia_cnt_i : 0 ,
tia_cnt_q : 28 ,
RX1 tia case :10,absolute value dc_i : -1 , value dc_q : -1 
RX1:reg0x12d8=0x58495825.
Q:reg0x12dc=0x522d5a25.
 RX1 :reg0x1130=0x5a25522d.
tia_cnt_i : 0 ,
tia_cnt_q : 28 ,
RX1 tia case :11,absolute value dc_i : -1 , value dc_q : -1 
RX1:reg0x12dc=0x5a495a25.
Q:reg0x12e0=0x502d5825.
 RX1 :reg0x1130=0x5825502d.
tia_cnt_i : 0 ,
tia_cnt_q : 26 ,
RX1 tia case :12,absolute value dc_i : 0 , value dc_q : -1 
RX1:reg0x12e0=0x58475825.
tia calibration end!
rx0 vga calibration begin
reg0x1120=0x3fc100.
vga case:1 pass.
RX0 vga case:1 ,absolute value dc_i_tmp : 1 , value dc_q_tmp : 0 ,I:reg0x1184=0x231d272d.   Q:reg0x11c0=0x1b1f2725.
vga case:2 pass.
RX0 vga case:2 ,absolute value dc_i_tmp : 0 , value dc_q_tmp : 0 ,I:reg0x1188=0x231d272d.   Q:reg0x11c4=0x1b1f2725.
vga case:3 pass.
RX0 vga case:3 ,absolute value dc_i_tmp : 1 , value dc_q_tmp : 1 ,I:reg0x118c=0x211d272d.   Q:reg0x11c8=0x191f2725.
vga case:4 pass.
RX0 vga case:4 ,absolute value dc_i_tmp : 1 , value dc_q_tmp : 1 ,I:reg0x1190=0x211d272d.   Q:reg0x11cc=0x191f2725.
vga case:5 pass.
RX0 vga case:5 ,absolute value dc_i_tmp : 1 , value dc_q_tmp : 0 ,I:reg0x1194=0x211d272d.   Q:reg0x11d0=0x191f2725.
vga case:6 pass.
RX0 vga case:6 ,absolute value dc_i_tmp : 1 , value dc_q_tmp : 0 ,I:reg0x1198=0x231f272d.   Q:reg0x11d4=0x1b212725.
vga case:7 pass.
RX0 vga case:7 ,absolute value dc_i_tmp : 1 , value dc_q_tmp : 0 ,I:reg0x119c=0x211f272d.   Q:reg0x11d8=0x17212725.
vga case:8 pass.
RX0 vga case:8 ,absolute value dc_i_tmp : 1 , value dc_q_tmp : 1 ,I:reg0x11a0=0x211f272d.   Q:reg0x11dc=0x19232725.
vga case:9 pass.
RX0 vga case:9 ,absolute value dc_i_tmp : 1 , value dc_q_tmp : 0 ,I:reg0x11a4=0x2121272d.   Q:reg0x11e0=0x19232725.
vga case:10 pass.
RX0 vga case:10 ,absolute value dc_i_tmp : 0 , value dc_q_tmp : 0 ,I:reg0x11a8=0x1f21272d.   Q:reg0x11e4=0x17212725.
vga case:11 pass.
RX0 vga case:11 ,absolute value dc_i_tmp : 0 , value dc_q_tmp : 1 ,I:reg0x11ac=0x231b292d.   Q:reg0x11e8=0x17232725.
vga case:12 pass.
RX0 vga case:12 ,absolute value dc_i_tmp : 1 , value dc_q_tmp : 1 ,I:reg0x11b0=0x2721292d.   Q:reg0x11ec=0x1d192925.
vga case:13 pass.
RX0 vga case:13 ,absolute value dc_i_tmp : 1 , value dc_q_tmp : 1 ,I:reg0x11b4=0x211f292d.   Q:reg0x11f0=0x19232725.
vga case:14 pass.
RX0 vga case:14 ,absolute value dc_i_tmp : 0 , value dc_q_tmp : 1 ,I:reg0x11b8=0x231f2b2d.   Q:reg0x11f4=0x11232725.
rx1 vga calibration begin
rx1 vga case:1 pass.
RX1 vga case:1 ,absolute value dc_i_tmp : 3 , value dc_q_tmp : 1 ,I:reg0x11fc=0x27211d1f. Q:reg0x1238=0x3b3f2529.
rx1 vga case:2 pass.
RX1 vga case:2 ,absolute value dc_i_tmp : 1 , value dc_q_tmp : 2 ,I:reg0x1200=0x251f1d1f. Q:reg0x123c=0x393f2529.
rx1 vga case:3 pass.
RX1 vga case:3 ,absolute value dc_i_tmp : 1 , value dc_q_tmp : 1 ,I:reg0x1204=0x251f1d1f. Q:reg0x1240=0x3f3f2729.
rx1 vga case:4 pass.
RX1 vga case:4 ,absolute value dc_i_tmp : 2 , value dc_q_tmp : 1 ,I:reg0x1208=0x251f1d1f. Q:reg0x1244=0x3f3f2729.
rx1 vga case:5 pass.
RX1 vga case:5 ,absolute value dc_i_tmp : 2 , value dc_q_tmp : 1 ,I:reg0x120c=0x27211f21. Q:reg0x1248=0x393f2529.
rx1 vga case:6 pass.
RX1 vga case:6 ,absolute value dc_i_tmp : 2 , value dc_q_tmp : 1 ,I:reg0x1210=0x27211f21. Q:reg0x124c=0x3f3d2729.
rx1 vga case:7 pass.
RX1 vga case:7 ,absolute value dc_i_tmp : 2 , value dc_q_tmp : 0 ,I:reg0x1214=0x27211f21. Q:reg0x1250=0x373f2529.
rx1 vga case:8 pass.
RX1 vga case:8 ,absolute value dc_i_tmp : 2 , value dc_q_tmp : 2 ,I:reg0x1218=0x23231d21. Q:reg0x1254=0x3f3d2729.
rx1 vga case:9 pass.
RX1 vga case:9 ,absolute value dc_i_tmp : 1 , value dc_q_tmp : 1 ,I:reg0x121c=0x291d1d21. Q:reg0x1258=0x3f3f2729.
rx1 vga case:10 pass.
RX1 vga case:10 ,absolute value dc_i_tmp : 2 , value dc_q_tmp : 0 ,I:reg0x1220=0x291d1d23. Q:reg0x125c=0x3f3f2527.
rx1 vga case:11 pass.
RX1 vga case:11 ,absolute value dc_i_tmp : 1 , value dc_q_tmp : 1 ,I:reg0x1224=0x251f1923. Q:reg0x1260=0x3d3f2527.
rx1 vga case:12 pass.
RX1 vga case:12 ,absolute value dc_i_tmp : 1 , value dc_q_tmp : 1 ,I:reg0x1228=0x271f1925. Q:reg0x1264=0x393f2527.
rx1 vga case:13 pass.
RX1 vga case:13 ,absolute value dc_i_tmp : 2 , value dc_q_tmp : 1 ,I:reg0x122c=0x291f1727. Q:reg0x1268=0x353f2527.
rx1 vga case:14 pass.
RX1 vga case:14 ,absolute value dc_i_tmp : 0 , value dc_q_tmp : 0 ,I:reg0x1230=0x2b1d132b. Q:reg0x126c=0x3b3f2727.
reg0x1120=0x3c0100.
vga calibration end!
RX0: 0x103c : e0004000 ,0x1040 : 10001102 
RX1: 0x1054 : e0004000 ,0x1058 : 10001100 
THIS CASE J: 0 M: 1 
adc calibration begin
calibration begin
RX0 cali pre ,absolute value dc_i_tmp : 4 , value dc_q_tmp : 15 ,
reg0x1180=0x211b272d.
reg0x11bc=0x1b1f2725.
RX1 cali pre ,absolute value dc_i_tmp : 15 , value dc_q_tmp : 14 ,reg0x11f8=0x251f211d.
reg0x1234=0x3b3f2529.
rx0 tia cali begin:
####:reg0x1270=0x36493649.
tia_cnt_i : 13 ,
tia_cnt_q : 54 ,
I:reg0x1150=0x211b272d.
Q:reg0x1154=0x1b1f2725.
RX0 tia case :0,absolute value dc_i : -1 , value dc_q : -16 
####:reg0x1270=0x297f2956.
####:reg0x1274=0x36493649.
tia_cnt_i : 34 ,
tia_cnt_q : 54 ,
I:reg0x1150=0x211b272d.
Q:reg0x1154=0x1b1f2725.
RX0 tia case :1,absolute value dc_i : -1 , value dc_q : -16 
####:reg0x1274=0x147f146b.
####:reg0x1278=0x364b3847.
tia_cnt_i : 53 ,
tia_cnt_q : 52 ,
I:reg0x1150=0x211b272d.
Q:reg0x1154=0x1b1f2725.
RX0 tia case :2,absolute value dc_i : -1 , value dc_q : -16 
####:reg0x1278=0x37f037c.
####:reg0x127c=0x34493847.
tia_cnt_i : 56 ,
tia_cnt_q : 1 ,
I:reg0x1150=0x211b272d.
Q:reg0x1154=0x1b1f2725.
RX0 tia case :3,absolute value dc_i : -2 , value dc_q : -16 
####:reg0x127c=0x4a007f.
####:reg0x1280=0x344b364b.
tia_cnt_i : 52 ,
tia_cnt_q : 52 ,
I:reg0x1150=0x211b272d.
Q:reg0x1154=0x1b1f2725.
RX0 tia case :4,absolute value dc_i : -3 , value dc_q : -16 
####:reg0x1280=0x27f027f.
####:reg0x1284=0x344b3649.
tia_cnt_i : 54 ,
tia_cnt_q : 1 ,
I:reg0x1150=0x211b272d.
Q:reg0x1154=0x1b1f2725.
RX0 tia case :5,absolute value dc_i : -2 , value dc_q : -16 
####:reg0x1284=0x4c007f.
####:reg0x1288=0x324d364b.
tia_cnt_i : 52 ,
tia_cnt_q : 50 ,
I:reg0x1150=0x211b272d.
Q:reg0x1154=0x1b1f2725.
RX0 tia case :6,absolute value dc_i : -2 , value dc_q : -16 
####:reg0x1288=0x27f027f.
####:reg0x128c=0x344b364b.
tia_cnt_i : 52 ,
tia_cnt_q : 52 ,
I:reg0x1150=0x211b272d.
Q:reg0x1154=0x1b1f2725.
RX0 tia case :7,absolute value dc_i : -2 , value dc_q : -16 
####:reg0x128c=0x27f027f.
####:reg0x1290=0x304f324d.
tia_cnt_i : 50 ,
tia_cnt_q : 1 ,
I:reg0x1150=0x211b272d.
Q:reg0x1154=0x1b1f2725.
RX0 tia case :8,absolute value dc_i : -2 , value dc_q : -16 
####:reg0x1290=0x50007f.
####:reg0x1294=0x2e51344b.
tia_cnt_i : 52 ,
tia_cnt_q : 1 ,
I:reg0x1150=0x211b272d.
Q:reg0x1154=0x1b1f2725.
RX0 tia case :9,absolute value dc_i : -2 , value dc_q : -16 
####:reg0x1294=0x52007f.
####:reg0x1298=0x324d344b.
tia_cnt_i : 52 ,
tia_cnt_q : 1 ,
I:reg0x1150=0x211b272d.
Q:reg0x1154=0x1b1f2725.
RX0 tia case :10,absolute value dc_i : -3 , value dc_q : -16 
####:reg0x1298=0x4e007f.
####:reg0x129c=0x324d324d.
tia_cnt_i : 50 ,
tia_cnt_q : 1 ,
I:reg0x1150=0x211b272d.
Q:reg0x1154=0x1b1f2725.
RX0 tia case :11,absolute value dc_i : -2 , value dc_q : -16 
####:reg0x129c=0x4e007f.
####:reg0x12a0=0x324d344b.
tia_cnt_i : 52 ,
tia_cnt_q : 1 ,
I:reg0x1150=0x211b272d.
Q:reg0x1154=0x1b1f2725.
RX0 tia case :12,absolute value dc_i : -2 , value dc_q : -16 
####:reg0x12a0=0x4e007f.
rx1 tia cali begin:
Q:reg0x12b0=0x542b5e21.
 RX1 :reg0x1130=0x5e21542b.
tia_cnt_i : 94 ,
tia_cnt_q : 1 ,
RX1 tia case :0,absolute value dc_i : -16 , value dc_q : -11 
RX1:reg0x12b0=0x2c007f.
Q:reg0x12b4=0x54295e21.
 RX1 :reg0x1130=0x5e215429.
tia_cnt_i : 94 ,
tia_cnt_q : 1 ,
RX1 tia case :1,absolute value dc_i : -16 , value dc_q : -11 
RX1:reg0x12b4=0x2a007f.
Q:reg0x12b8=0x542b5c23.
 RX1 :reg0x1130=0x5c23542b.
tia_cnt_i : 92 ,
tia_cnt_q : 1 ,
RX1 tia case :2,absolute value dc_i : -16 , value dc_q : -10 
RX1:reg0x12b8=0x2c007f.
Q:reg0x12bc=0x542b5c21.
 RX1 :reg0x1130=0x5c21542b.
tia_cnt_i : 92 ,
tia_cnt_q : 1 ,
RX1 tia case :3,absolute value dc_i : -16 , value dc_q : -11 
RX1:reg0x12bc=0x2c007d.
Q:reg0x12c0=0x54295a25.
 RX1 :reg0x1130=0x5a255429.
tia_cnt_i : 90 ,
tia_cnt_q : 1 ,
RX1 tia case :4,absolute value dc_i : -16 , value dc_q : -11 
RX1:reg0x12c0=0x2a007f.
Q:reg0x12c4=0x522d5c23.
 RX1 :reg0x1130=0x5c23522d.
tia_cnt_i : 92 ,
tia_cnt_q : 1 ,
RX1 tia case :5,absolute value dc_i : -16 , value dc_q : -10 
RX1:reg0x12c4=0x2e007f.
Q:reg0x12c8=0x4e315a25.
 RX1 :reg0x1130=0x5a254e31.
tia_cnt_i : 90 ,
tia_cnt_q : 1 ,
RX1 tia case :6,absolute value dc_i : -16 , value dc_q : -11 
RX1:reg0x12c8=0x32007f.
Q:reg0x12cc=0x522d5a25.
 RX1 :reg0x1130=0x5a25522d.
tia_cnt_i : 90 ,
tia_cnt_q : 1 ,
RX1 tia case :7,absolute value dc_i : -16 , value dc_q : -10 
RX1:reg0x12cc=0x2e007f.
Q:reg0x12d0=0x4e315a27.
 RX1 :reg0x1130=0x5a274e31.
tia_cnt_i : 88 ,
tia_cnt_q : 78 ,
RX1 tia case :8,absolute value dc_i : -16 , value dc_q : -11 
RX1:reg0x12d0=0x27f027f.
Q:reg0x12d4=0x4e315a27.
 RX1 :reg0x1130=0x5a274e31.
tia_cnt_i : 88 ,
tia_cnt_q : 78 ,
RX1 tia case :9,absolute value dc_i : -16 , value dc_q : -10 
RX1:reg0x12d4=0x27f027f.
Q:reg0x12d8=0x522f5825.
 RX1 :reg0x1130=0x5825522f.
tia_cnt_i : 88 ,
tia_cnt_q : 1 ,
RX1 tia case :10,absolute value dc_i : -16 , value dc_q : -11 
RX1:reg0x12d8=0x30007d.
Q:reg0x12dc=0x502d5a27.
 RX1 :reg0x1130=0x5a27502d.
tia_cnt_i : 88 ,
tia_cnt_q : 82 ,
RX1 tia case :11,absolute value dc_i : -16 , value dc_q : -10 
RX1:reg0x12dc=0x27f027f.
Q:reg0x12e0=0x522f5825.
 RX1 :reg0x1130=0x5825522f.
tia_cnt_i : 88 ,
tia_cnt_q : 1 ,
RX1 tia case :12,absolute value dc_i : -16 , value dc_q : -10 
RX1:reg0x12e0=0x30007d.
tia calibration end!
rx0 vga calibration begin
reg0x1120=0x3fc100.
vga case:1 pass.
RX0 vga case:1 ,absolute value dc_i_tmp : 7 , value dc_q_tmp : 15 ,I:reg0x1184=0x231d2b2b.   Q:reg0x11c0=0x1b1f2725.
vga case:2 pass.
RX0 vga case:2 ,absolute value dc_i_tmp : 4 , value dc_q_tmp : 15 ,I:reg0x1188=0x251d2b2b.   Q:reg0x11c4=0x1b1f2725.
vga case:3 pass.
RX0 vga case:3 ,absolute value dc_i_tmp : 4 , value dc_q_tmp : 15 ,I:reg0x118c=0x251d2b2b.   Q:reg0x11c8=0x191f2725.
vga case:4 pass.
RX0 vga case:4 ,absolute value dc_i_tmp : 4 , value dc_q_tmp : 15 ,I:reg0x1190=0x231b2b2b.   Q:reg0x11cc=0x191f2725.
vga case:5 pass.
RX0 vga case:5 ,absolute value dc_i_tmp : 5 , value dc_q_tmp : 15 ,I:reg0x1194=0x231b2b2b.   Q:reg0x11d0=0x191f2725.
vga case:6 pass.
RX0 vga case:6 ,absolute value dc_i_tmp : 5 , value dc_q_tmp : 15 ,I:reg0x1198=0x231b2b2b.   Q:reg0x11d4=0x1b212725.
vga case:7 pass.
RX0 vga case:7 ,absolute value dc_i_tmp : 5 , value dc_q_tmp : 15 ,I:reg0x119c=0x251b2b2b.   Q:reg0x11d8=0x17212725.
vga case:8 pass.
RX0 vga case:8 ,absolute value dc_i_tmp : 4 , value dc_q_tmp : 15 ,I:reg0x11a0=0x211f2b2b.   Q:reg0x11dc=0x19232725.
vga case:9 pass.
RX0 vga case:9 ,absolute value dc_i_tmp : 4 , value dc_q_tmp : 15 ,I:reg0x11a4=0x211f2b29.   Q:reg0x11e0=0x19232725.
vga case:10 pass.
RX0 vga case:10 ,absolute value dc_i_tmp : 5 , value dc_q_tmp : 15 ,I:reg0x11a8=0x27192d27.   Q:reg0x11e4=0x17212725.
vga case:11 pass.
RX0 vga case:11 ,absolute value dc_i_tmp : 5 , value dc_q_tmp : 15 ,I:reg0x11ac=0x231b2f27.   Q:reg0x11e8=0x17232725.
vga case:12 pass.
RX0 vga case:12 ,absolute value dc_i_tmp : 5 , value dc_q_tmp : 15 ,I:reg0x11b0=0x211d2f25.   Q:reg0x11ec=0x1d192925.
vga case:13 pass.
RX0 vga case:13 ,absolute value dc_i_tmp : 4 , value dc_q_tmp : 15 ,I:reg0x11b4=0x27193123.   Q:reg0x11f0=0x19232725.
vga case:14 pass.
RX0 vga case:14 ,absolute value dc_i_tmp : 2 , value dc_q_tmp : 15 ,I:reg0x11b8=0x27193721.   Q:reg0x11f4=0x11232725.
rx1 vga calibration begin
rx1 vga case:1 pass.
RX1 vga case:1 ,absolute value dc_i_tmp : 15 , value dc_q_tmp : 14 ,I:reg0x11fc=0x27211d1f. Q:reg0x1238=0x3b3f2925.
rx1 vga case:2 pass.
RX1 vga case:2 ,absolute value dc_i_tmp : 15 , value dc_q_tmp : 12 ,I:reg0x1200=0x251f1d1f. Q:reg0x123c=0x3d3f2925.
rx1 vga case:3 pass.
RX1 vga case:3 ,absolute value dc_i_tmp : 15 , value dc_q_tmp : 12 ,I:reg0x1204=0x251f1d1f. Q:reg0x1240=0x3d3f2925.
rx1 vga case:4 pass.
RX1 vga case:4 ,absolute value dc_i_tmp : 15 , value dc_q_tmp : 11 ,I:reg0x1208=0x251f1d1f. Q:reg0x1244=0x3d3f2925.
rx1 vga case:5 pass.
RX1 vga case:5 ,absolute value dc_i_tmp : 15 , value dc_q_tmp : 12 ,I:reg0x120c=0x27211f21. Q:reg0x1248=0x3d3f2925.
rx1 vga case:6 pass.
RX1 vga case:6 ,absolute value dc_i_tmp : 15 , value dc_q_tmp : 12 ,I:reg0x1210=0x27211f21. Q:reg0x124c=0x3d3f2925.
rx1 vga case:7 pass.
RX1 vga case:7 ,absolute value dc_i_tmp : 15 , value dc_q_tmp : 12 ,I:reg0x1214=0x27211f21. Q:reg0x1250=0x3d3f2925.
rx1 vga case:8 pass.
RX1 vga case:8 ,absolute value dc_i_tmp : 15 , value dc_q_tmp : 13 ,I:reg0x1218=0x23231d21. Q:reg0x1254=0x3f3f2923.
rx1 vga case:9 pass.
RX1 vga case:9 ,absolute value dc_i_tmp : 15 , value dc_q_tmp : 13 ,I:reg0x121c=0x291d1d21. Q:reg0x1258=0x3b3f2b23.
rx1 vga case:10 pass.
RX1 vga case:10 ,absolute value dc_i_tmp : 15 , value dc_q_tmp : 12 ,I:reg0x1220=0x291d1d23. Q:reg0x125c=0x3d3f2d21.
rx1 vga case:11 pass.
RX1 vga case:11 ,absolute value dc_i_tmp : 15 , value dc_q_tmp : 13 ,I:reg0x1224=0x251f1923. Q:reg0x1260=0x3f3f2f1d.
rx1 vga case:12 pass.
RX1 vga case:12 ,absolute value dc_i_tmp : 15 , value dc_q_tmp : 12 ,I:reg0x1228=0x271f1925. Q:reg0x1264=0x3f3f311b.
rx1 vga case:13 pass.
RX1 vga case:13 ,absolute value dc_i_tmp : 15 , value dc_q_tmp : 12 ,I:reg0x122c=0x291f1727. Q:reg0x1268=0x3f3f3519.
rx1 vga case:14 pass.
RX1 vga case:14 ,absolute value dc_i_tmp : 15 , value dc_q_tmp : 13 ,I:reg0x1230=0x2b1d132b. Q:reg0x126c=0x3b3f3913.
reg0x1120=0x3c0100.
vga calibration end!
RX0: 0x103c : e0008000 ,0x1040 : 20001102 
RX1: 0x1054 : e0008000 ,0x1058 : 20001100 
THIS CASE J: 0 M: 2 
adc calibration begin
calibration begin
RX0 cali pre ,absolute value dc_i_tmp : 3 , value dc_q_tmp : 13 ,
reg0x1180=0x231d272d.
reg0x11bc=0x1b1f2725.
RX1 cali pre ,absolute value dc_i_tmp : 15 , value dc_q_tmp : 14 ,reg0x11f8=0x251f211d.
reg0x1234=0x3b3f2529.
rx0 tia cali begin:
####:reg0x1270=0x34493649.
tia_cnt_i : 6 ,
tia_cnt_q : 54 ,
I:reg0x1150=0x231d272d.
Q:reg0x1154=0x1b1f2725.
RX0 tia case :0,absolute value dc_i : -1 , value dc_q : -15 
####:reg0x1270=0x307f304f.
####:reg0x1274=0x34493649.
tia_cnt_i : 10 ,
tia_cnt_q : 54 ,
I:reg0x1150=0x231d272d.
Q:reg0x1154=0x1b1f2725.
RX0 tia case :1,absolute value dc_i : -1 , value dc_q : -14 
####:reg0x1274=0x2c7f2c53.
####:reg0x1278=0x344b3847.
tia_cnt_i : 15 ,
tia_cnt_q : 52 ,
I:reg0x1150=0x231d272d.
Q:reg0x1154=0x1b1f2725.
RX0 tia case :2,absolute value dc_i : -1 , value dc_q : -14 
####:reg0x1278=0x297f2956.
####:reg0x127c=0x34493649.
tia_cnt_i : 46 ,
tia_cnt_q : 54 ,
I:reg0x1150=0x231d272d.
Q:reg0x1154=0x1b1f2725.
RX0 tia case :3,absolute value dc_i : -1 , value dc_q : -15 
####:reg0x127c=0x87f0877.
####:reg0x1280=0x344b364b.
tia_cnt_i : 34 ,
tia_cnt_q : 52 ,
I:reg0x1150=0x231d272d.
Q:reg0x1154=0x1b1f2725.
RX0 tia case :4,absolute value dc_i : -1 , value dc_q : -15 
####:reg0x1280=0x147f146d.
####:reg0x1284=0x324d3449.
tia_cnt_i : 52 ,
tia_cnt_q : 1 ,
I:reg0x1150=0x231d272d.
Q:reg0x1154=0x1b1f2725.
RX0 tia case :5,absolute value dc_i : -2 , value dc_q : -15 
####:reg0x1284=0x4e007d.
####:reg0x1288=0x324d364b.
tia_cnt_i : 45 ,
tia_cnt_q : 50 ,
I:reg0x1150=0x231d272d.
Q:reg0x1154=0x1b1f2725.
RX0 tia case :6,absolute value dc_i : -1 , value dc_q : -15 
####:reg0x1288=0x97f0978.
####:reg0x128c=0x344b364b.
tia_cnt_i : 34 ,
tia_cnt_q : 52 ,
I:reg0x1150=0x231d272d.
Q:reg0x1154=0x1b1f2725.
RX0 tia case :7,absolute value dc_i : -1 , value dc_q : -15 
####:reg0x128c=0x147f146d.
####:reg0x1290=0x2e51324d.
tia_cnt_i : 50 ,
tia_cnt_q : 1 ,
I:reg0x1150=0x231d272d.
Q:reg0x1154=0x1b1f2725.
RX0 tia case :8,absolute value dc_i : -2 , value dc_q : -15 
####:reg0x1290=0x52007f.
####:reg0x1294=0x324d324d.
tia_cnt_i : 30 ,
tia_cnt_q : 50 ,
I:reg0x1150=0x231d272d.
Q:reg0x1154=0x1b1f2725.
RX0 tia case :9,absolute value dc_i : -1 , value dc_q : -14 
####:reg0x1294=0x147f146b.
####:reg0x1298=0x324d344b.
tia_cnt_i : 52 ,
tia_cnt_q : 1 ,
I:reg0x1150=0x231d272d.
Q:reg0x1154=0x1b1f2725.
RX0 tia case :10,absolute value dc_i : -2 , value dc_q : -15 
####:reg0x1298=0x4e007f.
####:reg0x129c=0x304d344b.
tia_cnt_i : 42 ,
tia_cnt_q : 50 ,
I:reg0x1150=0x231d272d.
Q:reg0x1154=0x1b1f2725.
RX0 tia case :11,absolute value dc_i : -1 , value dc_q : -15 
####:reg0x129c=0xa7f0a75.
####:reg0x12a0=0x2e51324d.
tia_cnt_i : 34 ,
tia_cnt_q : 46 ,
I:reg0x1150=0x231d272d.
Q:reg0x1154=0x1b1f2725.
RX0 tia case :12,absolute value dc_i : -1 , value dc_q : -16 
####:reg0x12a0=0x107f106f.
rx1 tia cali begin:
Q:reg0x12b0=0x562b5e21.
 RX1 :reg0x1130=0x5e21562b.
tia_cnt_i : 94 ,
tia_cnt_q : 1 ,
RX1 tia case :0,absolute value dc_i : -16 , value dc_q : -10 
RX1:reg0x12b0=0x2c007f.
Q:reg0x12b4=0x542b5e21.
 RX1 :reg0x1130=0x5e21542b.
tia_cnt_i : 94 ,
tia_cnt_q : 1 ,
RX1 tia case :1,absolute value dc_i : -16 , value dc_q : -11 
RX1:reg0x12b4=0x2c007f.
Q:reg0x12b8=0x542b5e21.
 RX1 :reg0x1130=0x5e21542b.
tia_cnt_i : 94 ,
tia_cnt_q : 1 ,
RX1 tia case :2,absolute value dc_i : -16 , value dc_q : -11 
RX1:reg0x12b8=0x2c007f.
Q:reg0x12bc=0x54295e21.
 RX1 :reg0x1130=0x5e215429.
tia_cnt_i : 94 ,
tia_cnt_q : 1 ,
RX1 tia case :3,absolute value dc_i : -16 , value dc_q : -10 
RX1:reg0x12bc=0x2a007f.
Q:reg0x12c0=0x542b5c23.
 RX1 :reg0x1130=0x5c23542b.
tia_cnt_i : 92 ,
tia_cnt_q : 1 ,
RX1 tia case :4,absolute value dc_i : -16 , value dc_q : -11 
RX1:reg0x12c0=0x2c007f.
Q:reg0x12c4=0x502d5c23.
 RX1 :reg0x1130=0x5c23502d.
tia_cnt_i : 92 ,
tia_cnt_q : 1 ,
RX1 tia case :5,absolute value dc_i : -16 , value dc_q : -11 
RX1:reg0x12c4=0x2e007f.
Q:reg0x12c8=0x522d5a25.
 RX1 :reg0x1130=0x5a25522d.
tia_cnt_i : 90 ,
tia_cnt_q : 1 ,
RX1 tia case :6,absolute value dc_i : -16 , value dc_q : -12 
RX1:reg0x12c8=0x2e007f.
Q:reg0x12cc=0x542b5a25.
 RX1 :reg0x1130=0x5a25542b.
tia_cnt_i : 90 ,
tia_cnt_q : 1 ,
RX1 tia case :7,absolute value dc_i : -16 , value dc_q : -11 
RX1:reg0x12cc=0x2c007f.
Q:reg0x12d0=0x4e315827.
 RX1 :reg0x1130=0x58274e31.
tia_cnt_i : 88 ,
tia_cnt_q : 1 ,
RX1 tia case :8,absolute value dc_i : -16 , value dc_q : -12 
RX1:reg0x12d0=0x32007f.
Q:reg0x12d4=0x522d5825.
 RX1 :reg0x1130=0x5825522d.
tia_cnt_i : 88 ,
tia_cnt_q : 1 ,
RX1 tia case :9,absolute value dc_i : -16 , value dc_q : -11 
RX1:reg0x12d4=0x2e007d.
Q:reg0x12d8=0x4e315a25.
 RX1 :reg0x1130=0x5a254e31.
tia_cnt_i : 90 ,
tia_cnt_q : 1 ,
RX1 tia case :10,absolute value dc_i : -16 , value dc_q : -12 
RX1:reg0x12d8=0x32007f.
Q:reg0x12dc=0x522d5825.
 RX1 :reg0x1130=0x5825522d.
tia_cnt_i : 88 ,
tia_cnt_q : 1 ,
RX1 tia case :11,absolute value dc_i : -16 , value dc_q : -12 
RX1:reg0x12dc=0x2e007d.
Q:reg0x12e0=0x522d5a25.
 RX1 :reg0x1130=0x5a25522d.
tia_cnt_i : 90 ,
tia_cnt_q : 1 ,
RX1 tia case :12,absolute value dc_i : -16 , value dc_q : -12 
RX1:reg0x12e0=0x2e007f.
tia calibration end!
rx0 vga calibration begin
reg0x1120=0x3fc100.
vga case:1 pass.
RX0 vga case:1 ,absolute value dc_i_tmp : 5 , value dc_q_tmp : 13 ,I:reg0x1184=0x231d292b.   Q:reg0x11c0=0x1b1d2b23.
vga case:2 pass.
RX0 vga case:2 ,absolute value dc_i_tmp : 5 , value dc_q_tmp : 14 ,I:reg0x1188=0x231d292b.   Q:reg0x11c4=0x1b1d2b23.
vga case:3 pass.
RX0 vga case:3 ,absolute value dc_i_tmp : 5 , value dc_q_tmp : 14 ,I:reg0x118c=0x231d292b.   Q:reg0x11c8=0x1d1f2b23.
vga case:4 pass.
RX0 vga case:4 ,absolute value dc_i_tmp : 5 , value dc_q_tmp : 13 ,I:reg0x1190=0x231d292b.   Q:reg0x11cc=0x1b1d2b23.
vga case:5 pass.
RX0 vga case:5 ,absolute value dc_i_tmp : 5 , value dc_q_tmp : 15 ,I:reg0x1194=0x231d2b2d.   Q:reg0x11d0=0x191f2725.
vga case:6 pass.
RX0 vga case:6 ,absolute value dc_i_tmp : 4 , value dc_q_tmp : 14 ,I:reg0x1198=0x231b292b.   Q:reg0x11d4=0x1b1d2b23.
vga case:7 pass.
RX0 vga case:7 ,absolute value dc_i_tmp : 4 , value dc_q_tmp : 15 ,I:reg0x119c=0x231b292b.   Q:reg0x11d8=0x17212725.
vga case:8 pass.
RX0 vga case:8 ,absolute value dc_i_tmp : 4 , value dc_q_tmp : 14 ,I:reg0x11a0=0x211f292b.   Q:reg0x11dc=0x1f1d2b21.
vga case:9 pass.
RX0 vga case:9 ,absolute value dc_i_tmp : 4 , value dc_q_tmp : 14 ,I:reg0x11a4=0x231b2b2b.   Q:reg0x11e0=0x1f1d2d21.
vga case:10 pass.
RX0 vga case:10 ,absolute value dc_i_tmp : 3 , value dc_q_tmp : 15 ,I:reg0x11a8=0x25192b29.   Q:reg0x11e4=0x17212725.
vga case:11 pass.
RX0 vga case:11 ,absolute value dc_i_tmp : 4 , value dc_q_tmp : 15 ,I:reg0x11ac=0x25192d29.   Q:reg0x11e8=0x17232725.
vga case:12 pass.
RX0 vga case:12 ,absolute value dc_i_tmp : 4 , value dc_q_tmp : 15 ,I:reg0x11b0=0x251b2d27.   Q:reg0x11ec=0x1d192925.
vga case:13 pass.
RX0 vga case:13 ,absolute value dc_i_tmp : 4 , value dc_q_tmp : 15 ,I:reg0x11b4=0x211b2f27.   Q:reg0x11f0=0x19232725.
vga case:14 pass.
RX0 vga case:14 ,absolute value dc_i_tmp : 3 , value dc_q_tmp : 15 ,I:reg0x11b8=0x1f1f2f23.   Q:reg0x11f4=0x11232725.
rx1 vga calibration begin
rx1 vga case:1 pass.
RX1 vga case:1 ,absolute value dc_i_tmp : 15 , value dc_q_tmp : 12 ,I:reg0x11fc=0x27211d1f. Q:reg0x1238=0x3d3f2925.
rx1 vga case:2 pass.
RX1 vga case:2 ,absolute value dc_i_tmp : 15 , value dc_q_tmp : 15 ,I:reg0x1200=0x251f1d1f. Q:reg0x123c=0x3d3f2925.
rx1 vga case:3 pass.
RX1 vga case:3 ,absolute value dc_i_tmp : 15 , value dc_q_tmp : 13 ,I:reg0x1204=0x251f1d1f. Q:reg0x1240=0x3d3f2925.
rx1 vga case:4 pass.
RX1 vga case:4 ,absolute value dc_i_tmp : 15 , value dc_q_tmp : 12 ,I:reg0x1208=0x251f1d1f. Q:reg0x1244=0x3d3f2925.
rx1 vga case:5 pass.
RX1 vga case:5 ,absolute value dc_i_tmp : 15 , value dc_q_tmp : 12 ,I:reg0x120c=0x27211f21. Q:reg0x1248=0x3d3f2925.
rx1 vga case:6 pass.
RX1 vga case:6 ,absolute value dc_i_tmp : 15 , value dc_q_tmp : 13 ,I:reg0x1210=0x27211f21. Q:reg0x124c=0x3d3f2925.
rx1 vga case:7 pass.
RX1 vga case:7 ,absolute value dc_i_tmp : 15 , value dc_q_tmp : 12 ,I:reg0x1214=0x27211f21. Q:reg0x1250=0x3d3f2925.
rx1 vga case:8 pass.
RX1 vga case:8 ,absolute value dc_i_tmp : 15 , value dc_q_tmp : 13 ,I:reg0x1218=0x23231d21. Q:reg0x1254=0x3f3f2923.
rx1 vga case:9 pass.
RX1 vga case:9 ,absolute value dc_i_tmp : 15 , value dc_q_tmp : 13 ,I:reg0x121c=0x291d1d21. Q:reg0x1258=0x3b3f2b23.
rx1 vga case:10 pass.
RX1 vga case:10 ,absolute value dc_i_tmp : 15 , value dc_q_tmp : 13 ,I:reg0x1220=0x291d1d23. Q:reg0x125c=0x3d3f2d21.
rx1 vga case:11 pass.
RX1 vga case:11 ,absolute value dc_i_tmp : 15 , value dc_q_tmp : 13 ,I:reg0x1224=0x251f1923. Q:reg0x1260=0x3f3f2f1d.
rx1 vga case:12 pass.
RX1 vga case:12 ,absolute value dc_i_tmp : 15 , value dc_q_tmp : 12 ,I:reg0x1228=0x271f1925. Q:reg0x1264=0x3f3f311b.
rx1 vga case:13 pass.
RX1 vga case:13 ,absolute value dc_i_tmp : 15 , value dc_q_tmp : 13 ,I:reg0x122c=0x291f1727. Q:reg0x1268=0x3b3d3519.
rx1 vga case:14 pass.
RX1 vga case:14 ,absolute value dc_i_tmp : 15 , value dc_q_tmp : 13 ,I:reg0x1230=0x2b1d132b. Q:reg0x126c=0x393f3913.
reg0x1120=0x3c0100.
vga calibration end!
RX0: 0x103c : e000c000 ,0x1040 : 30001102 
RX1: 0x1054 : e000c000 ,0x1058 : 30001100 
THIS CASE J: 0 M: 3 
adc calibration begin
calibration begin
RX0 cali pre ,absolute value dc_i_tmp : 15 , value dc_q_tmp : 15 ,
reg0x1180=0x231d272d.
reg0x11bc=0x1b1f2725.
RX1 cali pre ,absolute value dc_i_tmp : 15 , value dc_q_tmp : 15 ,reg0x11f8=0x251f211d.
reg0x1234=0x3b3f2529.
rx0 tia cali begin:
####:reg0x1270=0x36493845.
tia_cnt_i : 56 ,
tia_cnt_q : 1 ,
I:reg0x1150=0x231d272d.
Q:reg0x1154=0x1b1f2725.
RX0 tia case :0,absolute value dc_i : -16 , value dc_q : -16 
####:reg0x1270=0x4a007d.
####:reg0x1274=0x36493a47.
tia_cnt_i : 56 ,
tia_cnt_q : 54 ,
I:reg0x1150=0x231d272d.
Q:reg0x1154=0x1b1f2725.
RX0 tia case :1,absolute value dc_i : -16 , value dc_q : -16 
####:reg0x1274=0x27f027f.
####:reg0x1278=0x36493847.
tia_cnt_i : 56 ,
tia_cnt_q : 1 ,
I:reg0x1150=0x231d272d.
Q:reg0x1154=0x1b1f2725.
RX0 tia case :2,absolute value dc_i : -16 , value dc_q : -16 
####:reg0x1278=0x4a007f.
####:reg0x127c=0x34493649.
tia_cnt_i : 54 ,
tia_cnt_q : 1 ,
I:reg0x1150=0x231d272d.
Q:reg0x1154=0x1b1f2725.
RX0 tia case :3,absolute value dc_i : -16 , value dc_q : -16 
####:reg0x127c=0x4a007f.
####:reg0x1280=0x364b3449.
tia_cnt_i : 52 ,
tia_cnt_q : 1 ,
I:reg0x1150=0x231d272d.
Q:reg0x1154=0x1b1f2725.
RX0 tia case :4,absolute value dc_i : -16 , value dc_q : -16 
####:reg0x1280=0x4c007d.
####:reg0x1284=0x344b3449.
tia_cnt_i : 52 ,
tia_cnt_q : 1 ,
I:reg0x1150=0x231d272d.
Q:reg0x1154=0x1b1f2725.
RX0 tia case :5,absolute value dc_i : -16 , value dc_q : -16 
####:reg0x1284=0x4c007d.
####:reg0x1288=0x344b3449.
tia_cnt_i : 52 ,
tia_cnt_q : 1 ,
I:reg0x1150=0x231d272d.
Q:reg0x1154=0x1b1f2725.
RX0 tia case :6,absolute value dc_i : -16 , value dc_q : -16 
####:reg0x1288=0x4c007d.
####:reg0x128c=0x324d364b.
tia_cnt_i : 52 ,
tia_cnt_q : 50 ,
I:reg0x1150=0x231d272d.
Q:reg0x1154=0x1b1f2725.
RX0 tia case :7,absolute value dc_i : -16 , value dc_q : -16 
####:reg0x128c=0x27f027f.
####:reg0x1290=0x2e51344b.
tia_cnt_i : 52 ,
tia_cnt_q : 1 ,
I:reg0x1150=0x231d272d.
Q:reg0x1154=0x1b1f2725.
RX0 tia case :8,absolute value dc_i : -16 , value dc_q : -16 
####:reg0x1290=0x52007f.
####:reg0x1294=0x304d344b.
tia_cnt_i : 52 ,
tia_cnt_q : 1 ,
I:reg0x1150=0x231d272d.
Q:reg0x1154=0x1b1f2725.
RX0 tia case :9,absolute value dc_i : -16 , value dc_q : -16 
####:reg0x1294=0x4e007f.
####:reg0x1298=0x324d324d.
tia_cnt_i : 50 ,
tia_cnt_q : 1 ,
I:reg0x1150=0x231d272d.
Q:reg0x1154=0x1b1f2725.
RX0 tia case :10,absolute value dc_i : -16 , value dc_q : -16 
####:reg0x1298=0x4e007f.
####:reg0x129c=0x344b344b.
tia_cnt_i : 52 ,
tia_cnt_q : 1 ,
I:reg0x1150=0x231d272d.
Q:reg0x1154=0x1b1f2725.
RX0 tia case :11,absolute value dc_i : -16 , value dc_q : -16 
####:reg0x129c=0x4c007f.
####:reg0x12a0=0x324d324d.
tia_cnt_i : 50 ,
tia_cnt_q : 1 ,
I:reg0x1150=0x231d272d.
Q:reg0x1154=0x1b1f2725.
RX0 tia case :12,absolute value dc_i : -16 , value dc_q : -16 
####:reg0x12a0=0x4e007f.
rx1 tia cali begin:
Q:reg0x12b0=0x542b5a25.
 RX1 :reg0x1130=0x5a25542b.
tia_cnt_i : 90 ,
tia_cnt_q : 1 ,
RX1 tia case :0,absolute value dc_i : -16 , value dc_q : -16 
RX1:reg0x12b0=0x2c007f.
Q:reg0x12b4=0x542b5e23.
 RX1 :reg0x1130=0x5e23542b.
tia_cnt_i : 92 ,
tia_cnt_q : 84 ,
RX1 tia case :1,absolute value dc_i : -16 , value dc_q : -16 
RX1:reg0x12b4=0x27f027f.
Q:reg0x12b8=0x542b5c23.
 RX1 :reg0x1130=0x5c23542b.
tia_cnt_i : 92 ,
tia_cnt_q : 1 ,
RX1 tia case :2,absolute value dc_i : -16 , value dc_q : -16 
RX1:reg0x12b8=0x2c007f.
Q:reg0x12bc=0x542b5c23.
 RX1 :reg0x1130=0x5c23542b.
tia_cnt_i : 92 ,
tia_cnt_q : 1 ,
RX1 tia case :3,absolute value dc_i : -16 , value dc_q : -16 
RX1:reg0x12bc=0x2c007f.
Q:reg0x12c0=0x542b5a25.
 RX1 :reg0x1130=0x5a25542b.
tia_cnt_i : 90 ,
tia_cnt_q : 1 ,
RX1 tia case :4,absolute value dc_i : -16 , value dc_q : -16 
RX1:reg0x12c0=0x2c007f.
Q:reg0x12c4=0x522d5a25.
 RX1 :reg0x1130=0x5a25522d.
tia_cnt_i : 90 ,
tia_cnt_q : 1 ,
RX1 tia case :5,absolute value dc_i : -16 , value dc_q : -16 
RX1:reg0x12c4=0x2e007f.
Q:reg0x12c8=0x522d5a25.
 RX1 :reg0x1130=0x5a25522d.
tia_cnt_i : 90 ,
tia_cnt_q : 1 ,
RX1 tia case :6,absolute value dc_i : -16 , value dc_q : -16 
RX1:reg0x12c8=0x2e007f.
Q:reg0x12cc=0x522d5a25.
 RX1 :reg0x1130=0x5a25522d.
tia_cnt_i : 90 ,
tia_cnt_q : 1 ,
RX1 tia case :7,absolute value dc_i : -16 , value dc_q : -16 
RX1:reg0x12cc=0x2e007f.
Q:reg0x12d0=0x502d5629.
 RX1 :reg0x1130=0x5629502d.
tia_cnt_i : 86 ,
tia_cnt_q : 1 ,
RX1 tia case :8,absolute value dc_i : -16 , value dc_q : -16 
RX1:reg0x12d0=0x2e007f.
Q:reg0x12d4=0x4e315825.
 RX1 :reg0x1130=0x58254e31.
tia_cnt_i : 88 ,
tia_cnt_q : 1 ,
RX1 tia case :9,absolute value dc_i : -16 , value dc_q : -16 
RX1:reg0x12d4=0x32007d.
Q:reg0x12d8=0x522d5825.
 RX1 :reg0x1130=0x5825522d.
tia_cnt_i : 88 ,
tia_cnt_q : 1 ,
RX1 tia case :10,absolute value dc_i : -16 , value dc_q : -16 
RX1:reg0x12d8=0x2e007d.
Q:reg0x12dc=0x522d5825.
 RX1 :reg0x1130=0x5825522d.
tia_cnt_i : 88 ,
tia_cnt_q : 1 ,
RX1 tia case :11,absolute value dc_i : -16 , value dc_q : -16 
RX1:reg0x12dc=0x2e007d.
Q:reg0x12e0=0x502d5827.
 RX1 :reg0x1130=0x5827502d.
tia_cnt_i : 88 ,
tia_cnt_q : 1 ,
RX1 tia case :12,absolute value dc_i : -16 , value dc_q : -16 
RX1:reg0x12e0=0x2e007f.
tia calibration end!
rx0 vga calibration begin
reg0x1120=0x3fc100.
vga case:1 pass.
RX0 vga case:1 ,absolute value dc_i_tmp : 15 , value dc_q_tmp : 15 ,I:reg0x1184=0x231d292b.   Q:reg0x11c0=0x1b1d2b23.
vga case:2 pass.
RX0 vga case:2 ,absolute value dc_i_tmp : 15 , value dc_q_tmp : 15 ,I:reg0x1188=0x231d292b.   Q:reg0x11c4=0x1b1d2b23.
vga case:3 pass.
RX0 vga case:3 ,absolute value dc_i_tmp : 15 , value dc_q_tmp : 15 ,I:reg0x118c=0x231d292b.   Q:reg0x11c8=0x1d1f2b23.
vga case:4 pass.
RX0 vga case:4 ,absolute value dc_i_tmp : 15 , value dc_q_tmp : 15 ,I:reg0x1190=0x231d292b.   Q:reg0x11cc=0x1b1d2b23.
vga case:5 pass.
RX0 vga case:5 ,absolute value dc_i_tmp : 15 , value dc_q_tmp : 15 ,I:reg0x1194=0x231d2b2d.   Q:reg0x11d0=0x191f2725.
vga case:6 pass.
RX0 vga case:6 ,absolute value dc_i_tmp : 15 , value dc_q_tmp : 15 ,I:reg0x1198=0x231b292b.   Q:reg0x11d4=0x1b1d2b23.
vga case:7 pass.
RX0 vga case:7 ,absolute value dc_i_tmp : 15 , value dc_q_tmp : 15 ,I:reg0x119c=0x231b292b.   Q:reg0x11d8=0x17212725.
vga case:8 pass.
RX0 vga case:8 ,absolute value dc_i_tmp : 15 , value dc_q_tmp : 15 ,I:reg0x11a0=0x211f292b.   Q:reg0x11dc=0x1f1d2b21.
vga case:9 pass.
RX0 vga case:9 ,absolute value dc_i_tmp : 15 , value dc_q_tmp : 15 ,I:reg0x11a4=0x231b2b2b.   Q:reg0x11e0=0x1f1d2d21.
vga case:10 pass.
RX0 vga case:10 ,absolute value dc_i_tmp : 15 , value dc_q_tmp : 15 ,I:reg0x11a8=0x25192b29.   Q:reg0x11e4=0x17212725.
vga case:11 pass.
RX0 vga case:11 ,absolute value dc_i_tmp : 15 , value dc_q_tmp : 15 ,I:reg0x11ac=0x25192d29.   Q:reg0x11e8=0x17232725.
vga case:12 pass.
RX0 vga case:12 ,absolute value dc_i_tmp : 15 , value dc_q_tmp : 15 ,I:reg0x11b0=0x251b2d27.   Q:reg0x11ec=0x1d192925.
vga case:13 pass.
RX0 vga case:13 ,absolute value dc_i_tmp : 15 , value dc_q_tmp : 15 ,I:reg0x11b4=0x211b2f27.   Q:reg0x11f0=0x19232725.
vga case:14 pass.
RX0 vga case:14 ,absolute value dc_i_tmp : 15 , value dc_q_tmp : 15 ,I:reg0x11b8=0x1f1f2f23.   Q:reg0x11f4=0x11232725.
rx1 vga calibration begin
rx1 vga case:1 pass.
RX1 vga case:1 ,absolute value dc_i_tmp : 15 , value dc_q_tmp : 15 ,I:reg0x11fc=0x27211d1f. Q:reg0x1238=0x3d3f2925.
rx1 vga case:2 pass.
RX1 vga case:2 ,absolute value dc_i_tmp : 15 , value dc_q_tmp : 15 ,I:reg0x1200=0x251f1d1f. Q:reg0x123c=0x3d3f2925.
rx1 vga case:3 pass.
RX1 vga case:3 ,absolute value dc_i_tmp : 15 , value dc_q_tmp : 15 ,I:reg0x1204=0x251f1d1f. Q:reg0x1240=0x3d3f2925.
rx1 vga case:4 pass.
RX1 vga case:4 ,absolute value dc_i_tmp : 15 , value dc_q_tmp : 15 ,I:reg0x1208=0x251f1d1f. Q:reg0x1244=0x3d3f2925.
rx1 vga case:5 pass.
RX1 vga case:5 ,absolute value dc_i_tmp : 15 , value dc_q_tmp : 15 ,I:reg0x120c=0x27211f21. Q:reg0x1248=0x3d3f2925.
rx1 vga case:6 pass.
RX1 vga case:6 ,absolute value dc_i_tmp : 15 , value dc_q_tmp : 15 ,I:reg0x1210=0x27211f21. Q:reg0x124c=0x3d3f2925.
rx1 vga case:7 pass.
RX1 vga case:7 ,absolute value dc_i_tmp : 15 , value dc_q_tmp : 15 ,I:reg0x1214=0x27211f21. Q:reg0x1250=0x3d3f2925.
rx1 vga case:8 pass.
RX1 vga case:8 ,absolute value dc_i_tmp : 15 , value dc_q_tmp : 15 ,I:reg0x1218=0x23231d21. Q:reg0x1254=0x3f3f2923.
rx1 vga case:9 pass.
RX1 vga case:9 ,absolute value dc_i_tmp : 15 , value dc_q_tmp : 15 ,I:reg0x121c=0x291d1d21. Q:reg0x1258=0x3b3f2b23.
rx1 vga case:10 pass.
RX1 vga case:10 ,absolute value dc_i_tmp : 15 , value dc_q_tmp : 15 ,I:reg0x1220=0x291d1d23. Q:reg0x125c=0x3d3f2d21.
rx1 vga case:11 pass.
RX1 vga case:11 ,absolute value dc_i_tmp : 15 , value dc_q_tmp : 15 ,I:reg0x1224=0x251f1923. Q:reg0x1260=0x3f3f2f1d.
rx1 vga case:12 pass.
RX1 vga case:12 ,absolute value dc_i_tmp : 15 , value dc_q_tmp : 15 ,I:reg0x1228=0x271f1925. Q:reg0x1264=0x3f3f311b.
rx1 vga case:13 pass.
RX1 vga case:13 ,absolute value dc_i_tmp : 15 , value dc_q_tmp : 15 ,I:reg0x122c=0x291f1727. Q:reg0x1268=0x3b3d3519.
rx1 vga case:14 pass.
RX1 vga case:14 ,absolute value dc_i_tmp : 15 , value dc_q_tmp : 15 ,I:reg0x1230=0x2b1d132b. Q:reg0x126c=0x393f3913.
reg0x1120=0x3c0100.
vga calibration end!
RX0: 0x103c : e0010000 ,0x1040 : 40001102 
RX1: 0x1054 : e0010000 ,0x1058 : 40001100 
THIS CASE J: 0 M: 4 
adc calibration begin
calibration begin
RX0 cali pre ,absolute value dc_i_tmp : 4 , value dc_q_tmp : 2 ,
reg0x1180=0x231d272d.
reg0x11bc=0x191d2725.
RX1 cali pre ,absolute value dc_i_tmp : 3 , value dc_q_tmp : 3 ,reg0x11f8=0x231f1f21.
reg0x1234=0x3b3f2529.
rx0 tia cali begin:
####:reg0x1270=0x36493847.
tia_cnt_i : 12 ,
tia_cnt_q : 5 ,
I:reg0x1150=0x231d272d.
Q:reg0x1154=0x191d2725.
RX0 tia case :0,absolute value dc_i : 1 , value dc_q : -1 
####:reg0x1270=0x2c4e2c53.
####:reg0x1274=0x364b3845.
tia_cnt_i : 0 ,
tia_cnt_q : 16 ,
I:reg0x1150=0x231d272d.
Q:reg0x1154=0x191d2725.
RX0 tia case :1,absolute value dc_i : -1 , value dc_q : 0 
####:reg0x1274=0x385b3845.
####:reg0x1278=0x364b3649.
tia_cnt_i : 25 ,
tia_cnt_q : 44 ,
I:reg0x1150=0x231d272d.
Q:reg0x1154=0x191d2725.
RX0 tia case :2,absolute value dc_i : 1 , value dc_q : 0 
####:reg0x1278=0x1d771d62.
####:reg0x127c=0x364b3649.
tia_cnt_i : 17 ,
tia_cnt_q : 28 ,
I:reg0x1150=0x231d272d.
Q:reg0x1154=0x191d2725.
RX0 tia case :3,absolute value dc_i : 0 , value dc_q : 0 
####:reg0x127c=0x2567255a.
####:reg0x1280=0x344b3449.
tia_cnt_i : 52 ,
tia_cnt_q : 1 ,
I:reg0x1150=0x231d272d.
Q:reg0x1154=0x191d2725.
RX0 tia case :4,absolute value dc_i : -5 , value dc_q : -4 
####:reg0x1280=0x4c007d.
####:reg0x1284=0x344b3449.
tia_cnt_i : 52 ,
tia_cnt_q : 1 ,
I:reg0x1150=0x231d272d.
Q:reg0x1154=0x191d2725.
RX0 tia case :5,absolute value dc_i : -7 , value dc_q : -3 
####:reg0x1284=0x4c007d.
####:reg0x1288=0x344b3649.
tia_cnt_i : 54 ,
tia_cnt_q : 1 ,
I:reg0x1150=0x231d272d.
Q:reg0x1154=0x191d2725.
RX0 tia case :6,absolute value dc_i : -6 , value dc_q : -3 
####:reg0x1288=0x4c007f.
####:reg0x128c=0x344b3449.
tia_cnt_i : 52 ,
tia_cnt_q : 1 ,
I:reg0x1150=0x231d272d.
Q:reg0x1154=0x191d2725.
RX0 tia case :7,absolute value dc_i : -5 , value dc_q : -3 
####:reg0x128c=0x4c007d.
####:reg0x1290=0x2e51324d.
tia_cnt_i : 4 ,
tia_cnt_q : 17 ,
I:reg0x1150=0x231d272d.
Q:reg0x1154=0x191d2725.
RX0 tia case :8,absolute value dc_i : -1 , value dc_q : 0 
####:reg0x1290=0x2e622e51.
####:reg0x1294=0x324f324d.
tia_cnt_i : 50 ,
tia_cnt_q : 1 ,
I:reg0x1150=0x231d272d.
Q:reg0x1154=0x191d2725.
RX0 tia case :9,absolute value dc_i : -6 , value dc_q : -5 
####:reg0x1294=0x50007f.
####:reg0x1298=0x2e51344b.
tia_cnt_i : 52 ,
tia_cnt_q : 1 ,
I:reg0x1150=0x231d272d.
Q:reg0x1154=0x191d2725.
RX0 tia case :10,absolute value dc_i : -4 , value dc_q : -2 
####:reg0x1298=0x52007f.
####:reg0x129c=0x304d344b.
tia_cnt_i : 52 ,
tia_cnt_q : 1 ,
I:reg0x1150=0x231d272d.
Q:reg0x1154=0x191d2725.
RX0 tia case :11,absolute value dc_i : -5 , value dc_q : -1 
####:reg0x129c=0x4e007f.
####:reg0x12a0=0x2e51344b.
tia_cnt_i : 16 ,
tia_cnt_q : 8 ,
I:reg0x1150=0x231d272d.
Q:reg0x1154=0x191d2725.
RX0 tia case :12,absolute value dc_i : -1 , value dc_q : -1 
####:reg0x12a0=0x2459245b.
rx1 tia cali begin:
Q:reg0x12b0=0x562b5c21.
 RX1 :reg0x1130=0x5c21562b.
tia_cnt_i : 2 ,
tia_cnt_q : 11 ,
RX1 tia case :0,absolute value dc_i : 0 , value dc_q : -1 
RX1:reg0x12b0=0x5a365a23.
Q:reg0x12b4=0x54295c21.
 RX1 :reg0x1130=0x5c215429.
tia_cnt_i : 0 ,
tia_cnt_q : 30 ,
RX1 tia case :1,absolute value dc_i : 0 , value dc_q : 0 
RX1:reg0x12b4=0x5c475c21.
Q:reg0x12b8=0x54295c21.
 RX1 :reg0x1130=0x5c215429.
tia_cnt_i : 4 ,
tia_cnt_q : 43 ,
RX1 tia case :2,absolute value dc_i : 0 , value dc_q : 0 
RX1:reg0x12b8=0x58545825.
Q:reg0x12bc=0x54295a25.
 RX1 :reg0x1130=0x5a255429.
tia_cnt_i : 0 ,
tia_cnt_q : 34 ,
RX1 tia case :3,absolute value dc_i : 0 , value dc_q : 0 
RX1:reg0x12bc=0x5a4b5a25.
Q:reg0x12c0=0x542b5a25.
 RX1 :reg0x1130=0x5a25542b.
tia_cnt_i : 1 ,
tia_cnt_q : 51 ,
RX1 tia case :4,absolute value dc_i : -1 , value dc_q : 0 
RX1:reg0x12c0=0x595e5926.
Q:reg0x12c4=0x522d5a25.
 RX1 :reg0x1130=0x5a25522d.
tia_cnt_i : 2 ,
tia_cnt_q : 38 ,
RX1 tia case :5,absolute value dc_i : -1 , value dc_q : -1 
RX1:reg0x12c4=0x5a535a25.
Q:reg0x12c8=0x522d5a25.
 RX1 :reg0x1130=0x5a25522d.
tia_cnt_i : 0 ,
tia_cnt_q : 33 ,
RX1 tia case :6,absolute value dc_i : 0 , value dc_q : -1 
RX1:reg0x12c8=0x5a4e5a25.
Q:reg0x12cc=0x502d5a25.
 RX1 :reg0x1130=0x5a25502d.
tia_cnt_i : 0 ,
tia_cnt_q : 25 ,
RX1 tia case :7,absolute value dc_i : 0 , value dc_q : -1 
RX1:reg0x12cc=0x5a465a25.
Q:reg0x12d0=0x522d5825.
 RX1 :reg0x1130=0x5825522d.
tia_cnt_i : 1 ,
tia_cnt_q : 6 ,
RX1 tia case :8,absolute value dc_i : 0 , value dc_q : -1 
RX1:reg0x12d0=0x57335726.
Q:reg0x12d4=0x522d5825.
 RX1 :reg0x1130=0x5825522d.
tia_cnt_i : 0 ,
tia_cnt_q : 22 ,
RX1 tia case :9,absolute value dc_i : 0 , value dc_q : -1 
RX1:reg0x12d4=0x58435825.
Q:reg0x12d8=0x522d5a25.
 RX1 :reg0x1130=0x5a25522d.
tia_cnt_i : 1 ,
tia_cnt_q : 10 ,
RX1 tia case :10,absolute value dc_i : 0 , value dc_q : -1 
RX1:reg0x12d8=0x59375926.
Q:reg0x12dc=0x522d5a27.
 RX1 :reg0x1130=0x5a27522d.
tia_cnt_i : 1 ,
tia_cnt_q : 29 ,
RX1 tia case :11,absolute value dc_i : 0 , value dc_q : -1 
RX1:reg0x12dc=0x594a5928.
Q:reg0x12e0=0x502d5a27.
 RX1 :reg0x1130=0x5a27502d.
tia_cnt_i : 2 ,
tia_cnt_q : 0 ,
RX1 tia case :12,absolute value dc_i : 0 , value dc_q : -1 
RX1:reg0x12e0=0x502d5a27.
tia calibration end!
rx0 vga calibration begin
reg0x1120=0x3fc100.
vga case:1 pass.
RX0 vga case:1 ,absolute value dc_i_tmp : 2 , value dc_q_tmp : 2 ,I:reg0x1184=0x231d292b.   Q:reg0x11c0=0x191d2723.
vga case:2 pass.
RX0 vga case:2 ,absolute value dc_i_tmp : 3 , value dc_q_tmp : 1 ,I:reg0x1188=0x211d292b.   Q:reg0x11c4=0x191d2723.
vga case:3 pass.
RX0 vga case:3 ,absolute value dc_i_tmp : 4 , value dc_q_tmp : 0 ,I:reg0x118c=0x231d292b.   Q:reg0x11c8=0x191d2723.
vga case:4 pass.
RX0 vga case:4 ,absolute value dc_i_tmp : 4 , value dc_q_tmp : 1 ,I:reg0x1190=0x211d292b.   Q:reg0x11cc=0x191d2723.
vga case:5 pass.
RX0 vga case:5 ,absolute value dc_i_tmp : 4 , value dc_q_tmp : 0 ,I:reg0x1194=0x231d292b.   Q:reg0x11d0=0x191d2925.
vga case:6 pass.
RX0 vga case:6 ,absolute value dc_i_tmp : 3 , value dc_q_tmp : 2 ,I:reg0x1198=0x211d292b.   Q:reg0x11d4=0x191d2925.
vga case:7 pass.
RX0 vga case:7 ,absolute value dc_i_tmp : 4 , value dc_q_tmp : 0 ,I:reg0x119c=0x211d292b.   Q:reg0x11d8=0x191d2925.
vga case:8 pass.
RX0 vga case:8 ,absolute value dc_i_tmp : 4 , value dc_q_tmp : 2 ,I:reg0x11a0=0x251b2b2b.   Q:reg0x11dc=0x171f2925.
vga case:9 pass.
RX0 vga case:9 ,absolute value dc_i_tmp : 4 , value dc_q_tmp : 1 ,I:reg0x11a4=0x25172d2b.   Q:reg0x11e0=0x17232723.
vga case:10 pass.
RX0 vga case:10 ,absolute value dc_i_tmp : 2 , value dc_q_tmp : 0 ,I:reg0x11a8=0x25212b29.   Q:reg0x11e4=0x211f2923.
vga case:11 pass.
RX0 vga case:11 ,absolute value dc_i_tmp : 3 , value dc_q_tmp : 1 ,I:reg0x11ac=0x1d1f2b27.   Q:reg0x11e8=0x1b192b23.
vga case:12 pass.
RX0 vga case:12 ,absolute value dc_i_tmp : 2 , value dc_q_tmp : 1 ,I:reg0x11b0=0x21212d27.   Q:reg0x11ec=0x1f1d2b23.
vga case:13 pass.
RX0 vga case:13 ,absolute value dc_i_tmp : 1 , value dc_q_tmp : 0 ,I:reg0x11b4=0x231b2f25.   Q:reg0x11f0=0x1b192b21.
vga case:14 pass.
RX0 vga case:14 ,absolute value dc_i_tmp : 2 , value dc_q_tmp : 0 ,I:reg0x11b8=0x2d193323.   Q:reg0x11f4=0x21192f21.
rx1 vga calibration begin
rx1 vga case:1 pass.
RX1 vga case:1 ,absolute value dc_i_tmp : 0 , value dc_q_tmp : 1 ,I:reg0x11fc=0x27211f21. Q:reg0x1238=0x3b3f2529.
rx1 vga case:2 pass.
RX1 vga case:2 ,absolute value dc_i_tmp : 1 , value dc_q_tmp : 3 ,I:reg0x1200=0x27211f21. Q:reg0x123c=0x3b3f2529.
rx1 vga case:3 pass.
RX1 vga case:3 ,absolute value dc_i_tmp : 1 , value dc_q_tmp : 4 ,I:reg0x1204=0x27211d1f. Q:reg0x1240=0x393f2529.
rx1 vga case:4 pass.
RX1 vga case:4 ,absolute value dc_i_tmp : 2 , value dc_q_tmp : 4 ,I:reg0x1208=0x27211f21. Q:reg0x1244=0x393f2529.
rx1 vga case:5 pass.
RX1 vga case:5 ,absolute value dc_i_tmp : 1 , value dc_q_tmp : 3 ,I:reg0x120c=0x25211f21. Q:reg0x1248=0x393f2529.
rx1 vga case:6 pass.
RX1 vga case:6 ,absolute value dc_i_tmp : 3 , value dc_q_tmp : 3 ,I:reg0x1210=0x25211d1f. Q:reg0x124c=0x393f2529.
rx1 vga case:7 pass.
RX1 vga case:7 ,absolute value dc_i_tmp : 2 , value dc_q_tmp : 1 ,I:reg0x1214=0x23211f21. Q:reg0x1250=0x373f2529.
rx1 vga case:8 pass.
RX1 vga case:8 ,absolute value dc_i_tmp : 3 , value dc_q_tmp : 3 ,I:reg0x1218=0x291f1f21. Q:reg0x1254=0x373f2529.
rx1 vga case:9 pass.
RX1 vga case:9 ,absolute value dc_i_tmp : 3 , value dc_q_tmp : 4 ,I:reg0x121c=0x271f1d21. Q:reg0x1258=0x3f3f2729.
rx1 vga case:10 pass.
RX1 vga case:10 ,absolute value dc_i_tmp : 3 , value dc_q_tmp : 3 ,I:reg0x1220=0x271f1d23. Q:reg0x125c=0x3f3f2729.
rx1 vga case:11 pass.
RX1 vga case:11 ,absolute value dc_i_tmp : 3 , value dc_q_tmp : 1 ,I:reg0x1224=0x25231923. Q:reg0x1260=0x3d3f2729.
rx1 vga case:12 pass.
RX1 vga case:12 ,absolute value dc_i_tmp : 2 , value dc_q_tmp : 3 ,I:reg0x1228=0x27231925. Q:reg0x1264=0x3b3f2729.
rx1 vga case:13 pass.
RX1 vga case:13 ,absolute value dc_i_tmp : 1 , value dc_q_tmp : 1 ,I:reg0x122c=0x27231727. Q:reg0x1268=0x373f2527.
rx1 vga case:14 pass.
RX1 vga case:14 ,absolute value dc_i_tmp : 0 , value dc_q_tmp : 1 ,I:reg0x1230=0x231f132b. Q:reg0x126c=0x3d3f2727.
reg0x1120=0x3c0100.
vga calibration end!
RX0: 0x103c : e0014000 ,0x1040 : 50001102 
RX1: 0x1054 : e0014000 ,0x1058 : 50001100 
THIS CASE J: 0 M: 5 
adc calibration begin
calibration begin
RX0 cali pre ,absolute value dc_i_tmp : 0 , value dc_q_tmp : 0 ,
reg0x1180=0x231d272d.
reg0x11bc=0x191d2725.
RX1 cali pre ,absolute value dc_i_tmp : 1 , value dc_q_tmp : 2 ,reg0x11f8=0x27211f21.
reg0x1234=0x3b3f2529.
rx0 tia cali begin:
####:reg0x1270=0x36493649.
tia_cnt_i : 0 ,
tia_cnt_q : 0 ,
I:reg0x1150=0x231d272d.
Q:reg0x1154=0x191d2725.
RX0 tia case :0,absolute value dc_i : 0 , value dc_q : 0 
####:reg0x1270=0x36493649.
####:reg0x1274=0x34493a47.
tia_cnt_i : 0 ,
tia_cnt_q : 0 ,
I:reg0x1150=0x231d272d.
Q:reg0x1154=0x191d2725.
RX0 tia case :1,absolute value dc_i : -1 , value dc_q : 0 
####:reg0x1274=0x34493a47.
####:reg0x1278=0x36493847.
tia_cnt_i : 0 ,
tia_cnt_q : 0 ,
I:reg0x1150=0x231d272d.
Q:reg0x1154=0x191d2725.
RX0 tia case :2,absolute value dc_i : -1 , value dc_q : 0 
####:reg0x1278=0x36493847.
####:reg0x127c=0x38473847.
tia_cnt_i : 0 ,
tia_cnt_q : 0 ,
I:reg0x1150=0x231d272d.
Q:reg0x1154=0x191d2725.
RX0 tia case :3,absolute value dc_i : -1 , value dc_q : 0 
####:reg0x127c=0x38473847.
####:reg0x1280=0x344b364b.
tia_cnt_i : 0 ,
tia_cnt_q : 0 ,
I:reg0x1150=0x231d272d.
Q:reg0x1154=0x191d2725.
RX0 tia case :4,absolute value dc_i : -1 , value dc_q : 0 
####:reg0x1280=0x344b364b.
####:reg0x1284=0x324d3449.
tia_cnt_i : 0 ,
tia_cnt_q : 0 ,
I:reg0x1150=0x231d272d.
Q:reg0x1154=0x191d2725.
RX0 tia case :5,absolute value dc_i : -1 , value dc_q : -1 
####:reg0x1284=0x324d3449.
####:reg0x1288=0x344b3649.
tia_cnt_i : 0 ,
tia_cnt_q : 0 ,
I:reg0x1150=0x231d272d.
Q:reg0x1154=0x191d2725.
RX0 tia case :6,absolute value dc_i : -1 , value dc_q : -1 
####:reg0x1288=0x344b3649.
####:reg0x128c=0x324d3449.
tia_cnt_i : 0 ,
tia_cnt_q : 0 ,
I:reg0x1150=0x231d272d.
Q:reg0x1154=0x191d2725.
RX0 tia case :7,absolute value dc_i : -1 , value dc_q : 0 
####:reg0x128c=0x324d3449.
####:reg0x1290=0x324f324d.
tia_cnt_i : 0 ,
tia_cnt_q : 0 ,
I:reg0x1150=0x231d272d.
Q:reg0x1154=0x191d2725.
RX0 tia case :8,absolute value dc_i : -1 , value dc_q : 0 
####:reg0x1290=0x324f324d.
####:reg0x1294=0x344b344b.
tia_cnt_i : 0 ,
tia_cnt_q : 0 ,
I:reg0x1150=0x231d272d.
Q:reg0x1154=0x191d2725.
RX0 tia case :9,absolute value dc_i : -1 , value dc_q : 0 
####:reg0x1294=0x344b344b.
####:reg0x1298=0x324d344b.
tia_cnt_i : 0 ,
tia_cnt_q : 0 ,
I:reg0x1150=0x231d272d.
Q:reg0x1154=0x191d2725.
RX0 tia case :10,absolute value dc_i : -1 , value dc_q : 0 
####:reg0x1298=0x324d344b.
####:reg0x129c=0x324d344b.
tia_cnt_i : 0 ,
tia_cnt_q : 0 ,
I:reg0x1150=0x231d272d.
Q:reg0x1154=0x191d2725.
RX0 tia case :11,absolute value dc_i : -1 , value dc_q : -1 
####:reg0x129c=0x324d344b.
####:reg0x12a0=0x2e51344b.
tia_cnt_i : 0 ,
tia_cnt_q : 0 ,
I:reg0x1150=0x231d272d.
Q:reg0x1154=0x191d2725.
RX0 tia case :12,absolute value dc_i : -1 , value dc_q : 0 
####:reg0x12a0=0x2e51344b.
rx1 tia cali begin:
Q:reg0x12b0=0x542b5e23.
 RX1 :reg0x1130=0x5e23542b.
tia_cnt_i : 33 ,
tia_cnt_q : 50 ,
RX1 tia case :0,absolute value dc_i : 3 , value dc_q : -1 
RX1:reg0x12b0=0x7f5d7f02.
Q:reg0x12b4=0x542b5e23.
 RX1 :reg0x1130=0x5e23542b.
tia_cnt_i : 33 ,
tia_cnt_q : 51 ,
RX1 tia case :1,absolute value dc_i : 3 , value dc_q : -1 
RX1:reg0x12b4=0x7f5e7f02.
Q:reg0x12b8=0x542b5c23.
 RX1 :reg0x1130=0x5c23542b.
tia_cnt_i : 35 ,
tia_cnt_q : 56 ,
RX1 tia case :2,absolute value dc_i : 3 , value dc_q : -1 
RX1:reg0x12b8=0x7f637f00.
Q:reg0x12bc=0x542b5c23.
 RX1 :reg0x1130=0x5c23542b.
tia_cnt_i : 35 ,
tia_cnt_q : 56 ,
RX1 tia case :3,absolute value dc_i : 3 , value dc_q : -1 
RX1:reg0x12bc=0x7f637f00.
Q:reg0x12c0=0x522d5825.
 RX1 :reg0x1130=0x5825522d.
tia_cnt_i : 37 ,
tia_cnt_q : 54 ,
RX1 tia case :4,absolute value dc_i : 3 , value dc_q : -1 
RX1:reg0x12c0=0x7d637d00.
Q:reg0x12c4=0x542b5a25.
 RX1 :reg0x1130=0x5a25542b.
tia_cnt_i : 37 ,
tia_cnt_q : 71 ,
RX1 tia case :5,absolute value dc_i : 3 , value dc_q : -1 
RX1:reg0x12c4=0x7f727f00.
Q:reg0x12c8=0x522d5825.
 RX1 :reg0x1130=0x5825522d.
tia_cnt_i : 37 ,
tia_cnt_q : 66 ,
RX1 tia case :6,absolute value dc_i : 3 , value dc_q : -1 
RX1:reg0x12c8=0x7d6f7d00.
Q:reg0x12cc=0x522d5a25.
 RX1 :reg0x1130=0x5a25522d.
tia_cnt_i : 37 ,
tia_cnt_q : 71 ,
RX1 tia case :7,absolute value dc_i : 3 , value dc_q : -1 
RX1:reg0x12cc=0x7f747f00.
Q:reg0x12d0=0x4e315629.
 RX1 :reg0x1130=0x56294e31.
tia_cnt_i : 41 ,
tia_cnt_q : 59 ,
RX1 tia case :8,absolute value dc_i : 3 , value dc_q : -1 
RX1:reg0x12d0=0x7f6c7f00.
Q:reg0x12d4=0x522d5825.
 RX1 :reg0x1130=0x5825522d.
tia_cnt_i : 37 ,
tia_cnt_q : 60 ,
RX1 tia case :9,absolute value dc_i : 3 , value dc_q : -1 
RX1:reg0x12d4=0x7d697d00.
Q:reg0x12d8=0x502d5a27.
 RX1 :reg0x1130=0x5a27502d.
tia_cnt_i : 37 ,
tia_cnt_q : 57 ,
RX1 tia case :10,absolute value dc_i : 3 , value dc_q : -1 
RX1:reg0x12d8=0x7f667f02.
Q:reg0x12dc=0x522f5a27.
 RX1 :reg0x1130=0x5a27522f.
tia_cnt_i : 37 ,
tia_cnt_q : 66 ,
RX1 tia case :11,absolute value dc_i : 3 , value dc_q : -1 
RX1:reg0x12dc=0x7f717f02.
Q:reg0x12e0=0x522f5a25.
 RX1 :reg0x1130=0x5a25522f.
tia_cnt_i : 37 ,
tia_cnt_q : 63 ,
RX1 tia case :12,absolute value dc_i : 3 , value dc_q : -1 
RX1:reg0x12e0=0x7f6e7f00.
tia calibration end!
rx0 vga calibration begin
reg0x1120=0x3fc100.
vga case:1 pass.
RX0 vga case:1 ,absolute value dc_i_tmp : 1 , value dc_q_tmp : 1 ,I:reg0x1184=0x231d292d.   Q:reg0x11c0=0x171d2725.
vga case:2 pass.
RX0 vga case:2 ,absolute value dc_i_tmp : 1 , value dc_q_tmp : 1 ,I:reg0x1188=0x211b292d.   Q:reg0x11c4=0x191f2725.
vga case:3 pass.
RX0 vga case:3 ,absolute value dc_i_tmp : 1 , value dc_q_tmp : 0 ,I:reg0x118c=0x231d292d.   Q:reg0x11c8=0x1d1d2925.
vga case:4 pass.
RX0 vga case:4 ,absolute value dc_i_tmp : 1 , value dc_q_tmp : 0 ,I:reg0x1190=0x211b292d.   Q:reg0x11cc=0x191f2725.
vga case:5 pass.
RX0 vga case:5 ,absolute value dc_i_tmp : 1 , value dc_q_tmp : 1 ,I:reg0x1194=0x231d292d.   Q:reg0x11d0=0x171f2725.
vga case:6 pass.
RX0 vga case:6 ,absolute value dc_i_tmp : 1 , value dc_q_tmp : 1 ,I:reg0x1198=0x231b292d.   Q:reg0x11d4=0x17212725.
vga case:7 pass.
RX0 vga case:7 ,absolute value dc_i_tmp : 1 , value dc_q_tmp : 0 ,I:reg0x119c=0x251d292d.   Q:reg0x11d8=0x15212725.
vga case:8 pass.
RX0 vga case:8 ,absolute value dc_i_tmp : 1 , value dc_q_tmp : 1 ,I:reg0x11a0=0x231d292d.   Q:reg0x11dc=0x1b192925.
vga case:9 pass.
RX0 vga case:9 ,absolute value dc_i_tmp : 1 , value dc_q_tmp : 1 ,I:reg0x11a4=0x211f292d.   Q:reg0x11e0=0x1f1d2925.
vga case:10 pass.
RX0 vga case:10 ,absolute value dc_i_tmp : 1 , value dc_q_tmp : 0 ,I:reg0x11a8=0x1d21292d.   Q:reg0x11e4=0x1b1d2925.
vga case:11 pass.
RX0 vga case:11 ,absolute value dc_i_tmp : 1 , value dc_q_tmp : 0 ,I:reg0x11ac=0x211b292b.   Q:reg0x11e8=0x191d2925.
vga case:12 pass.
RX0 vga case:12 ,absolute value dc_i_tmp : 1 , value dc_q_tmp : 0 ,I:reg0x11b0=0x2521292b.   Q:reg0x11ec=0x191f2925.
vga case:13 pass.
RX0 vga case:13 ,absolute value dc_i_tmp : 0 , value dc_q_tmp : 1 ,I:reg0x11b4=0x23192b2b.   Q:reg0x11f0=0x17212723.
vga case:14 pass.
RX0 vga case:14 ,absolute value dc_i_tmp : 0 , value dc_q_tmp : 1 ,I:reg0x11b8=0x231f2b29.   Q:reg0x11f4=0x191d2923.
rx1 vga calibration begin
rx1 vga case:1 pass.
RX1 vga case:1 ,absolute value dc_i_tmp : 1 , value dc_q_tmp : 1 ,I:reg0x11fc=0x271f1b23. Q:reg0x1238=0x3b3f2529.
rx1 vga case:2 pass.
RX1 vga case:2 ,absolute value dc_i_tmp : 1 , value dc_q_tmp : 0 ,I:reg0x1200=0x231f1923. Q:reg0x123c=0x3b3f2529.
rx1 vga case:3 pass.
RX1 vga case:3 ,absolute value dc_i_tmp : 1 , value dc_q_tmp : 2 ,I:reg0x1204=0x231f1923. Q:reg0x1240=0x3d3f2729.
rx1 vga case:4 pass.
RX1 vga case:4 ,absolute value dc_i_tmp : 1 , value dc_q_tmp : 1 ,I:reg0x1208=0x231f1923. Q:reg0x1244=0x3f3f2729.
rx1 vga case:5 pass.
RX1 vga case:5 ,absolute value dc_i_tmp : 1 , value dc_q_tmp : 1 ,I:reg0x120c=0x25211923. Q:reg0x1248=0x393f2529.
rx1 vga case:6 pass.
RX1 vga case:6 ,absolute value dc_i_tmp : 1 , value dc_q_tmp : 0 ,I:reg0x1210=0x25211923. Q:reg0x124c=0x393f2529.
rx1 vga case:7 pass.
RX1 vga case:7 ,absolute value dc_i_tmp : 1 , value dc_q_tmp : 0 ,I:reg0x1214=0x23211923. Q:reg0x1250=0x373f2529.
rx1 vga case:8 pass.
RX1 vga case:8 ,absolute value dc_i_tmp : 1 , value dc_q_tmp : 1 ,I:reg0x1218=0x25211925. Q:reg0x1254=0x3f3d2729.
rx1 vga case:9 pass.
RX1 vga case:9 ,absolute value dc_i_tmp : 1 , value dc_q_tmp : 1 ,I:reg0x121c=0x27211727. Q:reg0x1258=0x3f3f2729.
rx1 vga case:10 pass.
RX1 vga case:10 ,absolute value dc_i_tmp : 1 , value dc_q_tmp : 0 ,I:reg0x1220=0x291d1529. Q:reg0x125c=0x3f3f2527.
rx1 vga case:11 pass.
RX1 vga case:11 ,absolute value dc_i_tmp : 0 , value dc_q_tmp : 1 ,I:reg0x1224=0x2b1d132d. Q:reg0x1260=0x3b3f2527.
rx1 vga case:12 pass.
RX1 vga case:12 ,absolute value dc_i_tmp : 0 , value dc_q_tmp : 0 ,I:reg0x1228=0x2b1d0f2f. Q:reg0x1264=0x393f2527.
rx1 vga case:13 pass.
RX1 vga case:13 ,absolute value dc_i_tmp : 0 , value dc_q_tmp : 1 ,I:reg0x122c=0x25210933. Q:reg0x1268=0x3f3d2727.
rx1 vga case:14 pass.
RX1 vga case:14 ,absolute value dc_i_tmp : 0 , value dc_q_tmp : 0 ,I:reg0x1230=0x231f013d. Q:reg0x126c=0x3b3f2727.
reg0x1120=0x3c0100.
vga calibration end!
RX0: 0x103c : e0018000 ,0x1040 : 60001102 
RX1: 0x1054 : e0018000 ,0x1058 : 60001100 
THIS CASE J: 0 M: 6 
adc calibration begin
calibration begin
RX0 cali pre ,absolute value dc_i_tmp : 0 , value dc_q_tmp : 0 ,
reg0x1180=0x231d272d.
reg0x11bc=0x1b1f2725.
RX1 cali pre ,absolute value dc_i_tmp : 2 , value dc_q_tmp : 1 ,reg0x11f8=0x231f1d1f.
reg0x1234=0x3b3f2529.
rx0 tia cali begin:
####:reg0x1270=0x38473a47.
tia_cnt_i : 0 ,
tia_cnt_q : 0 ,
I:reg0x1150=0x231d272d.
Q:reg0x1154=0x1b1f2725.
RX0 tia case :0,absolute value dc_i : -1 , value dc_q : 0 
####:reg0x1270=0x38473a47.
####:reg0x1274=0x38473a47.
tia_cnt_i : 0 ,
tia_cnt_q : 0 ,
I:reg0x1150=0x231d272d.
Q:reg0x1154=0x1b1f2725.
RX0 tia case :1,absolute value dc_i : -1 , value dc_q : 0 
####:reg0x1274=0x38473a47.
####:reg0x1278=0x38473a47.
tia_cnt_i : 0 ,
tia_cnt_q : 0 ,
I:reg0x1150=0x231d272d.
Q:reg0x1154=0x1b1f2725.
RX0 tia case :2,absolute value dc_i : -1 , value dc_q : 0 
####:reg0x1278=0x38473a47.
####:reg0x127c=0x36493847.
tia_cnt_i : 0 ,
tia_cnt_q : 0 ,
I:reg0x1150=0x231d272d.
Q:reg0x1154=0x1b1f2725.
RX0 tia case :3,absolute value dc_i : -1 , value dc_q : 0 
####:reg0x127c=0x36493847.
####:reg0x1280=0x364b364b.
tia_cnt_i : 0 ,
tia_cnt_q : 0 ,
I:reg0x1150=0x231d272d.
Q:reg0x1154=0x1b1f2725.
RX0 tia case :4,absolute value dc_i : -1 , value dc_q : 0 
####:reg0x1280=0x364b364b.
####:reg0x1284=0x344b364b.
tia_cnt_i : 0 ,
tia_cnt_q : 0 ,
I:reg0x1150=0x231d272d.
Q:reg0x1154=0x1b1f2725.
RX0 tia case :5,absolute value dc_i : -1 , value dc_q : 0 
####:reg0x1284=0x344b364b.
####:reg0x1288=0x344b364b.
tia_cnt_i : 0 ,
tia_cnt_q : 0 ,
I:reg0x1150=0x231d272d.
Q:reg0x1154=0x1b1f2725.
RX0 tia case :6,absolute value dc_i : -1 , value dc_q : 0 
####:reg0x1288=0x344b364b.
####:reg0x128c=0x364b3449.
tia_cnt_i : 0 ,
tia_cnt_q : 0 ,
I:reg0x1150=0x231d272d.
Q:reg0x1154=0x1b1f2725.
RX0 tia case :7,absolute value dc_i : -1 , value dc_q : 0 
####:reg0x128c=0x364b3449.
####:reg0x1290=0x304d344b.
tia_cnt_i : 0 ,
tia_cnt_q : 0 ,
I:reg0x1150=0x231d272d.
Q:reg0x1154=0x1b1f2725.
RX0 tia case :8,absolute value dc_i : -1 , value dc_q : 0 
####:reg0x1290=0x304d344b.
####:reg0x1294=0x324d324d.
tia_cnt_i : 0 ,
tia_cnt_q : 0 ,
I:reg0x1150=0x231d272d.
Q:reg0x1154=0x1b1f2725.
RX0 tia case :9,absolute value dc_i : -1 , value dc_q : 0 
####:reg0x1294=0x324d324d.
####:reg0x1298=0x2e51344b.
tia_cnt_i : 0 ,
tia_cnt_q : 0 ,
I:reg0x1150=0x231d272d.
Q:reg0x1154=0x1b1f2725.
RX0 tia case :10,absolute value dc_i : -1 , value dc_q : 0 
####:reg0x1298=0x2e51344b.
####:reg0x129c=0x324d344b.
tia_cnt_i : 0 ,
tia_cnt_q : 0 ,
I:reg0x1150=0x231d272d.
Q:reg0x1154=0x1b1f2725.
RX0 tia case :11,absolute value dc_i : -1 , value dc_q : 0 
####:reg0x129c=0x324d344b.
####:reg0x12a0=0x304d324d.
tia_cnt_i : 0 ,
tia_cnt_q : 0 ,
I:reg0x1150=0x231d272d.
Q:reg0x1154=0x1b1f2725.
RX0 tia case :12,absolute value dc_i : -1 , value dc_q : -1 
####:reg0x12a0=0x304d324d.
rx1 tia cali begin:
Q:reg0x12b0=0x522d5a25.
 RX1 :reg0x1130=0x5a25522d.
tia_cnt_i : 37 ,
tia_cnt_q : 50 ,
RX1 tia case :0,absolute value dc_i : 3 , value dc_q : -1 
RX1:reg0x12b0=0x7f5f7f00.
Q:reg0x12b4=0x542b5e23.
 RX1 :reg0x1130=0x5e23542b.
tia_cnt_i : 33 ,
tia_cnt_q : 53 ,
RX1 tia case :1,absolute value dc_i : 2 , value dc_q : -1 
RX1:reg0x12b4=0x7f607f02.
Q:reg0x12b8=0x542b5c23.
 RX1 :reg0x1130=0x5c23542b.
tia_cnt_i : 35 ,
tia_cnt_q : 54 ,
RX1 tia case :2,absolute value dc_i : 2 , value dc_q : -1 
RX1:reg0x12b8=0x7f617f00.
Q:reg0x12bc=0x522d5a25.
 RX1 :reg0x1130=0x5a25522d.
tia_cnt_i : 37 ,
tia_cnt_q : 57 ,
RX1 tia case :3,absolute value dc_i : 2 , value dc_q : -1 
RX1:reg0x12bc=0x7f667f00.
Q:reg0x12c0=0x522d5825.
 RX1 :reg0x1130=0x5825522d.
tia_cnt_i : 37 ,
tia_cnt_q : 65 ,
RX1 tia case :4,absolute value dc_i : 2 , value dc_q : -1 
RX1:reg0x12c0=0x7d6e7d00.
Q:reg0x12c4=0x522d5a25.
 RX1 :reg0x1130=0x5a25522d.
tia_cnt_i : 37 ,
tia_cnt_q : 59 ,
RX1 tia case :5,absolute value dc_i : 3 , value dc_q : -1 
RX1:reg0x12c4=0x7f687f00.
Q:reg0x12c8=0x522d5a25.
 RX1 :reg0x1130=0x5a25522d.
tia_cnt_i : 37 ,
tia_cnt_q : 66 ,
RX1 tia case :6,absolute value dc_i : 2 , value dc_q : -1 
RX1:reg0x12c8=0x7f6f7f00.
Q:reg0x12cc=0x522d5a25.
 RX1 :reg0x1130=0x5a25522d.
tia_cnt_i : 37 ,
tia_cnt_q : 60 ,
RX1 tia case :7,absolute value dc_i : 2 , value dc_q : -1 
RX1:reg0x12cc=0x7f697f00.
Q:reg0x12d0=0x4e315a27.
 RX1 :reg0x1130=0x5a274e31.
tia_cnt_i : 37 ,
tia_cnt_q : 58 ,
RX1 tia case :8,absolute value dc_i : 2 , value dc_q : -1 
RX1:reg0x12d0=0x7f6b7f02.
Q:reg0x12d4=0x522d5825.
 RX1 :reg0x1130=0x5825522d.
tia_cnt_i : 37 ,
tia_cnt_q : 66 ,
RX1 tia case :9,absolute value dc_i : 2 , value dc_q : -1 
RX1:reg0x12d4=0x7d6f7d00.
Q:reg0x12d8=0x502d5a27.
 RX1 :reg0x1130=0x5a27502d.
tia_cnt_i : 37 ,
tia_cnt_q : 64 ,
RX1 tia case :10,absolute value dc_i : 2 , value dc_q : -1 
RX1:reg0x12d8=0x7f6d7f02.
Q:reg0x12dc=0x522d5a27.
 RX1 :reg0x1130=0x5a27522d.
tia_cnt_i : 37 ,
tia_cnt_q : 67 ,
RX1 tia case :11,absolute value dc_i : 2 , value dc_q : -1 
RX1:reg0x12dc=0x7f707f02.
Q:reg0x12e0=0x522f5825.
 RX1 :reg0x1130=0x5825522f.
tia_cnt_i : 37 ,
tia_cnt_q : 60 ,
RX1 tia case :12,absolute value dc_i : 2 , value dc_q : -1 
RX1:reg0x12e0=0x7d6b7d00.
tia calibration end!
rx0 vga calibration begin
reg0x1120=0x3fc100.
vga case:1 pass.
RX0 vga case:1 ,absolute value dc_i_tmp : 0 , value dc_q_tmp : 0 ,I:reg0x1184=0x231d272d.   Q:reg0x11c0=0x1b1f2725.
vga case:2 pass.
RX0 vga case:2 ,absolute value dc_i_tmp : 0 , value dc_q_tmp : 1 ,I:reg0x1188=0x231d272d.   Q:reg0x11c4=0x191f2725.
vga case:3 pass.
RX0 vga case:3 ,absolute value dc_i_tmp : 1 , value dc_q_tmp : 1 ,I:reg0x118c=0x211d272d.   Q:reg0x11c8=0x191f2725.
vga case:4 pass.
RX0 vga case:4 ,absolute value dc_i_tmp : 1 , value dc_q_tmp : 0 ,I:reg0x1190=0x211d272d.   Q:reg0x11cc=0x191f2725.
vga case:5 pass.
RX0 vga case:5 ,absolute value dc_i_tmp : 1 , value dc_q_tmp : 1 ,I:reg0x1194=0x231f272d.   Q:reg0x11d0=0x171f2725.
vga case:6 pass.
RX0 vga case:6 ,absolute value dc_i_tmp : 1 , value dc_q_tmp : 0 ,I:reg0x1198=0x211f272d.   Q:reg0x11d4=0x19212725.
vga case:7 pass.
RX0 vga case:7 ,absolute value dc_i_tmp : 1 , value dc_q_tmp : 0 ,I:reg0x119c=0x211f272d.   Q:reg0x11d8=0x15212725.
vga case:8 pass.
RX0 vga case:8 ,absolute value dc_i_tmp : 1 , value dc_q_tmp : 1 ,I:reg0x11a0=0x211f272d.   Q:reg0x11dc=0x15212725.
vga case:9 pass.
RX0 vga case:9 ,absolute value dc_i_tmp : 0 , value dc_q_tmp : 1 ,I:reg0x11a4=0x2121272d.   Q:reg0x11e0=0x17232725.
vga case:10 pass.
RX0 vga case:10 ,absolute value dc_i_tmp : 0 , value dc_q_tmp : 1 ,I:reg0x11a8=0x2319292d.   Q:reg0x11e4=0x17232725.
vga case:11 pass.
RX0 vga case:11 ,absolute value dc_i_tmp : 1 , value dc_q_tmp : 1 ,I:reg0x11ac=0x231d292d.   Q:reg0x11e8=0x13252725.
vga case:12 pass.
RX0 vga case:12 ,absolute value dc_i_tmp : 0 , value dc_q_tmp : 1 ,I:reg0x11b0=0x211b292d.   Q:reg0x11ec=0x11232725.
vga case:13 pass.
RX0 vga case:13 ,absolute value dc_i_tmp : 0 , value dc_q_tmp : 0 ,I:reg0x11b4=0x211d292d.   Q:reg0x11f0=0x211f2925.
vga case:14 pass.
RX0 vga case:14 ,absolute value dc_i_tmp : 1 , value dc_q_tmp : 0 ,I:reg0x11b8=0x1f21292d.   Q:reg0x11f4=0xf252725.
rx1 vga calibration begin
rx1 vga case:1 pass.
RX1 vga case:1 ,absolute value dc_i_tmp : 1 , value dc_q_tmp : 1 ,I:reg0x11fc=0x27211923. Q:reg0x1238=0x3d3f2729.
rx1 vga case:2 pass.
RX1 vga case:2 ,absolute value dc_i_tmp : 1 , value dc_q_tmp : 1 ,I:reg0x1200=0x27211923. Q:reg0x123c=0x3d3f2729.
rx1 vga case:3 pass.
RX1 vga case:3 ,absolute value dc_i_tmp : 1 , value dc_q_tmp : 2 ,I:reg0x1204=0x27211923. Q:reg0x1240=0x3d3f2729.
rx1 vga case:4 pass.
RX1 vga case:4 ,absolute value dc_i_tmp : 1 , value dc_q_tmp : 1 ,I:reg0x1208=0x27211923. Q:reg0x1244=0x3f3f2729.
rx1 vga case:5 pass.
RX1 vga case:5 ,absolute value dc_i_tmp : 1 , value dc_q_tmp : 1 ,I:reg0x120c=0x27211923. Q:reg0x1248=0x3f3f2729.
rx1 vga case:6 pass.
RX1 vga case:6 ,absolute value dc_i_tmp : 1 , value dc_q_tmp : 1 ,I:reg0x1210=0x25211923. Q:reg0x124c=0x3f3f2729.
rx1 vga case:7 pass.
RX1 vga case:7 ,absolute value dc_i_tmp : 1 , value dc_q_tmp : 1 ,I:reg0x1214=0x23211923. Q:reg0x1250=0x3f3d2729.
rx1 vga case:8 pass.
RX1 vga case:8 ,absolute value dc_i_tmp : 1 , value dc_q_tmp : 1 ,I:reg0x1218=0x27211925. Q:reg0x1254=0x3f3f2729.
rx1 vga case:9 pass.
RX1 vga case:9 ,absolute value dc_i_tmp : 1 , value dc_q_tmp : 1 ,I:reg0x121c=0x251f1727. Q:reg0x1258=0x3d3f2729.
rx1 vga case:10 pass.
RX1 vga case:10 ,absolute value dc_i_tmp : 1 , value dc_q_tmp : 1 ,I:reg0x1220=0x2321152b. Q:reg0x125c=0x3b3f2527.
rx1 vga case:11 pass.
RX1 vga case:11 ,absolute value dc_i_tmp : 1 , value dc_q_tmp : 1 ,I:reg0x1224=0x2523112d. Q:reg0x1260=0x373f2527.
rx1 vga case:12 pass.
RX1 vga case:12 ,absolute value dc_i_tmp : 1 , value dc_q_tmp : 1 ,I:reg0x1228=0x23210d2f. Q:reg0x1264=0x3f3d2727.
rx1 vga case:13 pass.
RX1 vga case:13 ,absolute value dc_i_tmp : 1 , value dc_q_tmp : 0 ,I:reg0x122c=0x271f0933. Q:reg0x1268=0x3d3f2727.
rx1 vga case:14 pass.
RX1 vga case:14 ,absolute value dc_i_tmp : 1 , value dc_q_tmp : 1 ,I:reg0x1230=0x271f013d. Q:reg0x126c=0x3f3b2927.
reg0x1120=0x3c0100.
vga calibration end!
RX0: 0x103c : e001c000 ,0x1040 : 70001102 
RX1: 0x1054 : e001c000 ,0x1058 : 70001100 
THIS CASE J: 0 M: 7 
adc calibration begin
calibration begin
RX0 cali pre ,absolute value dc_i_tmp : 3 , value dc_q_tmp : 13 ,
reg0x1180=0x231d292d.
reg0x11bc=0x1b1f2725.
RX1 cali pre ,absolute value dc_i_tmp : 15 , value dc_q_tmp : 14 ,reg0x11f8=0x231f1d1f.
reg0x1234=0x3b3f2529.
rx0 tia cali begin:
####:reg0x1270=0x36493847.
tia_cnt_i : 7 ,
tia_cnt_q : 54 ,
I:reg0x1150=0x231d292d.
Q:reg0x1154=0x1b1f2725.
RX0 tia case :0,absolute value dc_i : -1 , value dc_q : -15 
####:reg0x1270=0x317f314e.
####:reg0x1274=0x36493a47.
tia_cnt_i : 14 ,
tia_cnt_q : 54 ,
I:reg0x1150=0x231d292d.
Q:reg0x1154=0x1b1f2725.
RX0 tia case :1,absolute value dc_i : -1 , value dc_q : -15 
####:reg0x1274=0x2c7f2c55.
####:reg0x1278=0x36493847.
tia_cnt_i : 21 ,
tia_cnt_q : 54 ,
I:reg0x1150=0x231d292d.
Q:reg0x1154=0x1b1f2725.
RX0 tia case :2,absolute value dc_i : -1 , value dc_q : -15 
####:reg0x1278=0x237f235c.
####:reg0x127c=0x3a473847.
tia_cnt_i : 39 ,
tia_cnt_q : 56 ,
I:reg0x1150=0x231d292d.
Q:reg0x1154=0x1b1f2725.
RX0 tia case :3,absolute value dc_i : -1 , value dc_q : -14 
####:reg0x127c=0x117f116e.
####:reg0x1280=0x344b364b.
tia_cnt_i : 52 ,
tia_cnt_q : 52 ,
I:reg0x1150=0x231d292d.
Q:reg0x1154=0x1b1f2725.
RX0 tia case :4,absolute value dc_i : -3 , value dc_q : -14 
####:reg0x1280=0x27f027f.
####:reg0x1284=0x364b3449.
tia_cnt_i : 52 ,
tia_cnt_q : 1 ,
I:reg0x1150=0x231d292d.
Q:reg0x1154=0x1b1f2725.
RX0 tia case :5,absolute value dc_i : -2 , value dc_q : -15 
####:reg0x1284=0x4c007d.
####:reg0x1288=0x34493449.
tia_cnt_i : 52 ,
tia_cnt_q : 1 ,
I:reg0x1150=0x231d292d.
Q:reg0x1154=0x1b1f2725.
RX0 tia case :6,absolute value dc_i : -2 , value dc_q : -14 
####:reg0x1288=0x4a007d.
####:reg0x128c=0x344b364b.
tia_cnt_i : 52 ,
tia_cnt_q : 52 ,
I:reg0x1150=0x231d292d.
Q:reg0x1154=0x1b1f2725.
RX0 tia case :7,absolute value dc_i : -1 , value dc_q : -15 
####:reg0x128c=0x27f027f.
####:reg0x1290=0x2e51344b.
tia_cnt_i : 52 ,
tia_cnt_q : 1 ,
I:reg0x1150=0x231d292d.
Q:reg0x1154=0x1b1f2725.
RX0 tia case :8,absolute value dc_i : -3 , value dc_q : -15 
####:reg0x1290=0x52007f.
####:reg0x1294=0x304d344b.
tia_cnt_i : 52 ,
tia_cnt_q : 1 ,
I:reg0x1150=0x231d292d.
Q:reg0x1154=0x1b1f2725.
RX0 tia case :9,absolute value dc_i : -2 , value dc_q : -14 
####:reg0x1294=0x4e007f.
####:reg0x1298=0x324d324d.
tia_cnt_i : 50 ,
tia_cnt_q : 1 ,
I:reg0x1150=0x231d292d.
Q:reg0x1154=0x1b1f2725.
RX0 tia case :10,absolute value dc_i : -2 , value dc_q : -15 
####:reg0x1298=0x4e007f.
####:reg0x129c=0x324d364b.
tia_cnt_i : 52 ,
tia_cnt_q : 50 ,
I:reg0x1150=0x231d292d.
Q:reg0x1154=0x1b1f2725.
RX0 tia case :11,absolute value dc_i : -3 , value dc_q : -15 
####:reg0x129c=0x27f027f.
####:reg0x12a0=0x324d344b.
tia_cnt_i : 52 ,
tia_cnt_q : 1 ,
I:reg0x1150=0x231d292d.
Q:reg0x1154=0x1b1f2725.
RX0 tia case :12,absolute value dc_i : -3 , value dc_q : -14 
####:reg0x12a0=0x4e007f.
rx1 tia cali begin:
Q:reg0x12b0=0x562b601f.
 RX1 :reg0x1130=0x601f562b.
tia_cnt_i : 96 ,
tia_cnt_q : 1 ,
RX1 tia case :0,absolute value dc_i : -16 , value dc_q : -11 
RX1:reg0x12b0=0x2c007f.
Q:reg0x12b4=0x5429601f.
 RX1 :reg0x1130=0x601f5429.
tia_cnt_i : 96 ,
tia_cnt_q : 1 ,
RX1 tia case :1,absolute value dc_i : -16 , value dc_q : -11 
RX1:reg0x12b4=0x2a007f.
Q:reg0x12b8=0x542b5c21.
 RX1 :reg0x1130=0x5c21542b.
tia_cnt_i : 92 ,
tia_cnt_q : 1 ,
RX1 tia case :2,absolute value dc_i : -16 , value dc_q : -12 
RX1:reg0x12b8=0x2c007d.
Q:reg0x12bc=0x54295c23.
 RX1 :reg0x1130=0x5c235429.
tia_cnt_i : 92 ,
tia_cnt_q : 1 ,
RX1 tia case :3,absolute value dc_i : -16 , value dc_q : -11 
RX1:reg0x12bc=0x2a007f.
Q:reg0x12c0=0x562b5c23.
 RX1 :reg0x1130=0x5c23562b.
tia_cnt_i : 92 ,
tia_cnt_q : 1 ,
RX1 tia case :4,absolute value dc_i : -16 , value dc_q : -11 
RX1:reg0x12c0=0x2c007f.
Q:reg0x12c4=0x542b5c23.
 RX1 :reg0x1130=0x5c23542b.
tia_cnt_i : 92 ,
tia_cnt_q : 1 ,
RX1 tia case :5,absolute value dc_i : -16 , value dc_q : -12 
RX1:reg0x12c4=0x2c007f.
Q:reg0x12c8=0x542b5c23.
 RX1 :reg0x1130=0x5c23542b.
tia_cnt_i : 92 ,
tia_cnt_q : 1 ,
RX1 tia case :6,absolute value dc_i : -16 , value dc_q : -12 
RX1:reg0x12c8=0x2c007f.
Q:reg0x12cc=0x522d5a27.
 RX1 :reg0x1130=0x5a27522d.
tia_cnt_i : 88 ,
tia_cnt_q : 82 ,
RX1 tia case :7,absolute value dc_i : -16 , value dc_q : -11 
RX1:reg0x12cc=0x27f027f.
Q:reg0x12d0=0x522d5827.
 RX1 :reg0x1130=0x5827522d.
tia_cnt_i : 88 ,
tia_cnt_q : 1 ,
RX1 tia case :8,absolute value dc_i : -16 , value dc_q : -11 
RX1:reg0x12d0=0x2e007f.
Q:reg0x12d4=0x522d5825.
 RX1 :reg0x1130=0x5825522d.
tia_cnt_i : 88 ,
tia_cnt_q : 1 ,
RX1 tia case :9,absolute value dc_i : -16 , value dc_q : -11 
RX1:reg0x12d4=0x2e007d.
Q:reg0x12d8=0x502d5a25.
 RX1 :reg0x1130=0x5a25502d.
tia_cnt_i : 90 ,
tia_cnt_q : 1 ,
RX1 tia case :10,absolute value dc_i : -16 , value dc_q : -11 
RX1:reg0x12d8=0x2e007f.
Q:reg0x12dc=0x522d5a27.
 RX1 :reg0x1130=0x5a27522d.
tia_cnt_i : 88 ,
tia_cnt_q : 82 ,
RX1 tia case :11,absolute value dc_i : -16 , value dc_q : -11 
RX1:reg0x12dc=0x27f027f.
Q:reg0x12e0=0x502d5827.
 RX1 :reg0x1130=0x5827502d.
tia_cnt_i : 88 ,
tia_cnt_q : 1 ,
RX1 tia case :12,absolute value dc_i : -16 , value dc_q : -12 
RX1:reg0x12e0=0x2e007f.
tia calibration end!
rx0 vga calibration begin
reg0x1120=0x3fc100.
vga case:1 pass.
RX0 vga case:1 ,absolute value dc_i_tmp : 4 , value dc_q_tmp : 15 ,I:reg0x1184=0x231d2b2d.   Q:reg0x11c0=0x1b1f2725.
vga case:2 pass.
RX0 vga case:2 ,absolute value dc_i_tmp : 4 , value dc_q_tmp : 14 ,I:reg0x1188=0x211b2b2d.   Q:reg0x11c4=0x1b1d2b23.
vga case:3 pass.
RX0 vga case:3 ,absolute value dc_i_tmp : 1 , value dc_q_tmp : 14 ,I:reg0x118c=0x231b2b2d.   Q:reg0x11c8=0x1d1f2b23.
vga case:4 pass.
RX0 vga case:4 ,absolute value dc_i_tmp : 2 , value dc_q_tmp : 14 ,I:reg0x1190=0x231b2b2d.   Q:reg0x11cc=0x1d1f2b23.
vga case:5 pass.
RX0 vga case:5 ,absolute value dc_i_tmp : 2 , value dc_q_tmp : 14 ,I:reg0x1194=0x231b2b2d.   Q:reg0x11d0=0x1d1f2b23.
vga case:6 pass.
RX0 vga case:6 ,absolute value dc_i_tmp : 2 , value dc_q_tmp : 14 ,I:reg0x1198=0x231b2b2d.   Q:reg0x11d4=0x1d1f2b23.
vga case:7 pass.
RX0 vga case:7 ,absolute value dc_i_tmp : 2 , value dc_q_tmp : 15 ,I:reg0x119c=0x231b2b2d.   Q:reg0x11d8=0x15212725.
vga case:8 pass.
RX0 vga case:8 ,absolute value dc_i_tmp : 2 , value dc_q_tmp : 15 ,I:reg0x11a0=0x211d292b.   Q:reg0x11dc=0x15212725.
vga case:9 pass.
RX0 vga case:9 ,absolute value dc_i_tmp : 2 , value dc_q_tmp : 15 ,I:reg0x11a4=0x23192b2b.   Q:reg0x11e0=0x17232725.
vga case:10 pass.
RX0 vga case:10 ,absolute value dc_i_tmp : 1 , value dc_q_tmp : 15 ,I:reg0x11a8=0x27192d2b.   Q:reg0x11e4=0x17232725.
vga case:11 pass.
RX0 vga case:11 ,absolute value dc_i_tmp : 1 , value dc_q_tmp : 15 ,I:reg0x11ac=0x211f2b29.   Q:reg0x11e8=0x13252725.
vga case:12 pass.
RX0 vga case:12 ,absolute value dc_i_tmp : 1 , value dc_q_tmp : 15 ,I:reg0x11b0=0x1f1d2b27.   Q:reg0x11ec=0x11232725.
vga case:13 pass.
RX0 vga case:13 ,absolute value dc_i_tmp : 0 , value dc_q_tmp : 15 ,I:reg0x11b4=0x1f212d27.   Q:reg0x11f0=0x211f2925.
vga case:14 pass.
RX0 vga case:14 ,absolute value dc_i_tmp : 1 , value dc_q_tmp : 15 ,I:reg0x11b8=0x271b3125.   Q:reg0x11f4=0xf252725.
rx1 vga calibration begin
rx1 vga case:1 pass.
RX1 vga case:1 ,absolute value dc_i_tmp : 15 , value dc_q_tmp : 13 ,I:reg0x11fc=0x27211923. Q:reg0x1238=0x3d3f2925.
rx1 vga case:2 pass.
RX1 vga case:2 ,absolute value dc_i_tmp : 15 , value dc_q_tmp : 15 ,I:reg0x1200=0x27211923. Q:reg0x123c=0x3d3f2729.
rx1 vga case:3 pass.
RX1 vga case:3 ,absolute value dc_i_tmp : 15 , value dc_q_tmp : 12 ,I:reg0x1204=0x27211923. Q:reg0x1240=0x3d3f2925.
rx1 vga case:4 pass.
RX1 vga case:4 ,absolute value dc_i_tmp : 15 , value dc_q_tmp : 12 ,I:reg0x1208=0x27211923. Q:reg0x1244=0x3d3f2925.
rx1 vga case:5 pass.
RX1 vga case:5 ,absolute value dc_i_tmp : 15 , value dc_q_tmp : 12 ,I:reg0x120c=0x27211923. Q:reg0x1248=0x3d3f2925.
rx1 vga case:6 pass.
RX1 vga case:6 ,absolute value dc_i_tmp : 15 , value dc_q_tmp : 13 ,I:reg0x1210=0x25211923. Q:reg0x124c=0x3d3f2925.
rx1 vga case:7 pass.
RX1 vga case:7 ,absolute value dc_i_tmp : 15 , value dc_q_tmp : 13 ,I:reg0x1214=0x23211923. Q:reg0x1250=0x3d3f2925.
rx1 vga case:8 pass.
RX1 vga case:8 ,absolute value dc_i_tmp : 15 , value dc_q_tmp : 13 ,I:reg0x1218=0x27211925. Q:reg0x1254=0x3f3f2923.
rx1 vga case:9 pass.
RX1 vga case:9 ,absolute value dc_i_tmp : 15 , value dc_q_tmp : 13 ,I:reg0x121c=0x251f1727. Q:reg0x1258=0x3b3f2b23.
rx1 vga case:10 pass.
RX1 vga case:10 ,absolute value dc_i_tmp : 15 , value dc_q_tmp : 13 ,I:reg0x1220=0x2321152b. Q:reg0x125c=0x3d3f2d21.
rx1 vga case:11 pass.
RX1 vga case:11 ,absolute value dc_i_tmp : 15 , value dc_q_tmp : 13 ,I:reg0x1224=0x2523112d. Q:reg0x1260=0x3f3d2f1d.
rx1 vga case:12 pass.
RX1 vga case:12 ,absolute value dc_i_tmp : 15 , value dc_q_tmp : 13 ,I:reg0x1228=0x23210d2f. Q:reg0x1264=0x3f3d311b.
rx1 vga case:13 pass.
RX1 vga case:13 ,absolute value dc_i_tmp : 15 , value dc_q_tmp : 13 ,I:reg0x122c=0x271f0933. Q:reg0x1268=0x3f3f3519.
rx1 vga case:14 pass.
RX1 vga case:14 ,absolute value dc_i_tmp : 15 , value dc_q_tmp : 14 ,I:reg0x1230=0x271f013d. Q:reg0x126c=0x353f3913.
reg0x1120=0x3c0100.
vga calibration end!
RX0: 0x103c : e0020000 ,0x1040 : 80001102 
RX1: 0x1054 : e0020000 ,0x1058 : 80001100 
THIS CASE J: 0 M: 8 
adc calibration begin
calibration begin
RX0 cali pre ,absolute value dc_i_tmp : 2 , value dc_q_tmp : 0 ,
reg0x1180=0x231d272d.
reg0x11bc=0x191d2725.
RX1 cali pre ,absolute value dc_i_tmp : 1 , value dc_q_tmp : 2 ,reg0x11f8=0x231f1d1f.
reg0x1234=0x3b3f2529.
rx0 tia cali begin:
####:reg0x1270=0x38473a47.
tia_cnt_i : 6 ,
tia_cnt_q : 7 ,
I:reg0x1150=0x231d272d.
Q:reg0x1154=0x191d2725.
RX0 tia case :0,absolute value dc_i : 0 , value dc_q : -1 
####:reg0x1270=0x344e344d.
####:reg0x1274=0x38473a47.
tia_cnt_i : 5 ,
tia_cnt_q : 2 ,
I:reg0x1150=0x231d272d.
Q:reg0x1154=0x191d2725.
RX0 tia case :1,absolute value dc_i : 0 , value dc_q : 0 
####:reg0x1274=0x3549354c.
####:reg0x1278=0x34493847.
tia_cnt_i : 11 ,
tia_cnt_q : 1 ,
I:reg0x1150=0x231d272d.
Q:reg0x1154=0x191d2725.
RX0 tia case :2,absolute value dc_i : 0 , value dc_q : -1 
####:reg0x1278=0x2d4a2d52.
####:reg0x127c=0x364b3847.
tia_cnt_i : 7 ,
tia_cnt_q : 3 ,
I:reg0x1150=0x231d272d.
Q:reg0x1154=0x191d2725.
RX0 tia case :3,absolute value dc_i : -1 , value dc_q : -1 
####:reg0x127c=0x314e314e.
####:reg0x1280=0x344b3449.
tia_cnt_i : 5 ,
tia_cnt_q : 6 ,
I:reg0x1150=0x231d272d.
Q:reg0x1154=0x191d2725.
RX0 tia case :4,absolute value dc_i : -1 , value dc_q : 0 
####:reg0x1280=0x2f512f4e.
####:reg0x1284=0x344b3449.
tia_cnt_i : 2 ,
tia_cnt_q : 0 ,
I:reg0x1150=0x231d272d.
Q:reg0x1154=0x191d2725.
RX0 tia case :5,absolute value dc_i : -1 , value dc_q : 0 
####:reg0x1284=0x344b324b.
####:reg0x1288=0x344b364b.
tia_cnt_i : 13 ,
tia_cnt_q : 5 ,
I:reg0x1150=0x231d272d.
Q:reg0x1154=0x191d2725.
RX0 tia case :6,absolute value dc_i : -1 , value dc_q : -1 
####:reg0x1288=0x29502958.
####:reg0x128c=0x344b3649.
tia_cnt_i : 8 ,
tia_cnt_q : 10 ,
I:reg0x1150=0x231d272d.
Q:reg0x1154=0x191d2725.
RX0 tia case :7,absolute value dc_i : -1 , value dc_q : -1 
####:reg0x128c=0x2e552e51.
####:reg0x1290=0x2e51324d.
tia_cnt_i : 7 ,
tia_cnt_q : 1 ,
I:reg0x1150=0x231d272d.
Q:reg0x1154=0x191d2725.
RX0 tia case :8,absolute value dc_i : -1 , value dc_q : 0 
####:reg0x1290=0x2b522b54.
####:reg0x1294=0x2e51344b.
tia_cnt_i : 0 ,
tia_cnt_q : 0 ,
I:reg0x1150=0x231d272d.
Q:reg0x1154=0x191d2725.
RX0 tia case :9,absolute value dc_i : -1 , value dc_q : -1 
####:reg0x1294=0x2e51344b.
####:reg0x1298=0x324d324d.
tia_cnt_i : 0 ,
tia_cnt_q : 0 ,
I:reg0x1150=0x231d272d.
Q:reg0x1154=0x191d2725.
RX0 tia case :10,absolute value dc_i : -1 , value dc_q : -1 
####:reg0x1298=0x324d324d.
####:reg0x129c=0x324d324d.
tia_cnt_i : 1 ,
tia_cnt_q : 4 ,
I:reg0x1150=0x231d272d.
Q:reg0x1154=0x191d2725.
RX0 tia case :11,absolute value dc_i : -1 , value dc_q : 0 
####:reg0x129c=0x3151314e.
####:reg0x12a0=0x344b344b.
tia_cnt_i : 2 ,
tia_cnt_q : 1 ,
I:reg0x1150=0x231d272d.
Q:reg0x1154=0x191d2725.
RX0 tia case :12,absolute value dc_i : -1 , value dc_q : 0 
####:reg0x12a0=0x324c324d.
rx1 tia cali begin:
Q:reg0x12b0=0x542b5e21.
 RX1 :reg0x1130=0x5e21542b.
tia_cnt_i : 3 ,
tia_cnt_q : 16 ,
RX1 tia case :0,absolute value dc_i : -1 , value dc_q : -1 
RX1:reg0x12b0=0x5f3b5f20.
Q:reg0x12b4=0x542b5e23.
 RX1 :reg0x1130=0x5e23542b.
tia_cnt_i : 1 ,
tia_cnt_q : 16 ,
RX1 tia case :1,absolute value dc_i : 0 , value dc_q : -1 
RX1:reg0x12b4=0x5f3b5f22.
Q:reg0x12b8=0x542b5e23.
 RX1 :reg0x1130=0x5e23542b.
tia_cnt_i : 2 ,
tia_cnt_q : 27 ,
RX1 tia case :2,absolute value dc_i : -1 , value dc_q : 0 
RX1:reg0x12b8=0x5e465e23.
Q:reg0x12bc=0x542b5a25.
 RX1 :reg0x1130=0x5a25542b.
tia_cnt_i : 0 ,
tia_cnt_q : 11 ,
RX1 tia case :3,absolute value dc_i : 0 , value dc_q : -1 
RX1:reg0x12bc=0x5a365a25.
Q:reg0x12c0=0x542b5c23.
 RX1 :reg0x1130=0x5c23542b.
tia_cnt_i : 1 ,
tia_cnt_q : 20 ,
RX1 tia case :4,absolute value dc_i : 0 , value dc_q : -1 
RX1:reg0x12c0=0x5b3f5b24.
Q:reg0x12c4=0x522d5c23.
 RX1 :reg0x1130=0x5c23522d.
tia_cnt_i : 1 ,
tia_cnt_q : 23 ,
RX1 tia case :5,absolute value dc_i : 0 , value dc_q : -1 
RX1:reg0x12c4=0x5b445b24.
Q:reg0x12c8=0x522d5c23.
 RX1 :reg0x1130=0x5c23522d.
tia_cnt_i : 0 ,
tia_cnt_q : 33 ,
RX1 tia case :6,absolute value dc_i : 0 , value dc_q : -1 
RX1:reg0x12c8=0x5c4e5c23.
Q:reg0x12cc=0x502d5c23.
 RX1 :reg0x1130=0x5c23502d.
tia_cnt_i : 3 ,
tia_cnt_q : 27 ,
RX1 tia case :7,absolute value dc_i : 0 , value dc_q : -1 
RX1:reg0x12cc=0x5d485d22.
Q:reg0x12d0=0x4e315825.
 RX1 :reg0x1130=0x58254e31.
tia_cnt_i : 1 ,
tia_cnt_q : 26 ,
RX1 tia case :8,absolute value dc_i : 0 , value dc_q : -1 
RX1:reg0x12d0=0x594b5924.
Q:reg0x12d4=0x522d5a25.
 RX1 :reg0x1130=0x5a25522d.
tia_cnt_i : 0 ,
tia_cnt_q : 26 ,
RX1 tia case :9,absolute value dc_i : 0 , value dc_q : -1 
RX1:reg0x12d4=0x5a475a25.
Q:reg0x12d8=0x522d5825.
 RX1 :reg0x1130=0x5825522d.
tia_cnt_i : 1 ,
tia_cnt_q : 26 ,
RX1 tia case :10,absolute value dc_i : 0 , value dc_q : -1 
RX1:reg0x12d8=0x57475726.
Q:reg0x12dc=0x522d5825.
 RX1 :reg0x1130=0x5825522d.
tia_cnt_i : 2 ,
tia_cnt_q : 16 ,
RX1 tia case :11,absolute value dc_i : 0 , value dc_q : -1 
RX1:reg0x12dc=0x583d5825.
Q:reg0x12e0=0x4e315a27.
 RX1 :reg0x1130=0x5a274e31.
tia_cnt_i : 0 ,
tia_cnt_q : 23 ,
RX1 tia case :12,absolute value dc_i : 0 , value dc_q : -1 
RX1:reg0x12e0=0x5a485a27.
tia calibration end!
rx0 vga calibration begin
reg0x1120=0x3fc100.
vga case:1 pass.
RX0 vga case:1 ,absolute value dc_i_tmp : 1 , value dc_q_tmp : 1 ,I:reg0x1184=0x231d292d.   Q:reg0x11c0=0x1b1d2925.
vga case:2 pass.
RX0 vga case:2 ,absolute value dc_i_tmp : 3 , value dc_q_tmp : 0 ,I:reg0x1188=0x211d292d.   Q:reg0x11c4=0x1b1d2925.
vga case:3 pass.
RX0 vga case:3 ,absolute value dc_i_tmp : 2 , value dc_q_tmp : 0 ,I:reg0x118c=0x211d292d.   Q:reg0x11c8=0x1b1d2925.
vga case:4 pass.
RX0 vga case:4 ,absolute value dc_i_tmp : 2 , value dc_q_tmp : 0 ,I:reg0x1190=0x211d292d.   Q:reg0x11cc=0x1b1d2925.
vga case:5 pass.
RX0 vga case:5 ,absolute value dc_i_tmp : 1 , value dc_q_tmp : 0 ,I:reg0x1194=0x211d292d.   Q:reg0x11d0=0x1b1d2925.
vga case:6 pass.
RX0 vga case:6 ,absolute value dc_i_tmp : 0 , value dc_q_tmp : 0 ,I:reg0x1198=0x211d292d.   Q:reg0x11d4=0x1d1d2925.
vga case:7 pass.
RX0 vga case:7 ,absolute value dc_i_tmp : 0 , value dc_q_tmp : 1 ,I:reg0x119c=0x27172b2d.   Q:reg0x11d8=0x1b1d2925.
vga case:8 pass.
RX0 vga case:8 ,absolute value dc_i_tmp : 3 , value dc_q_tmp : 0 ,I:reg0x11a0=0x25192b2d.   Q:reg0x11dc=0x1b1b2925.
vga case:9 pass.
RX0 vga case:9 ,absolute value dc_i_tmp : 2 , value dc_q_tmp : 0 ,I:reg0x11a4=0x251d292b.   Q:reg0x11e0=0x191f2723.
vga case:10 pass.
RX0 vga case:10 ,absolute value dc_i_tmp : 1 , value dc_q_tmp : 1 ,I:reg0x11a8=0x27192b2b.   Q:reg0x11e4=0x171f2723.
vga case:11 pass.
RX0 vga case:11 ,absolute value dc_i_tmp : 2 , value dc_q_tmp : 0 ,I:reg0x11ac=0x231d2929.   Q:reg0x11e8=0x11212723.
vga case:12 pass.
RX0 vga case:12 ,absolute value dc_i_tmp : 1 , value dc_q_tmp : 0 ,I:reg0x11b0=0x25172b29.   Q:reg0x11ec=0x11232723.
vga case:13 pass.
RX0 vga case:13 ,absolute value dc_i_tmp : 1 , value dc_q_tmp : 0 ,I:reg0x11b4=0x1d1f2b29.   Q:reg0x11f0=0x11272723.
vga case:14 pass.
RX0 vga case:14 ,absolute value dc_i_tmp : 0 , value dc_q_tmp : 1 ,I:reg0x11b8=0x23132f27.   Q:reg0x11f4=0x19272721.
rx1 vga calibration begin
rx1 vga case:1 pass.
RX1 vga case:1 ,absolute value dc_i_tmp : 0 , value dc_q_tmp : 1 ,I:reg0x11fc=0x251f1d1f. Q:reg0x1238=0x3b3f2529.
rx1 vga case:2 pass.
RX1 vga case:2 ,absolute value dc_i_tmp : 0 , value dc_q_tmp : 0 ,I:reg0x1200=0x251f1f21. Q:reg0x123c=0x3b3f2529.
rx1 vga case:3 pass.
RX1 vga case:3 ,absolute value dc_i_tmp : 0 , value dc_q_tmp : 2 ,I:reg0x1204=0x251f1f21. Q:reg0x1240=0x393f2529.
rx1 vga case:4 pass.
RX1 vga case:4 ,absolute value dc_i_tmp : 1 , value dc_q_tmp : 1 ,I:reg0x1208=0x251f1f21. Q:reg0x1244=0x3f3f2729.
rx1 vga case:5 pass.
RX1 vga case:5 ,absolute value dc_i_tmp : 1 , value dc_q_tmp : 0 ,I:reg0x120c=0x251f1f21. Q:reg0x1248=0x393f2529.
rx1 vga case:6 pass.
RX1 vga case:6 ,absolute value dc_i_tmp : 0 , value dc_q_tmp : 2 ,I:reg0x1210=0x251f1f21. Q:reg0x124c=0x373f2529.
rx1 vga case:7 pass.
RX1 vga case:7 ,absolute value dc_i_tmp : 0 , value dc_q_tmp : 0 ,I:reg0x1214=0x271f1f21. Q:reg0x1250=0x373f2529.
rx1 vga case:8 pass.
RX1 vga case:8 ,absolute value dc_i_tmp : 1 , value dc_q_tmp : 2 ,I:reg0x1218=0x25211d21. Q:reg0x1254=0x353f2529.
rx1 vga case:9 pass.
RX1 vga case:9 ,absolute value dc_i_tmp : 0 , value dc_q_tmp : 1 ,I:reg0x121c=0x25211b21. Q:reg0x1258=0x3f3f2729.
rx1 vga case:10 pass.
RX1 vga case:10 ,absolute value dc_i_tmp : 1 , value dc_q_tmp : 0 ,I:reg0x1220=0x27211b23. Q:reg0x125c=0x3f3f2729.
rx1 vga case:11 pass.
RX1 vga case:11 ,absolute value dc_i_tmp : 0 , value dc_q_tmp : 1 ,I:reg0x1224=0x25231723. Q:reg0x1260=0x3b3f2527.
rx1 vga case:12 pass.
RX1 vga case:12 ,absolute value dc_i_tmp : 1 , value dc_q_tmp : 0 ,I:reg0x1228=0x27211927. Q:reg0x1264=0x393f2527.
rx1 vga case:13 pass.
RX1 vga case:13 ,absolute value dc_i_tmp : 1 , value dc_q_tmp : 1 ,I:reg0x122c=0x271f1729. Q:reg0x1268=0x353f2527.
rx1 vga case:14 pass.
RX1 vga case:14 ,absolute value dc_i_tmp : 2 , value dc_q_tmp : 1 ,I:reg0x1230=0x271d132d. Q:reg0x126c=0x3b3f2727.
reg0x1120=0x3c0100.
vga calibration end!
RX0: 0x103c : e0024000 ,0x1040 : 90001102 
RX1: 0x1054 : e0024000 ,0x1058 : 90001100 
THIS CASE J: 0 M: 9 
adc calibration begin
calibration begin
RX0 cali pre ,absolute value dc_i_tmp : 1 , value dc_q_tmp : 0 ,
reg0x1180=0x231d292d.
reg0x11bc=0x1b1f2725.
RX1 cali pre ,absolute value dc_i_tmp : 1 , value dc_q_tmp : 1 ,reg0x11f8=0x27211d1f.
reg0x1234=0x3b3f2529.
rx0 tia cali begin:
####:reg0x1270=0x36493a47.
tia_cnt_i : 3 ,
tia_cnt_q : 0 ,
I:reg0x1150=0x231d292d.
Q:reg0x1154=0x1b1f2725.
RX0 tia case :0,absolute value dc_i : -1 , value dc_q : 0 
####:reg0x1270=0x3649374a.
####:reg0x1274=0x38473845.
tia_cnt_i : 9 ,
tia_cnt_q : 0 ,
I:reg0x1150=0x231d292d.
Q:reg0x1154=0x1b1f2725.
RX0 tia case :1,absolute value dc_i : -1 , value dc_q : 0 
####:reg0x1274=0x38472f4e.
####:reg0x1278=0x38473847.
tia_cnt_i : 17 ,
tia_cnt_q : 0 ,
I:reg0x1150=0x231d292d.
Q:reg0x1154=0x1b1f2725.
RX0 tia case :2,absolute value dc_i : -1 , value dc_q : -1 
####:reg0x1278=0x38472758.
####:reg0x127c=0x36493847.
tia_cnt_i : 28 ,
tia_cnt_q : 0 ,
I:reg0x1150=0x231d292d.
Q:reg0x1154=0x1b1f2725.
RX0 tia case :3,absolute value dc_i : -1 , value dc_q : 0 
####:reg0x127c=0x36491c63.
####:reg0x1280=0x344b3649.
tia_cnt_i : 39 ,
tia_cnt_q : 0 ,
I:reg0x1150=0x231d292d.
Q:reg0x1154=0x1b1f2725.
RX0 tia case :4,absolute value dc_i : -1 , value dc_q : -1 
####:reg0x1280=0x344b0f70.
####:reg0x1284=0x3449364b.
tia_cnt_i : 43 ,
tia_cnt_q : 0 ,
I:reg0x1150=0x231d292d.
Q:reg0x1154=0x1b1f2725.
RX0 tia case :5,absolute value dc_i : -1 , value dc_q : -1 
####:reg0x1284=0x34490b76.
####:reg0x1288=0x364b3449.
tia_cnt_i : 43 ,
tia_cnt_q : 0 ,
I:reg0x1150=0x231d292d.
Q:reg0x1154=0x1b1f2725.
RX0 tia case :6,absolute value dc_i : -1 , value dc_q : -1 
####:reg0x1288=0x364b0974.
####:reg0x128c=0x344b3649.
tia_cnt_i : 46 ,
tia_cnt_q : 0 ,
I:reg0x1150=0x231d292d.
Q:reg0x1154=0x1b1f2725.
RX0 tia case :7,absolute value dc_i : -1 , value dc_q : 0 
####:reg0x128c=0x344b0877.
####:reg0x1290=0x2e51344b.
tia_cnt_i : 41 ,
tia_cnt_q : 0 ,
I:reg0x1150=0x231d292d.
Q:reg0x1154=0x1b1f2725.
RX0 tia case :8,absolute value dc_i : -1 , value dc_q : 0 
####:reg0x1290=0x2e510b74.
####:reg0x1294=0x344b344b.
tia_cnt_i : 38 ,
tia_cnt_q : 0 ,
I:reg0x1150=0x231d292d.
Q:reg0x1154=0x1b1f2725.
RX0 tia case :9,absolute value dc_i : -1 , value dc_q : -1 
####:reg0x1294=0x344b0e71.
####:reg0x1298=0x324d364b.
tia_cnt_i : 42 ,
tia_cnt_q : 0 ,
I:reg0x1150=0x231d292d.
Q:reg0x1154=0x1b1f2725.
RX0 tia case :10,absolute value dc_i : -1 , value dc_q : -1 
####:reg0x1298=0x324d0c75.
####:reg0x129c=0x304d344b.
tia_cnt_i : 37 ,
tia_cnt_q : 0 ,
I:reg0x1150=0x231d292d.
Q:reg0x1154=0x1b1f2725.
RX0 tia case :11,absolute value dc_i : -1 , value dc_q : 0 
####:reg0x129c=0x304d0f70.
####:reg0x12a0=0x324d344b.
tia_cnt_i : 44 ,
tia_cnt_q : 0 ,
I:reg0x1150=0x231d292d.
Q:reg0x1154=0x1b1f2725.
RX0 tia case :12,absolute value dc_i : -1 , value dc_q : -1 
####:reg0x12a0=0x324d0877.
rx1 tia cali begin:
Q:reg0x12b0=0x542b5e23.
 RX1 :reg0x1130=0x5e23542b.
tia_cnt_i : 33 ,
tia_cnt_q : 49 ,
RX1 tia case :0,absolute value dc_i : 3 , value dc_q : -1 
RX1:reg0x12b0=0x7f5c7f02.
Q:reg0x12b4=0x522d5c23.
 RX1 :reg0x1130=0x5c23522d.
tia_cnt_i : 35 ,
tia_cnt_q : 47 ,
RX1 tia case :1,absolute value dc_i : 3 , value dc_q : -1 
RX1:reg0x12b4=0x7f5c7f00.
Q:reg0x12b8=0x522d5c23.
 RX1 :reg0x1130=0x5c23522d.
tia_cnt_i : 35 ,
tia_cnt_q : 50 ,
RX1 tia case :2,absolute value dc_i : 2 , value dc_q : -1 
RX1:reg0x12b8=0x7f5f7f00.
Q:reg0x12bc=0x542b5c23.
 RX1 :reg0x1130=0x5c23542b.
tia_cnt_i : 35 ,
tia_cnt_q : 54 ,
RX1 tia case :3,absolute value dc_i : 3 , value dc_q : -1 
RX1:reg0x12bc=0x7f617f00.
Q:reg0x12c0=0x542b5a25.
 RX1 :reg0x1130=0x5a25542b.
tia_cnt_i : 37 ,
tia_cnt_q : 57 ,
RX1 tia case :4,absolute value dc_i : 2 , value dc_q : -1 
RX1:reg0x12c0=0x7f647f00.
Q:reg0x12c4=0x502d5c23.
 RX1 :reg0x1130=0x5c23502d.
tia_cnt_i : 35 ,
tia_cnt_q : 54 ,
RX1 tia case :5,absolute value dc_i : 3 , value dc_q : -1 
RX1:reg0x12c4=0x7f637f00.
Q:reg0x12c8=0x522d5a25.
 RX1 :reg0x1130=0x5a25522d.
tia_cnt_i : 37 ,
tia_cnt_q : 63 ,
RX1 tia case :6,absolute value dc_i : 3 , value dc_q : -1 
RX1:reg0x12c8=0x7f6c7f00.
Q:reg0x12cc=0x522d5a25.
 RX1 :reg0x1130=0x5a25522d.
tia_cnt_i : 37 ,
tia_cnt_q : 63 ,
RX1 tia case :7,absolute value dc_i : 2 , value dc_q : -1 
RX1:reg0x12cc=0x7f6c7f00.
Q:reg0x12d0=0x522f5a27.
 RX1 :reg0x1130=0x5a27522f.
tia_cnt_i : 37 ,
tia_cnt_q : 54 ,
RX1 tia case :8,absolute value dc_i : 2 , value dc_q : -1 
RX1:reg0x12d0=0x7f657f02.
Q:reg0x12d4=0x522f5a25.
 RX1 :reg0x1130=0x5a25522f.
tia_cnt_i : 37 ,
tia_cnt_q : 52 ,
RX1 tia case :9,absolute value dc_i : 3 , value dc_q : -1 
RX1:reg0x12d4=0x7f637f00.
Q:reg0x12d8=0x522d5825.
 RX1 :reg0x1130=0x5825522d.
tia_cnt_i : 37 ,
tia_cnt_q : 54 ,
RX1 tia case :10,absolute value dc_i : 3 , value dc_q : -1 
RX1:reg0x12d8=0x7d637d00.
Q:reg0x12dc=0x522d5825.
 RX1 :reg0x1130=0x5825522d.
tia_cnt_i : 37 ,
tia_cnt_q : 55 ,
RX1 tia case :11,absolute value dc_i : 3 , value dc_q : -1 
RX1:reg0x12dc=0x7d647d00.
Q:reg0x12e0=0x522d5825.
 RX1 :reg0x1130=0x5825522d.
tia_cnt_i : 37 ,
tia_cnt_q : 53 ,
RX1 tia case :12,absolute value dc_i : 3 , value dc_q : -1 
RX1:reg0x12e0=0x7d627d00.
tia calibration end!
rx0 vga calibration begin
reg0x1120=0x3fc100.
vga case:1 pass.
RX0 vga case:1 ,absolute value dc_i_tmp : 1 , value dc_q_tmp : 0 ,I:reg0x1184=0x211b292d.   Q:reg0x11c0=0x1b1f2725.
vga case:2 pass.
RX0 vga case:2 ,absolute value dc_i_tmp : 1 , value dc_q_tmp : 1 ,I:reg0x1188=0x211b292d.   Q:reg0x11c4=0x1b1d2925.
vga case:3 pass.
RX0 vga case:3 ,absolute value dc_i_tmp : 1 , value dc_q_tmp : 0 ,I:reg0x118c=0x231d292d.   Q:reg0x11c8=0x191f2725.
vga case:4 pass.
RX0 vga case:4 ,absolute value dc_i_tmp : 1 , value dc_q_tmp : 1 ,I:reg0x1190=0x231d292d.   Q:reg0x11cc=0x171f2725.
vga case:5 pass.
RX0 vga case:5 ,absolute value dc_i_tmp : 1 , value dc_q_tmp : 0 ,I:reg0x1194=0x211b292d.   Q:reg0x11d0=0x171f2725.
vga case:6 pass.
RX0 vga case:6 ,absolute value dc_i_tmp : 0 , value dc_q_tmp : 0 ,I:reg0x1198=0x231b292d.   Q:reg0x11d4=0x19212725.
vga case:7 pass.
RX0 vga case:7 ,absolute value dc_i_tmp : 1 , value dc_q_tmp : 0 ,I:reg0x119c=0x211b292d.   Q:reg0x11d8=0x19232725.
vga case:8 pass.
RX0 vga case:8 ,absolute value dc_i_tmp : 1 , value dc_q_tmp : 1 ,I:reg0x11a0=0x211d292d.   Q:reg0x11dc=0x13212725.
vga case:9 pass.
RX0 vga case:9 ,absolute value dc_i_tmp : 0 , value dc_q_tmp : 1 ,I:reg0x11a4=0x211f292d.   Q:reg0x11e0=0x15232725.
vga case:10 pass.
RX0 vga case:10 ,absolute value dc_i_tmp : 1 , value dc_q_tmp : 0 ,I:reg0x11a8=0x1d1d272b.   Q:reg0x11e4=0x1d1d2723.
vga case:11 pass.
RX0 vga case:11 ,absolute value dc_i_tmp : 0 , value dc_q_tmp : 1 ,I:reg0x11ac=0x231b292b.   Q:reg0x11e8=0x191d2723.
vga case:12 pass.
RX0 vga case:12 ,absolute value dc_i_tmp : 1 , value dc_q_tmp : 1 ,I:reg0x11b0=0x211f292b.   Q:reg0x11ec=0x191f2925.
vga case:13 pass.
RX0 vga case:13 ,absolute value dc_i_tmp : 1 , value dc_q_tmp : 1 ,I:reg0x11b4=0x231b2b2b.   Q:reg0x11f0=0x19212925.
vga case:14 pass.
RX0 vga case:14 ,absolute value dc_i_tmp : 0 , value dc_q_tmp : 1 ,I:reg0x11b8=0x251b2d2b.   Q:reg0x11f4=0x1f212923.
rx1 vga calibration begin
rx1 vga case:1 pass.
RX1 vga case:1 ,absolute value dc_i_tmp : 1 , value dc_q_tmp : 1 ,I:reg0x11fc=0x27211923. Q:reg0x1238=0x3d3f2729.
rx1 vga case:2 pass.
RX1 vga case:2 ,absolute value dc_i_tmp : 1 , value dc_q_tmp : 2 ,I:reg0x1200=0x27211923. Q:reg0x123c=0x3d3f2729.
rx1 vga case:3 pass.
RX1 vga case:3 ,absolute value dc_i_tmp : 0 , value dc_q_tmp : 2 ,I:reg0x1204=0x27211923. Q:reg0x1240=0x3d3f2729.
rx1 vga case:4 pass.
RX1 vga case:4 ,absolute value dc_i_tmp : 2 , value dc_q_tmp : 1 ,I:reg0x1208=0x25211923. Q:reg0x1244=0x3f3f2729.
rx1 vga case:5 pass.
RX1 vga case:5 ,absolute value dc_i_tmp : 1 , value dc_q_tmp : 1 ,I:reg0x120c=0x25211923. Q:reg0x1248=0x3f3f2729.
rx1 vga case:6 pass.
RX1 vga case:6 ,absolute value dc_i_tmp : 1 , value dc_q_tmp : 2 ,I:reg0x1210=0x25211923. Q:reg0x124c=0x373f2529.
rx1 vga case:7 pass.
RX1 vga case:7 ,absolute value dc_i_tmp : 1 , value dc_q_tmp : 1 ,I:reg0x1214=0x23211923. Q:reg0x1250=0x353f2529.
rx1 vga case:8 pass.
RX1 vga case:8 ,absolute value dc_i_tmp : 1 , value dc_q_tmp : 1 ,I:reg0x1218=0x25211925. Q:reg0x1254=0x3f3d2729.
rx1 vga case:9 pass.
RX1 vga case:9 ,absolute value dc_i_tmp : 1 , value dc_q_tmp : 1 ,I:reg0x121c=0x27211727. Q:reg0x1258=0x3f3f2729.
rx1 vga case:10 pass.
RX1 vga case:10 ,absolute value dc_i_tmp : 1 , value dc_q_tmp : 1 ,I:reg0x1220=0x271d1529. Q:reg0x125c=0x3f3f2527.
rx1 vga case:11 pass.
RX1 vga case:11 ,absolute value dc_i_tmp : 1 , value dc_q_tmp : 0 ,I:reg0x1224=0x291f132d. Q:reg0x1260=0x3d3f2527.
rx1 vga case:12 pass.
RX1 vga case:12 ,absolute value dc_i_tmp : 0 , value dc_q_tmp : 1 ,I:reg0x1228=0x291d0f2f. Q:reg0x1264=0x393f2527.
rx1 vga case:13 pass.
RX1 vga case:13 ,absolute value dc_i_tmp : 1 , value dc_q_tmp : 0 ,I:reg0x122c=0x23210933. Q:reg0x1268=0x3f3d2727.
rx1 vga case:14 pass.
RX1 vga case:14 ,absolute value dc_i_tmp : 1 , value dc_q_tmp : 1 ,I:reg0x1230=0x2523013d. Q:reg0x126c=0x373f2727.
reg0x1120=0x3c0100.
vga calibration end!
RX0: 0x103c : e0028000 ,0x1040 : a0001102 
RX1: 0x1054 : e0028000 ,0x1058 : a0001100 
THIS CASE J: 0 M:10 
adc calibration begin
calibration begin
RX0 cali pre ,absolute value dc_i_tmp : 1 , value dc_q_tmp : 0 ,
reg0x1180=0x231d272d.
reg0x11bc=0x1b1f2725.
RX1 cali pre ,absolute value dc_i_tmp : 1 , value dc_q_tmp : 2 ,reg0x11f8=0x27211f21.
reg0x1234=0x3b3f2529.
rx0 tia cali begin:
####:reg0x1270=0x38473a47.
tia_cnt_i : 0 ,
tia_cnt_q : 0 ,
I:reg0x1150=0x231d272d.
Q:reg0x1154=0x1b1f2725.
RX0 tia case :0,absolute value dc_i : 0 , value dc_q : 0 
####:reg0x1270=0x38473a47.
####:reg0x1274=0x34493845.
tia_cnt_i : 0 ,
tia_cnt_q : 0 ,
I:reg0x1150=0x231d272d.
Q:reg0x1154=0x1b1f2725.
RX0 tia case :1,absolute value dc_i : 0 , value dc_q : 0 
####:reg0x1274=0x34493845.
####:reg0x1278=0x36493847.
tia_cnt_i : 0 ,
tia_cnt_q : 0 ,
I:reg0x1150=0x231d272d.
Q:reg0x1154=0x1b1f2725.
RX0 tia case :2,absolute value dc_i : -1 , value dc_q : 0 
####:reg0x1278=0x36493847.
####:reg0x127c=0x36493649.
tia_cnt_i : 0 ,
tia_cnt_q : 0 ,
I:reg0x1150=0x231d272d.
Q:reg0x1154=0x1b1f2725.
RX0 tia case :3,absolute value dc_i : -1 , value dc_q : 0 
####:reg0x127c=0x36493649.
####:reg0x1280=0x34493449.
tia_cnt_i : 0 ,
tia_cnt_q : 0 ,
I:reg0x1150=0x231d272d.
Q:reg0x1154=0x1b1f2725.
RX0 tia case :4,absolute value dc_i : -1 , value dc_q : 0 
####:reg0x1280=0x34493449.
####:reg0x1284=0x344b364b.
tia_cnt_i : 0 ,
tia_cnt_q : 0 ,
I:reg0x1150=0x231d272d.
Q:reg0x1154=0x1b1f2725.
RX0 tia case :5,absolute value dc_i : -1 , value dc_q : 0 
####:reg0x1284=0x344b364b.
####:reg0x1288=0x364b364b.
tia_cnt_i : 0 ,
tia_cnt_q : 0 ,
I:reg0x1150=0x231d272d.
Q:reg0x1154=0x1b1f2725.
RX0 tia case :6,absolute value dc_i : -1 , value dc_q : 0 
####:reg0x1288=0x364b364b.
####:reg0x128c=0x344b3449.
tia_cnt_i : 0 ,
tia_cnt_q : 0 ,
I:reg0x1150=0x231d272d.
Q:reg0x1154=0x1b1f2725.
RX0 tia case :7,absolute value dc_i : -1 , value dc_q : 0 
####:reg0x128c=0x344b3449.
####:reg0x1290=0x2e51324d.
tia_cnt_i : 0 ,
tia_cnt_q : 0 ,
I:reg0x1150=0x231d272d.
Q:reg0x1154=0x1b1f2725.
RX0 tia case :8,absolute value dc_i : -1 , value dc_q : 0 
####:reg0x1290=0x2e51324d.
####:reg0x1294=0x324d344b.
tia_cnt_i : 0 ,
tia_cnt_q : 0 ,
I:reg0x1150=0x231d272d.
Q:reg0x1154=0x1b1f2725.
RX0 tia case :9,absolute value dc_i : -1 , value dc_q : 0 
####:reg0x1294=0x324d344b.
####:reg0x1298=0x324d344b.
tia_cnt_i : 0 ,
tia_cnt_q : 0 ,
I:reg0x1150=0x231d272d.
Q:reg0x1154=0x1b1f2725.
RX0 tia case :10,absolute value dc_i : 0 , value dc_q : 0 
####:reg0x1298=0x324d344b.
####:reg0x129c=0x304d324d.
tia_cnt_i : 0 ,
tia_cnt_q : 0 ,
I:reg0x1150=0x231d272d.
Q:reg0x1154=0x1b1f2725.
RX0 tia case :11,absolute value dc_i : 0 , value dc_q : 0 
####:reg0x129c=0x304d324d.
####:reg0x12a0=0x324d344b.
tia_cnt_i : 0 ,
tia_cnt_q : 0 ,
I:reg0x1150=0x231d272d.
Q:reg0x1154=0x1b1f2725.
RX0 tia case :12,absolute value dc_i : 0 , value dc_q : 0 
####:reg0x12a0=0x324d344b.
rx1 tia cali begin:
Q:reg0x12b0=0x522d5a25.
 RX1 :reg0x1130=0x5a25522d.
tia_cnt_i : 37 ,
tia_cnt_q : 0 ,
RX1 tia case :0,absolute value dc_i : 3 , value dc_q : -1 
RX1:reg0x12b0=0x522d7f00.
Q:reg0x12b4=0x542b5c23.
 RX1 :reg0x1130=0x5c23542b.
tia_cnt_i : 35 ,
tia_cnt_q : 51 ,
RX1 tia case :1,absolute value dc_i : 3 , value dc_q : -1 
RX1:reg0x12b4=0x7f5e7f00.
Q:reg0x12b8=0x522d5a25.
 RX1 :reg0x1130=0x5a25522d.
tia_cnt_i : 37 ,
tia_cnt_q : 52 ,
RX1 tia case :2,absolute value dc_i : 3 , value dc_q : -1 
RX1:reg0x12b8=0x7f617f00.
Q:reg0x12bc=0x542b5a25.
 RX1 :reg0x1130=0x5a25542b.
tia_cnt_i : 37 ,
tia_cnt_q : 52 ,
RX1 tia case :3,absolute value dc_i : 3 , value dc_q : -1 
RX1:reg0x12bc=0x7f5f7f00.
Q:reg0x12c0=0x542b5a25.
 RX1 :reg0x1130=0x5a25542b.
tia_cnt_i : 37 ,
tia_cnt_q : 60 ,
RX1 tia case :4,absolute value dc_i : 3 , value dc_q : -1 
RX1:reg0x12c0=0x7f677f00.
Q:reg0x12c4=0x522d5c23.
 RX1 :reg0x1130=0x5c23522d.
tia_cnt_i : 35 ,
tia_cnt_q : 51 ,
RX1 tia case :5,absolute value dc_i : 3 , value dc_q : -1 
RX1:reg0x12c4=0x7f607f00.
Q:reg0x12c8=0x522d5a25.
 RX1 :reg0x1130=0x5a25522d.
tia_cnt_i : 37 ,
tia_cnt_q : 58 ,
RX1 tia case :6,absolute value dc_i : 3 , value dc_q : -1 
RX1:reg0x12c8=0x7f677f00.
Q:reg0x12cc=0x522d5a25.
 RX1 :reg0x1130=0x5a25522d.
tia_cnt_i : 37 ,
tia_cnt_q : 63 ,
RX1 tia case :7,absolute value dc_i : 3 , value dc_q : -1 
RX1:reg0x12cc=0x7f6c7f00.
Q:reg0x12d0=0x522d5827.
 RX1 :reg0x1130=0x5827522d.
tia_cnt_i : 39 ,
tia_cnt_q : 70 ,
RX1 tia case :8,absolute value dc_i : 3 , value dc_q : -1 
RX1:reg0x12d0=0x7f737f00.
Q:reg0x12d4=0x522d5a27.
 RX1 :reg0x1130=0x5a27522d.
tia_cnt_i : 37 ,
tia_cnt_q : 59 ,
RX1 tia case :9,absolute value dc_i : 3 , value dc_q : -1 
RX1:reg0x12d4=0x7f687f02.
Q:reg0x12d8=0x522d5a25.
 RX1 :reg0x1130=0x5a25522d.
tia_cnt_i : 37 ,
tia_cnt_q : 64 ,
RX1 tia case :10,absolute value dc_i : 3 , value dc_q : -1 
RX1:reg0x12d8=0x7f6d7f00.
Q:reg0x12dc=0x4e315a25.
 RX1 :reg0x1130=0x5a254e31.
tia_cnt_i : 37 ,
tia_cnt_q : 60 ,
RX1 tia case :11,absolute value dc_i : 3 , value dc_q : -1 
RX1:reg0x12dc=0x7f6d7f00.
Q:reg0x12e0=0x4e315825.
 RX1 :reg0x1130=0x58254e31.
tia_cnt_i : 37 ,
tia_cnt_q : 53 ,
RX1 tia case :12,absolute value dc_i : 3 , value dc_q : -1 
RX1:reg0x12e0=0x7d667d00.
tia calibration end!
rx0 vga calibration begin
reg0x1120=0x3fc100.
vga case:1 pass.
RX0 vga case:1 ,absolute value dc_i_tmp : 1 , value dc_q_tmp : 0 ,I:reg0x1184=0x231d272d.   Q:reg0x11c0=0x1b1f2725.
vga case:2 pass.
RX0 vga case:2 ,absolute value dc_i_tmp : 1 , value dc_q_tmp : 0 ,I:reg0x1188=0x231d272d.   Q:reg0x11c4=0x1b1f2725.
vga case:3 pass.
RX0 vga case:3 ,absolute value dc_i_tmp : 1 , value dc_q_tmp : 1 ,I:reg0x118c=0x1f1b272d.   Q:reg0x11c8=0x191f2725.
vga case:4 pass.
RX0 vga case:4 ,absolute value dc_i_tmp : 1 , value dc_q_tmp : 0 ,I:reg0x1190=0x211d272d.   Q:reg0x11cc=0x191f2725.
vga case:5 pass.
RX0 vga case:5 ,absolute value dc_i_tmp : 1 , value dc_q_tmp : 1 ,I:reg0x1194=0x211d272d.   Q:reg0x11d0=0x171f2725.
vga case:6 pass.
RX0 vga case:6 ,absolute value dc_i_tmp : 1 , value dc_q_tmp : 0 ,I:reg0x1198=0x211d272d.   Q:reg0x11d4=0x19212725.
vga case:7 pass.
RX0 vga case:7 ,absolute value dc_i_tmp : 1 , value dc_q_tmp : 1 ,I:reg0x119c=0x211d272d.   Q:reg0x11d8=0x17212725.
vga case:8 pass.
RX0 vga case:8 ,absolute value dc_i_tmp : 0 , value dc_q_tmp : 0 ,I:reg0x11a0=0x1f1d272d.   Q:reg0x11dc=0x17212725.
vga case:9 pass.
RX0 vga case:9 ,absolute value dc_i_tmp : 0 , value dc_q_tmp : 1 ,I:reg0x11a4=0x211f272d.   Q:reg0x11e0=0x17232725.
vga case:10 pass.
RX0 vga case:10 ,absolute value dc_i_tmp : 1 , value dc_q_tmp : 0 ,I:reg0x11a8=0x2319292d.   Q:reg0x11e4=0x15212725.
vga case:11 pass.
RX0 vga case:11 ,absolute value dc_i_tmp : 0 , value dc_q_tmp : 0 ,I:reg0x11ac=0x231b292d.   Q:reg0x11e8=0x1b1b2925.
vga case:12 pass.
RX0 vga case:12 ,absolute value dc_i_tmp : 0 , value dc_q_tmp : 0 ,I:reg0x11b0=0x231d292d.   Q:reg0x11ec=0x13232725.
vga case:13 pass.
RX0 vga case:13 ,absolute value dc_i_tmp : 0 , value dc_q_tmp : 0 ,I:reg0x11b4=0x1f1d292d.   Q:reg0x11f0=0x13232725.
vga case:14 pass.
RX0 vga case:14 ,absolute value dc_i_tmp : 1 , value dc_q_tmp : 1 ,I:reg0x11b8=0x1d23292d.   Q:reg0x11f4=0x1d212925.
rx1 vga calibration begin
rx1 vga case:1 pass.
RX1 vga case:1 ,absolute value dc_i_tmp : 1 , value dc_q_tmp : 1 ,I:reg0x11fc=0x27211923. Q:reg0x1238=0x3b3f2529.
rx1 vga case:2 pass.
RX1 vga case:2 ,absolute value dc_i_tmp : 1 , value dc_q_tmp : 2 ,I:reg0x1200=0x27211923. Q:reg0x123c=0x3d3f2729.
rx1 vga case:3 pass.
RX1 vga case:3 ,absolute value dc_i_tmp : 1 , value dc_q_tmp : 1 ,I:reg0x1204=0x27211923. Q:reg0x1240=0x3f3f2729.
rx1 vga case:4 pass.
RX1 vga case:4 ,absolute value dc_i_tmp : 1 , value dc_q_tmp : 1 ,I:reg0x1208=0x27211923. Q:reg0x1244=0x3f3f2729.
rx1 vga case:5 pass.
RX1 vga case:5 ,absolute value dc_i_tmp : 1 , value dc_q_tmp : 1 ,I:reg0x120c=0x25211923. Q:reg0x1248=0x3f3f2729.
rx1 vga case:6 pass.
RX1 vga case:6 ,absolute value dc_i_tmp : 2 , value dc_q_tmp : 1 ,I:reg0x1210=0x25211923. Q:reg0x124c=0x3f3d2729.
rx1 vga case:7 pass.
RX1 vga case:7 ,absolute value dc_i_tmp : 1 , value dc_q_tmp : 1 ,I:reg0x1214=0x25211923. Q:reg0x1250=0x353f2529.
rx1 vga case:8 pass.
RX1 vga case:8 ,absolute value dc_i_tmp : 1 , value dc_q_tmp : 1 ,I:reg0x1218=0x27211925. Q:reg0x1254=0x3f3d2729.
rx1 vga case:9 pass.
RX1 vga case:9 ,absolute value dc_i_tmp : 1 , value dc_q_tmp : 1 ,I:reg0x121c=0x251f1727. Q:reg0x1258=0x3f3f2729.
rx1 vga case:10 pass.
RX1 vga case:10 ,absolute value dc_i_tmp : 1 , value dc_q_tmp : 1 ,I:reg0x1220=0x2521152b. Q:reg0x125c=0x3d3f2729.
rx1 vga case:11 pass.
RX1 vga case:11 ,absolute value dc_i_tmp : 1 , value dc_q_tmp : 1 ,I:reg0x1224=0x2523112d. Q:reg0x1260=0x3b3f2527.
rx1 vga case:12 pass.
RX1 vga case:12 ,absolute value dc_i_tmp : 1 , value dc_q_tmp : 1 ,I:reg0x1228=0x25230d2f. Q:reg0x1264=0x373f2527.
rx1 vga case:13 pass.
RX1 vga case:13 ,absolute value dc_i_tmp : 1 , value dc_q_tmp : 1 ,I:reg0x122c=0x271f0933. Q:reg0x1268=0x3f3d2727.
rx1 vga case:14 pass.
RX1 vga case:14 ,absolute value dc_i_tmp : 1 , value dc_q_tmp : 0 ,I:reg0x1230=0x271f013d. Q:reg0x126c=0x3b3f2727.
reg0x1120=0x3c0100.
vga calibration end!
RX0: 0x103c : e002c000 ,0x1040 : b0001102 
