
read pll state:0x77 
pll state:0x0000007F! 
RX0: 0x103c : e0000000 ,0x1040 :        0 
RX1: 0x1054 : e0000000 ,0x1058 : 0 
THIS CASE J: 0 M: 0 
adc calibration begin
calibration begin
RX0 cali pre ,absolute value dc_i_tmp : 0 , value dc_q_tmp : 0 ,
reg0x1180=0xd0f211b.
reg0x11bc=0x393d2327.
RX1 cali pre ,absolute value dc_i_tmp : 1 , value dc_q_tmp : 1 ,reg0x11f8=0x3b372525.
reg0x1234=0x2f25191d.
rx0 tia cali begin:
####:reg0x1270=0x5629601f.
tia_cnt_i : 2 ,
tia_cnt_q : 0 ,
I:reg0x1150=0xd0f211b.
Q:reg0x1154=0x393d2327.
RX0 tia case :0,absolute value dc_i : -1 , value dc_q : -1 
####:reg0x1270=0x56295e21.
####:reg0x1274=0x542b5e23.
tia_cnt_i : 0 ,
tia_cnt_q : 0 ,
I:reg0x1150=0xd0f211b.
Q:reg0x1154=0x393d2327.
RX0 tia case :1,absolute value dc_i : 0 , value dc_q : 0 
####:reg0x1274=0x542b5e23.
####:reg0x1278=0x522d5a27.
tia_cnt_i : 0 ,
tia_cnt_q : 0 ,
I:reg0x1150=0xd0f211b.
Q:reg0x1154=0x393d2327.
RX0 tia case :2,absolute value dc_i : 0 , value dc_q : 1 
####:reg0x1278=0x522d5a27.
####:reg0x127c=0x4e31562b.
tia_cnt_i : 0 ,
tia_cnt_q : 0 ,
I:reg0x1150=0xd0f211b.
Q:reg0x1154=0x393d2327.
RX0 tia case :3,absolute value dc_i : 0 , value dc_q : 1 
####:reg0x127c=0x4e31562b.
####:reg0x1280=0x46394837.
tia_cnt_i : 0 ,
tia_cnt_q : 0 ,
I:reg0x1150=0xd0f211b.
Q:reg0x1154=0x393d2327.
RX0 tia case :4,absolute value dc_i : 0 , value dc_q : 1 
####:reg0x1280=0x46394837.
####:reg0x1284=0x46394837.
tia_cnt_i : 0 ,
tia_cnt_q : 0 ,
I:reg0x1150=0xd0f211b.
Q:reg0x1154=0x393d2327.
RX0 tia case :5,absolute value dc_i : 0 , value dc_q : 1 
####:reg0x1284=0x46394837.
####:reg0x1288=0x443b3e41.
tia_cnt_i : 0 ,
tia_cnt_q : 0 ,
I:reg0x1150=0xd0f211b.
Q:reg0x1154=0x393d2327.
RX0 tia case :6,absolute value dc_i : 0 , value dc_q : 1 
####:reg0x1288=0x443b3e41.
####:reg0x128c=0x3e413e41.
tia_cnt_i : 0 ,
tia_cnt_q : 4 ,
I:reg0x1150=0xd0f211b.
Q:reg0x1154=0x393d2327.
RX0 tia case :7,absolute value dc_i : 0 , value dc_q : 1 
####:reg0x128c=0x3e3d3e41.
####:reg0x1290=0x3e433c43.
tia_cnt_i : 0 ,
tia_cnt_q : 1 ,
I:reg0x1150=0xd0f211b.
Q:reg0x1154=0x393d2327.
RX0 tia case :8,absolute value dc_i : 0 , value dc_q : 1 
####:reg0x1290=0x3c423c43.
####:reg0x1294=0x3c433c43.
tia_cnt_i : 0 ,
tia_cnt_q : 1 ,
I:reg0x1150=0xd0f211b.
Q:reg0x1154=0x393d2327.
RX0 tia case :9,absolute value dc_i : 0 , value dc_q : 1 
####:reg0x1294=0x3c423c43.
####:reg0x1298=0x3c433c43.
tia_cnt_i : 0 ,
tia_cnt_q : 5 ,
I:reg0x1150=0xd0f211b.
Q:reg0x1154=0x393d2327.
RX0 tia case :10,absolute value dc_i : 0 , value dc_q : 1 
####:reg0x1298=0x3c3e3c43.
####:reg0x129c=0x3c433a45.
tia_cnt_i : 0 ,
tia_cnt_q : 0 ,
I:reg0x1150=0xd0f211b.
Q:reg0x1154=0x393d2327.
RX0 tia case :11,absolute value dc_i : 0 , value dc_q : 1 
####:reg0x129c=0x3c433a45.
####:reg0x12a0=0x3c433a45.
tia_cnt_i : 0 ,
tia_cnt_q : 0 ,
I:reg0x1150=0xd0f211b.
Q:reg0x1154=0x393d2327.
RX0 tia case :12,absolute value dc_i : 0 , value dc_q : 1 
####:reg0x12a0=0x3c433a45.
rx1 tia cali begin:
Q:reg0x12b0=0x6a156a15.
 RX1 :reg0x1130=0x6a156a15.
tia_cnt_i : 21 ,
tia_cnt_q : 0 ,
RX1 tia case :0,absolute value dc_i : 3 , value dc_q : -1 
RX1:reg0x12b0=0x6a157f00.
Q:reg0x12b4=0x68156a17.
 RX1 :reg0x1130=0x6a176815.
tia_cnt_i : 12 ,
tia_cnt_q : 0 ,
RX1 tia case :1,absolute value dc_i : 1 , value dc_q : 1 
RX1:reg0x12b4=0x6815760b.
Q:reg0x12b8=0x6619661b.
 RX1 :reg0x1130=0x661b6619.
tia_cnt_i : 0 ,
tia_cnt_q : 5 ,
RX1 tia case :2,absolute value dc_i : 1 , value dc_q : 1 
RX1:reg0x12b8=0x6614661b.
Q:reg0x12bc=0x621d621d.
 RX1 :reg0x1130=0x621d621d.
tia_cnt_i : 0 ,
tia_cnt_q : 29 ,
RX1 tia case :3,absolute value dc_i : 1 , value dc_q : 2 
RX1:reg0x12bc=0x6200621d.
Q:reg0x12c0=0x5e215c21.
 RX1 :reg0x1130=0x5c215e21.
tia_cnt_i : 0 ,
tia_cnt_q : 33 ,
RX1 tia case :4,absolute value dc_i : 1 , value dc_q : 2 
RX1:reg0x12c0=0x5c005c21.
Q:reg0x12c4=0x56295825.
 RX1 :reg0x1130=0x58255629.
tia_cnt_i : 0 ,
tia_cnt_q : 41 ,
RX1 tia case :5,absolute value dc_i : 1 , value dc_q : 2 
RX1:reg0x12c4=0x58005825.
Q:reg0x12c8=0x56295827.
 RX1 :reg0x1130=0x58275629.
tia_cnt_i : 0 ,
tia_cnt_q : 41 ,
RX1 tia case :6,absolute value dc_i : 0 , value dc_q : 2 
RX1:reg0x12c8=0x58005827.
Q:reg0x12cc=0x54295629.
 RX1 :reg0x1130=0x56295429.
tia_cnt_i : 0 ,
tia_cnt_q : 41 ,
RX1 tia case :7,absolute value dc_i : 1 , value dc_q : 2 
RX1:reg0x12cc=0x56005629.
Q:reg0x12d0=0x502d522d.
 RX1 :reg0x1130=0x522d502d.
tia_cnt_i : 0 ,
tia_cnt_q : 45 ,
RX1 tia case :8,absolute value dc_i : 0 , value dc_q : 2 
RX1:reg0x12d0=0x5200522d.
Q:reg0x12d4=0x522d522d.
 RX1 :reg0x1130=0x522d522d.
tia_cnt_i : 0 ,
tia_cnt_q : 45 ,
RX1 tia case :9,absolute value dc_i : 0 , value dc_q : 2 
RX1:reg0x12d4=0x5200522d.
Q:reg0x12d8=0x522d542b.
 RX1 :reg0x1130=0x542b522d.
tia_cnt_i : 0 ,
tia_cnt_q : 45 ,
RX1 tia case :10,absolute value dc_i : 0 , value dc_q : 2 
RX1:reg0x12d8=0x5400542b.
Q:reg0x12dc=0x502d542b.
 RX1 :reg0x1130=0x542b502d.
tia_cnt_i : 0 ,
tia_cnt_q : 45 ,
RX1 tia case :11,absolute value dc_i : 0 , value dc_q : 2 
RX1:reg0x12dc=0x5400542b.
Q:reg0x12e0=0x522d542b.
 RX1 :reg0x1130=0x542b522d.
tia_cnt_i : 0 ,
tia_cnt_q : 45 ,
RX1 tia case :12,absolute value dc_i : 0 , value dc_q : 2 
RX1:reg0x12e0=0x5400542b.
tia calibration end!
rx0 vga calibration begin
reg0x1120=0x3fc100.
vga case:1 pass.
RX0 vga case:1 ,absolute value dc_i_tmp : 0 , value dc_q_tmp : 1 ,I:reg0x1184=0x90f1d1b.   Q:reg0x11c0=0x393d2327.
vga case:2 pass.
RX0 vga case:2 ,absolute value dc_i_tmp : 0 , value dc_q_tmp : 1 ,I:reg0x1188=0x90f1d1b.   Q:reg0x11c4=0x393b2729.
vga case:3 pass.
RX0 vga case:3 ,absolute value dc_i_tmp : 1 , value dc_q_tmp : 0 ,I:reg0x118c=0x70f1d1b.   Q:reg0x11c8=0x393d2327.
vga case:4 pass.
RX0 vga case:4 ,absolute value dc_i_tmp : 0 , value dc_q_tmp : 1 ,I:reg0x1190=0xd0d1f1b.   Q:reg0x11cc=0x373d2327.
vga case:5 pass.
RX0 vga case:5 ,absolute value dc_i_tmp : 0 , value dc_q_tmp : 2 ,I:reg0x1194=0x70f1d1b.   Q:reg0x11d0=0x373d2327.
vga case:6 pass.
RX0 vga case:6 ,absolute value dc_i_tmp : 1 , value dc_q_tmp : 1 ,I:reg0x1198=0x9111d1b.   Q:reg0x11d4=0x373d2327.
vga case:7 pass.
RX0 vga case:7 ,absolute value dc_i_tmp : 0 , value dc_q_tmp : 1 ,I:reg0x119c=0x9131d1b.   Q:reg0x11d8=0x393f2327.
vga case:8 pass.
RX0 vga case:8 ,absolute value dc_i_tmp : 1 , value dc_q_tmp : 1 ,I:reg0x11a0=0x70f1d1b.   Q:reg0x11dc=0x393d2529.
vga case:9 pass.
RX0 vga case:9 ,absolute value dc_i_tmp : 0 , value dc_q_tmp : 1 ,I:reg0x11a4=0xb0f1d1b.   Q:reg0x11e0=0x373f2329.
vga case:10 pass.
RX0 vga case:10 ,absolute value dc_i_tmp : 0 , value dc_q_tmp : 1 ,I:reg0x11a8=0xd0f1d1b.   Q:reg0x11e4=0x3b392329.
vga case:11 pass.
RX0 vga case:11 ,absolute value dc_i_tmp : 0 , value dc_q_tmp : 1 ,I:reg0x11ac=0xd0d1f1d.   Q:reg0x11e8=0x3939232b.
vga case:12 pass.
RX0 vga case:12 ,absolute value dc_i_tmp : 1 , value dc_q_tmp : 1 ,I:reg0x11b0=0x7111d1d.   Q:reg0x11ec=0x3b3b232d.
vga case:13 pass.
RX0 vga case:13 ,absolute value dc_i_tmp : 0 , value dc_q_tmp : 1 ,I:reg0x11b4=0xd0f1d1d.   Q:reg0x11f0=0x3d39212d.
vga case:14 pass.
RX0 vga case:14 ,absolute value dc_i_tmp : 1 , value dc_q_tmp : 1 ,I:reg0x11b8=0xd0f1b1d.   Q:reg0x11f4=0x373d1d2f.
rx1 vga calibration begin
rx1 vga case:1 pass.
RX1 vga case:1 ,absolute value dc_i_tmp : 1 , value dc_q_tmp : 0 ,I:reg0x11fc=0x3b352129. Q:reg0x1238=0x2f25191d.
rx1 vga case:2 pass.
RX1 vga case:2 ,absolute value dc_i_tmp : 1 , value dc_q_tmp : 1 ,I:reg0x1200=0x3b352129. Q:reg0x123c=0x2f25191d.
rx1 vga case:3 pass.
RX1 vga case:3 ,absolute value dc_i_tmp : 1 , value dc_q_tmp : 0 ,I:reg0x1204=0x3b352129. Q:reg0x1240=0x3327191d.
rx1 vga case:4 pass.
RX1 vga case:4 ,absolute value dc_i_tmp : 1 , value dc_q_tmp : 0 ,I:reg0x1208=0x37371f29. Q:reg0x1244=0x3125191d.
rx1 vga case:5 pass.
RX1 vga case:5 ,absolute value dc_i_tmp : 1 , value dc_q_tmp : 1 ,I:reg0x120c=0x37371f29. Q:reg0x1248=0x3125191d.
rx1 vga case:6 pass.
RX1 vga case:6 ,absolute value dc_i_tmp : 1 , value dc_q_tmp : 1 ,I:reg0x1210=0x35371f29. Q:reg0x124c=0x3125191d.
rx1 vga case:7 pass.
RX1 vga case:7 ,absolute value dc_i_tmp : 1 , value dc_q_tmp : 1 ,I:reg0x1214=0x35391f29. Q:reg0x1250=0x3325191d.
rx1 vga case:8 pass.
RX1 vga case:8 ,absolute value dc_i_tmp : 1 , value dc_q_tmp : 0 ,I:reg0x1218=0x37371d29. Q:reg0x1254=0x2f29171d.
rx1 vga case:9 pass.
RX1 vga case:9 ,absolute value dc_i_tmp : 1 , value dc_q_tmp : 1 ,I:reg0x121c=0x37371d2d. Q:reg0x1258=0x3323171d.
rx1 vga case:10 pass.
RX1 vga case:10 ,absolute value dc_i_tmp : 0 , value dc_q_tmp : 0 ,I:reg0x1220=0x37331b2f. Q:reg0x125c=0x3123171f.
rx1 vga case:11 pass.
RX1 vga case:11 ,absolute value dc_i_tmp : 0 , value dc_q_tmp : 0 ,I:reg0x1224=0x3f311931. Q:reg0x1260=0x2f271521.
rx1 vga case:12 pass.
RX1 vga case:12 ,absolute value dc_i_tmp : 1 , value dc_q_tmp : 1 ,I:reg0x1228=0x39371333. Q:reg0x1264=0x31251321.
rx1 vga case:13 pass.
RX1 vga case:13 ,absolute value dc_i_tmp : 0 , value dc_q_tmp : 0 ,I:reg0x122c=0x3b330f37. Q:reg0x1268=0x2f271123.
rx1 vga case:14 pass.
RX1 vga case:14 ,absolute value dc_i_tmp : 0 , value dc_q_tmp : 0 ,I:reg0x1230=0x3733053f. Q:reg0x126c=0x2f230f27.
reg0x1120=0x3c0100.
vga calibration end!
RX0: 0x103c : e0004000 ,0x1040 : 10001102 
RX1: 0x1054 : e0004000 ,0x1058 : 10001100 
THIS CASE J: 0 M: 1 
adc calibration begin
calibration begin
RX0 cali pre ,absolute value dc_i_tmp : 0 , value dc_q_tmp : 15 ,
reg0x1180=0xb0f1f1b.
reg0x11bc=0x393d2327.
RX1 cali pre ,absolute value dc_i_tmp : 2 , value dc_q_tmp : 5 ,reg0x11f8=0x39352327.
reg0x1234=0x2f25191d.
rx0 tia cali begin:
####:reg0x1270=0x562b5e23.
tia_cnt_i : 1 ,
tia_cnt_q : 84 ,
I:reg0x1150=0xb0f1f1b.
Q:reg0x1154=0x393d2327.
RX0 tia case :0,absolute value dc_i : -1 , value dc_q : -16 
####:reg0x1270=0x5d7f5d24.
####:reg0x1274=0x542b5c21.
tia_cnt_i : 0 ,
tia_cnt_q : 84 ,
I:reg0x1150=0xb0f1f1b.
Q:reg0x1154=0x393d2327.
RX0 tia case :1,absolute value dc_i : 0 , value dc_q : -16 
####:reg0x1274=0x5c7f5c21.
####:reg0x1278=0x522d5825.
tia_cnt_i : 0 ,
tia_cnt_q : 82 ,
I:reg0x1150=0xb0f1f1b.
Q:reg0x1154=0x393d2327.
RX0 tia case :2,absolute value dc_i : 0 , value dc_q : -16 
####:reg0x1278=0x587f5825.
####:reg0x127c=0x4e31562b.
tia_cnt_i : 0 ,
tia_cnt_q : 78 ,
I:reg0x1150=0xb0f1f1b.
Q:reg0x1154=0x393d2327.
RX0 tia case :3,absolute value dc_i : 0 , value dc_q : -16 
####:reg0x127c=0x567f562b.
####:reg0x1280=0x46394837.
tia_cnt_i : 0 ,
tia_cnt_q : 70 ,
I:reg0x1150=0xb0f1f1b.
Q:reg0x1154=0x393d2327.
RX0 tia case :4,absolute value dc_i : 0 , value dc_q : -16 
####:reg0x1280=0x487f4837.
####:reg0x1284=0x46394639.
tia_cnt_i : 0 ,
tia_cnt_q : 70 ,
I:reg0x1150=0xb0f1f1b.
Q:reg0x1154=0x393d2327.
RX0 tia case :5,absolute value dc_i : 0 , value dc_q : -16 
####:reg0x1284=0x467f4639.
####:reg0x1288=0x3e41463b.
tia_cnt_i : 0 ,
tia_cnt_q : 62 ,
I:reg0x1150=0xb0f1f1b.
Q:reg0x1154=0x393d2327.
RX0 tia case :6,absolute value dc_i : 0 , value dc_q : -16 
####:reg0x1288=0x467f463b.
####:reg0x128c=0x3c41443b.
tia_cnt_i : 0 ,
tia_cnt_q : 62 ,
I:reg0x1150=0xb0f1f1b.
Q:reg0x1154=0x393d2327.
RX0 tia case :7,absolute value dc_i : 0 , value dc_q : -16 
####:reg0x128c=0x447f443b.
####:reg0x1290=0x3c433c43.
tia_cnt_i : 0 ,
tia_cnt_q : 60 ,
I:reg0x1150=0xb0f1f1b.
Q:reg0x1154=0x393d2327.
RX0 tia case :8,absolute value dc_i : 0 , value dc_q : -16 
####:reg0x1290=0x3c7f3c43.
####:reg0x1294=0x3c433a45.
tia_cnt_i : 0 ,
tia_cnt_q : 60 ,
I:reg0x1150=0xb0f1f1b.
Q:reg0x1154=0x393d2327.
RX0 tia case :9,absolute value dc_i : 0 , value dc_q : -16 
####:reg0x1294=0x3a7f3a45.
####:reg0x1298=0x3c433c43.
tia_cnt_i : 0 ,
tia_cnt_q : 60 ,
I:reg0x1150=0xb0f1f1b.
Q:reg0x1154=0x393d2327.
RX0 tia case :10,absolute value dc_i : 0 , value dc_q : -16 
####:reg0x1298=0x3c7f3c43.
####:reg0x129c=0x3c433c43.
tia_cnt_i : 0 ,
tia_cnt_q : 60 ,
I:reg0x1150=0xb0f1f1b.
Q:reg0x1154=0x393d2327.
RX0 tia case :11,absolute value dc_i : 0 , value dc_q : -16 
####:reg0x129c=0x3c7f3c43.
####:reg0x12a0=0x3c433a45.
tia_cnt_i : 0 ,
tia_cnt_q : 60 ,
I:reg0x1150=0xb0f1f1b.
Q:reg0x1154=0x393d2327.
RX0 tia case :12,absolute value dc_i : 0 , value dc_q : -16 
####:reg0x12a0=0x3a7f3a45.
rx1 tia cali begin:
Q:reg0x12b0=0x6c136c13.
 RX1 :reg0x1130=0x6c136c13.
tia_cnt_i : 19 ,
tia_cnt_q : 76 ,
RX1 tia case :0,absolute value dc_i : 5 , value dc_q : -1 
RX1:reg0x12b0=0x7f5f7f00.
Q:reg0x12b4=0x68156815.
 RX1 :reg0x1130=0x68156815.
tia_cnt_i : 21 ,
tia_cnt_q : 82 ,
RX1 tia case :1,absolute value dc_i : 4 , value dc_q : -1 
RX1:reg0x12b4=0x7d677d00.
Q:reg0x12b8=0x6619661b.
 RX1 :reg0x1130=0x661b6619.
tia_cnt_i : 25 ,
tia_cnt_q : 79 ,
RX1 tia case :2,absolute value dc_i : 3 , value dc_q : -1 
RX1:reg0x12b8=0x7f687f02.
Q:reg0x12bc=0x641b621d.
 RX1 :reg0x1130=0x621d641b.
tia_cnt_i : 29 ,
tia_cnt_q : 94 ,
RX1 tia case :3,absolute value dc_i : 3 , value dc_q : -1 
RX1:reg0x12bc=0x7f797f00.
Q:reg0x12c0=0x5e215c23.
 RX1 :reg0x1130=0x5c235e21.
tia_cnt_i : 35 ,
tia_cnt_q : 94 ,
RX1 tia case :4,absolute value dc_i : 2 , value dc_q : -2 
RX1:reg0x12c0=0x7f7f7f00.
Q:reg0x12c4=0x56295a27.
 RX1 :reg0x1130=0x5a275629.
tia_cnt_i : 37 ,
tia_cnt_q : 86 ,
RX1 tia case :5,absolute value dc_i : 2 , value dc_q : -2 
RX1:reg0x12c4=0x7f7f7f02.
Q:reg0x12c8=0x562b5629.
 RX1 :reg0x1130=0x5629562b.
tia_cnt_i : 41 ,
tia_cnt_q : 84 ,
RX1 tia case :6,absolute value dc_i : 2 , value dc_q : -2 
RX1:reg0x12c8=0x7f7f7f00.
Q:reg0x12cc=0x542b5629.
 RX1 :reg0x1130=0x5629542b.
tia_cnt_i : 41 ,
tia_cnt_q : 84 ,
RX1 tia case :7,absolute value dc_i : 2 , value dc_q : -2 
RX1:reg0x12cc=0x7f7f7f00.
Q:reg0x12d0=0x522d522d.
 RX1 :reg0x1130=0x522d522d.
tia_cnt_i : 45 ,
tia_cnt_q : 75 ,
RX1 tia case :8,absolute value dc_i : 2 , value dc_q : -1 
RX1:reg0x12d0=0x7f787f00.
Q:reg0x12d4=0x522d522d.
 RX1 :reg0x1130=0x522d522d.
tia_cnt_i : 45 ,
tia_cnt_q : 82 ,
RX1 tia case :9,absolute value dc_i : 2 , value dc_q : -2 
RX1:reg0x12d4=0x7f7f7f00.
Q:reg0x12d8=0x522d542b.
 RX1 :reg0x1130=0x542b522d.
tia_cnt_i : 43 ,
tia_cnt_q : 82 ,
RX1 tia case :10,absolute value dc_i : 2 , value dc_q : -2 
RX1:reg0x12d8=0x7f7f7f00.
Q:reg0x12dc=0x502d522d.
 RX1 :reg0x1130=0x522d502d.
tia_cnt_i : 45 ,
tia_cnt_q : 82 ,
RX1 tia case :11,absolute value dc_i : 2 , value dc_q : -2 
RX1:reg0x12dc=0x7f7f7f00.
Q:reg0x12e0=0x522d522d.
 RX1 :reg0x1130=0x522d522d.
tia_cnt_i : 45 ,
tia_cnt_q : 82 ,
RX1 tia case :12,absolute value dc_i : 2 , value dc_q : -2 
RX1:reg0x12e0=0x7f7f7f00.
tia calibration end!
rx0 vga calibration begin
reg0x1120=0x3fc100.
vga case:1 pass.
RX0 vga case:1 ,absolute value dc_i_tmp : 0 , value dc_q_tmp : 15 ,I:reg0x1184=0xb0f1f1b.   Q:reg0x11c0=0x393d2327.
vga case:2 pass.
RX0 vga case:2 ,absolute value dc_i_tmp : 0 , value dc_q_tmp : 15 ,I:reg0x1188=0xb0f1f1b.   Q:reg0x11c4=0x393b2729.
vga case:3 pass.
RX0 vga case:3 ,absolute value dc_i_tmp : 0 , value dc_q_tmp : 15 ,I:reg0x118c=0xb0f1f1b.   Q:reg0x11c8=0x393d2327.
vga case:4 pass.
RX0 vga case:4 ,absolute value dc_i_tmp : 0 , value dc_q_tmp : 15 ,I:reg0x1190=0xb0f1f1b.   Q:reg0x11cc=0x373d2327.
vga case:5 pass.
RX0 vga case:5 ,absolute value dc_i_tmp : 0 , value dc_q_tmp : 15 ,I:reg0x1194=0xb0f1f1b.   Q:reg0x11d0=0x373d2327.
vga case:6 pass.
RX0 vga case:6 ,absolute value dc_i_tmp : 0 , value dc_q_tmp : 15 ,I:reg0x1198=0xd0f1f1b.   Q:reg0x11d4=0x373d2327.
vga case:7 pass.
RX0 vga case:7 ,absolute value dc_i_tmp : 0 , value dc_q_tmp : 15 ,I:reg0x119c=0xb0f1f1b.   Q:reg0x11d8=0x393f2327.
vga case:8 pass.
RX0 vga case:8 ,absolute value dc_i_tmp : 0 , value dc_q_tmp : 15 ,I:reg0x11a0=0xd0f1f1b.   Q:reg0x11dc=0x393d2529.
vga case:9 pass.
RX0 vga case:9 ,absolute value dc_i_tmp : 0 , value dc_q_tmp : 15 ,I:reg0x11a4=0xb0f1f1b.   Q:reg0x11e0=0x373f2329.
vga case:10 pass.
RX0 vga case:10 ,absolute value dc_i_tmp : 0 , value dc_q_tmp : 15 ,I:reg0x11a8=0xf0f1f1b.   Q:reg0x11e4=0x3b392329.
vga case:11 pass.
RX0 vga case:11 ,absolute value dc_i_tmp : 0 , value dc_q_tmp : 15 ,I:reg0x11ac=0x130d211b.   Q:reg0x11e8=0x3939232b.
vga case:12 pass.
RX0 vga case:12 ,absolute value dc_i_tmp : 0 , value dc_q_tmp : 15 ,I:reg0x11b0=0xd0f1f1b.   Q:reg0x11ec=0x3b3b232d.
vga case:13 pass.
RX0 vga case:13 ,absolute value dc_i_tmp : 0 , value dc_q_tmp : 15 ,I:reg0x11b4=0x110f1f1b.   Q:reg0x11f0=0x3d39212d.
vga case:14 pass.
RX0 vga case:14 ,absolute value dc_i_tmp : 0 , value dc_q_tmp : 15 ,I:reg0x11b8=0x150d211b.   Q:reg0x11f4=0x373d1d2f.
rx1 vga calibration begin
rx1 vga case:1 pass.
RX1 vga case:1 ,absolute value dc_i_tmp : 2 , value dc_q_tmp : 5 ,I:reg0x11fc=0x39351f27. Q:reg0x1238=0x31271b19.
rx1 vga case:2 pass.
RX1 vga case:2 ,absolute value dc_i_tmp : 2 , value dc_q_tmp : 5 ,I:reg0x1200=0x39352129. Q:reg0x123c=0x2f251b19.
rx1 vga case:3 pass.
RX1 vga case:3 ,absolute value dc_i_tmp : 2 , value dc_q_tmp : 6 ,I:reg0x1204=0x39352129. Q:reg0x1240=0x31271b19.
rx1 vga case:4 pass.
RX1 vga case:4 ,absolute value dc_i_tmp : 1 , value dc_q_tmp : 6 ,I:reg0x1208=0x3b352129. Q:reg0x1244=0x2f251b19.
rx1 vga case:5 pass.
RX1 vga case:5 ,absolute value dc_i_tmp : 1 , value dc_q_tmp : 5 ,I:reg0x120c=0x3b352129. Q:reg0x1248=0x33271b19.
rx1 vga case:6 pass.
RX1 vga case:6 ,absolute value dc_i_tmp : 1 , value dc_q_tmp : 5 ,I:reg0x1210=0x3b352129. Q:reg0x124c=0x31251b19.
rx1 vga case:7 pass.
RX1 vga case:7 ,absolute value dc_i_tmp : 1 , value dc_q_tmp : 6 ,I:reg0x1214=0x3b332129. Q:reg0x1250=0x31251b19.
rx1 vga case:8 pass.
RX1 vga case:8 ,absolute value dc_i_tmp : 0 , value dc_q_tmp : 5 ,I:reg0x1218=0x3b311f29. Q:reg0x1254=0x31271b19.
rx1 vga case:9 pass.
RX1 vga case:9 ,absolute value dc_i_tmp : 1 , value dc_q_tmp : 5 ,I:reg0x121c=0x3b331d2b. Q:reg0x1258=0x2f291b19.
rx1 vga case:10 pass.
RX1 vga case:10 ,absolute value dc_i_tmp : 1 , value dc_q_tmp : 5 ,I:reg0x1220=0x3d331b2d. Q:reg0x125c=0x33231d19.
rx1 vga case:11 pass.
RX1 vga case:11 ,absolute value dc_i_tmp : 0 , value dc_q_tmp : 5 ,I:reg0x1224=0x3d371931. Q:reg0x1260=0x31271d19.
rx1 vga case:12 pass.
RX1 vga case:12 ,absolute value dc_i_tmp : 1 , value dc_q_tmp : 5 ,I:reg0x1228=0x3b351533. Q:reg0x1264=0x2f2b1d19.
rx1 vga case:13 pass.
RX1 vga case:13 ,absolute value dc_i_tmp : 1 , value dc_q_tmp : 4 ,I:reg0x122c=0x37331137. Q:reg0x1268=0x33251d17.
rx1 vga case:14 pass.
RX1 vga case:14 ,absolute value dc_i_tmp : 0 , value dc_q_tmp : 5 ,I:reg0x1230=0x3b2f093f. Q:reg0x126c=0x33291f17.
reg0x1120=0x3c0100.
vga calibration end!
RX0: 0x103c : e0008000 ,0x1040 : 20001102 
RX1: 0x1054 : e0008000 ,0x1058 : 20001100 
THIS CASE J: 0 M: 2 
adc calibration begin
calibration begin
RX0 cali pre ,absolute value dc_i_tmp : 0 , value dc_q_tmp : 15 ,
reg0x1180=0x90f1d1b.
reg0x11bc=0x393d2327.
RX1 cali pre ,absolute value dc_i_tmp : 2 , value dc_q_tmp : 6 ,reg0x11f8=0x39352327.
reg0x1234=0x3127191d.
rx0 tia cali begin:
####:reg0x1270=0x562b5629.
tia_cnt_i : 0 ,
tia_cnt_q : 84 ,
I:reg0x1150=0x90f1d1b.
Q:reg0x1154=0x393d2327.
RX0 tia case :0,absolute value dc_i : 0 , value dc_q : -16 
####:reg0x1270=0x567f5629.
####:reg0x1274=0x522d5c23.
tia_cnt_i : 0 ,
tia_cnt_q : 82 ,
I:reg0x1150=0x90f1d1b.
Q:reg0x1154=0x393d2327.
RX0 tia case :1,absolute value dc_i : 0 , value dc_q : -16 
####:reg0x1274=0x5c7f5c23.
####:reg0x1278=0x502f5827.
tia_cnt_i : 0 ,
tia_cnt_q : 80 ,
I:reg0x1150=0x90f1d1b.
Q:reg0x1154=0x393d2327.
RX0 tia case :2,absolute value dc_i : 0 , value dc_q : -16 
####:reg0x1278=0x587f5827.
####:reg0x127c=0x4c33562b.
tia_cnt_i : 0 ,
tia_cnt_q : 76 ,
I:reg0x1150=0x90f1d1b.
Q:reg0x1154=0x393d2327.
RX0 tia case :3,absolute value dc_i : 0 , value dc_q : -16 
####:reg0x127c=0x567f562b.
####:reg0x1280=0x44394639.
tia_cnt_i : 0 ,
tia_cnt_q : 70 ,
I:reg0x1150=0x90f1d1b.
Q:reg0x1154=0x393d2327.
RX0 tia case :4,absolute value dc_i : 0 , value dc_q : -16 
####:reg0x1280=0x467f4639.
####:reg0x1284=0x463b4639.
tia_cnt_i : 0 ,
tia_cnt_q : 68 ,
I:reg0x1150=0x90f1d1b.
Q:reg0x1154=0x393d2327.
RX0 tia case :5,absolute value dc_i : 0 , value dc_q : -16 
####:reg0x1284=0x467f4639.
####:reg0x1288=0x3c414439.
tia_cnt_i : 0 ,
tia_cnt_q : 62 ,
I:reg0x1150=0x90f1d1b.
Q:reg0x1154=0x393d2327.
RX0 tia case :6,absolute value dc_i : 0 , value dc_q : -16 
####:reg0x1288=0x447f4439.
####:reg0x128c=0x3c413c43.
tia_cnt_i : 0 ,
tia_cnt_q : 62 ,
I:reg0x1150=0x90f1d1b.
Q:reg0x1154=0x393d2327.
RX0 tia case :7,absolute value dc_i : 0 , value dc_q : -16 
####:reg0x128c=0x3c7f3c43.
####:reg0x1290=0x3c433a45.
tia_cnt_i : 0 ,
tia_cnt_q : 60 ,
I:reg0x1150=0x90f1d1b.
Q:reg0x1154=0x393d2327.
RX0 tia case :8,absolute value dc_i : 0 , value dc_q : -16 
####:reg0x1290=0x3a7f3a45.
####:reg0x1294=0x3a453845.
tia_cnt_i : 0 ,
tia_cnt_q : 58 ,
I:reg0x1150=0x90f1d1b.
Q:reg0x1154=0x393d2327.
RX0 tia case :9,absolute value dc_i : 0 , value dc_q : -16 
####:reg0x1294=0x387f3845.
####:reg0x1298=0x3a453a47.
tia_cnt_i : 0 ,
tia_cnt_q : 58 ,
I:reg0x1150=0x90f1d1b.
Q:reg0x1154=0x393d2327.
RX0 tia case :10,absolute value dc_i : 0 , value dc_q : -16 
####:reg0x1298=0x3a7f3a47.
####:reg0x129c=0x3a453c43.
tia_cnt_i : 0 ,
tia_cnt_q : 58 ,
I:reg0x1150=0x90f1d1b.
Q:reg0x1154=0x393d2327.
RX0 tia case :11,absolute value dc_i : 0 , value dc_q : -16 
####:reg0x129c=0x3c7f3c43.
####:reg0x12a0=0x3c433a45.
tia_cnt_i : 0 ,
tia_cnt_q : 60 ,
I:reg0x1150=0x90f1d1b.
Q:reg0x1154=0x393d2327.
RX0 tia case :12,absolute value dc_i : 0 , value dc_q : -16 
####:reg0x12a0=0x3a7f3a45.
rx1 tia cali begin:
Q:reg0x12b0=0x6c136c13.
 RX1 :reg0x1130=0x6c136c13.
tia_cnt_i : 19 ,
tia_cnt_q : 108 ,
RX1 tia case :0,absolute value dc_i : 5 , value dc_q : -4 
RX1:reg0x12b0=0x7f7f7f00.
Q:reg0x12b4=0x68156619.
 RX1 :reg0x1130=0x66196815.
tia_cnt_i : 25 ,
tia_cnt_q : 106 ,
RX1 tia case :1,absolute value dc_i : 4 , value dc_q : -4 
RX1:reg0x12b4=0x7f7f7f00.
Q:reg0x12b8=0x68176619.
 RX1 :reg0x1130=0x66196817.
tia_cnt_i : 25 ,
tia_cnt_q : 104 ,
RX1 tia case :2,absolute value dc_i : 3 , value dc_q : -5 
RX1:reg0x12b8=0x7f7f7f00.
Q:reg0x12bc=0x621d621d.
 RX1 :reg0x1130=0x621d621d.
tia_cnt_i : 29 ,
tia_cnt_q : 98 ,
RX1 tia case :3,absolute value dc_i : 3 , value dc_q : -5 
RX1:reg0x12bc=0x7f7f7f00.
Q:reg0x12c0=0x5e235c21.
 RX1 :reg0x1130=0x5c215e23.
tia_cnt_i : 33 ,
tia_cnt_q : 92 ,
RX1 tia case :4,absolute value dc_i : 3 , value dc_q : -6 
RX1:reg0x12c0=0x7d7f7d00.
Q:reg0x12c4=0x58275827.
 RX1 :reg0x1130=0x58275827.
tia_cnt_i : 39 ,
tia_cnt_q : 88 ,
RX1 tia case :5,absolute value dc_i : 2 , value dc_q : -6 
RX1:reg0x12c4=0x7f7f7f00.
Q:reg0x12c8=0x58275827.
 RX1 :reg0x1130=0x58275827.
tia_cnt_i : 39 ,
tia_cnt_q : 88 ,
RX1 tia case :6,absolute value dc_i : 2 , value dc_q : -5 
RX1:reg0x12c8=0x7f7f7f00.
Q:reg0x12cc=0x562b5629.
 RX1 :reg0x1130=0x5629562b.
tia_cnt_i : 41 ,
tia_cnt_q : 84 ,
RX1 tia case :7,absolute value dc_i : 2 , value dc_q : -5 
RX1:reg0x12cc=0x7f7f7f00.
Q:reg0x12d0=0x522d542b.
 RX1 :reg0x1130=0x542b522d.
tia_cnt_i : 43 ,
tia_cnt_q : 82 ,
RX1 tia case :8,absolute value dc_i : 2 , value dc_q : -6 
RX1:reg0x12d0=0x7f7f7f00.
Q:reg0x12d4=0x502d522d.
 RX1 :reg0x1130=0x522d502d.
tia_cnt_i : 45 ,
tia_cnt_q : 82 ,
RX1 tia case :9,absolute value dc_i : 2 , value dc_q : -6 
RX1:reg0x12d4=0x7f7f7f00.
Q:reg0x12d8=0x502d542b.
 RX1 :reg0x1130=0x542b502d.
tia_cnt_i : 43 ,
tia_cnt_q : 82 ,
RX1 tia case :10,absolute value dc_i : 2 , value dc_q : -6 
RX1:reg0x12d8=0x7f7f7f00.
Q:reg0x12dc=0x522d522d.
 RX1 :reg0x1130=0x522d522d.
tia_cnt_i : 45 ,
tia_cnt_q : 82 ,
RX1 tia case :11,absolute value dc_i : 2 , value dc_q : -6 
RX1:reg0x12dc=0x7f7f7f00.
Q:reg0x12e0=0x522d522d.
 RX1 :reg0x1130=0x522d522d.
tia_cnt_i : 45 ,
tia_cnt_q : 82 ,
RX1 tia case :12,absolute value dc_i : 2 , value dc_q : -5 
RX1:reg0x12e0=0x7f7f7f00.
tia calibration end!
rx0 vga calibration begin
reg0x1120=0x3fc100.
vga case:1 pass.
RX0 vga case:1 ,absolute value dc_i_tmp : 0 , value dc_q_tmp : 15 ,I:reg0x1184=0x90f1f1b.   Q:reg0x11c0=0x393d2327.
vga case:2 pass.
RX0 vga case:2 ,absolute value dc_i_tmp : 0 , value dc_q_tmp : 15 ,I:reg0x1188=0x90f1f1b.   Q:reg0x11c4=0x393b2729.
vga case:3 pass.
RX0 vga case:3 ,absolute value dc_i_tmp : 0 , value dc_q_tmp : 15 ,I:reg0x118c=0xd0f211b.   Q:reg0x11c8=0x393d2327.
vga case:4 pass.
RX0 vga case:4 ,absolute value dc_i_tmp : 0 , value dc_q_tmp : 15 ,I:reg0x1190=0xb0d211b.   Q:reg0x11cc=0x373d2327.
vga case:5 pass.
RX0 vga case:5 ,absolute value dc_i_tmp : 0 , value dc_q_tmp : 15 ,I:reg0x1194=0xb0d211b.   Q:reg0x11d0=0x373d2327.
vga case:6 pass.
RX0 vga case:6 ,absolute value dc_i_tmp : 0 , value dc_q_tmp : 15 ,I:reg0x1198=0xd0d211b.   Q:reg0x11d4=0x373d2327.
vga case:7 pass.
RX0 vga case:7 ,absolute value dc_i_tmp : 0 , value dc_q_tmp : 15 ,I:reg0x119c=0xf0d211b.   Q:reg0x11d8=0x393f2327.
vga case:8 pass.
RX0 vga case:8 ,absolute value dc_i_tmp : 0 , value dc_q_tmp : 15 ,I:reg0x11a0=0xb0d211b.   Q:reg0x11dc=0x393d2529.
vga case:9 pass.
RX0 vga case:9 ,absolute value dc_i_tmp : 0 , value dc_q_tmp : 15 ,I:reg0x11a4=0xf0f1f19.   Q:reg0x11e0=0x373f2329.
vga case:10 pass.
RX0 vga case:10 ,absolute value dc_i_tmp : 0 , value dc_q_tmp : 15 ,I:reg0x11a8=0x70f211b.   Q:reg0x11e4=0x3b392329.
vga case:11 pass.
RX0 vga case:11 ,absolute value dc_i_tmp : 0 , value dc_q_tmp : 15 ,I:reg0x11ac=0xf0d2119.   Q:reg0x11e8=0x3939232b.
vga case:12 pass.
RX0 vga case:12 ,absolute value dc_i_tmp : 0 , value dc_q_tmp : 15 ,I:reg0x11b0=0xf0f2119.   Q:reg0x11ec=0x3b3b232d.
vga case:13 pass.
RX0 vga case:13 ,absolute value dc_i_tmp : 0 , value dc_q_tmp : 15 ,I:reg0x11b4=0x11152119.   Q:reg0x11f0=0x3d39212d.
vga case:14 pass.
RX0 vga case:14 ,absolute value dc_i_tmp : 0 , value dc_q_tmp : 15 ,I:reg0x11b8=0x11d2119.   Q:reg0x11f4=0x373d1d2f.
rx1 vga calibration begin
rx1 vga case:1 pass.
RX1 vga case:1 ,absolute value dc_i_tmp : 1 , value dc_q_tmp : 8 ,I:reg0x11fc=0x39352129. Q:reg0x1238=0x2f251d17.
rx1 vga case:2 pass.
RX1 vga case:2 ,absolute value dc_i_tmp : 1 , value dc_q_tmp : 8 ,I:reg0x1200=0x39352129. Q:reg0x123c=0x2f251d17.
rx1 vga case:3 pass.
RX1 vga case:3 ,absolute value dc_i_tmp : 1 , value dc_q_tmp : 8 ,I:reg0x1204=0x39352129. Q:reg0x1240=0x31251d17.
rx1 vga case:4 pass.
RX1 vga case:4 ,absolute value dc_i_tmp : 1 , value dc_q_tmp : 8 ,I:reg0x1208=0x39352129. Q:reg0x1244=0x33271d17.
rx1 vga case:5 pass.
RX1 vga case:5 ,absolute value dc_i_tmp : 1 , value dc_q_tmp : 8 ,I:reg0x120c=0x3b372129. Q:reg0x1248=0x31251d17.
rx1 vga case:6 pass.
RX1 vga case:6 ,absolute value dc_i_tmp : 1 , value dc_q_tmp : 8 ,I:reg0x1210=0x3b351f27. Q:reg0x124c=0x31251d17.
rx1 vga case:7 pass.
RX1 vga case:7 ,absolute value dc_i_tmp : 1 , value dc_q_tmp : 7 ,I:reg0x1214=0x3b331f27. Q:reg0x1250=0x33251d17.
rx1 vga case:8 pass.
RX1 vga case:8 ,absolute value dc_i_tmp : 1 , value dc_q_tmp : 7 ,I:reg0x1218=0x39331f29. Q:reg0x1254=0x2f291d17.
rx1 vga case:9 pass.
RX1 vga case:9 ,absolute value dc_i_tmp : 1 , value dc_q_tmp : 8 ,I:reg0x121c=0x3b371d2b. Q:reg0x1258=0x31232117.
rx1 vga case:10 pass.
RX1 vga case:10 ,absolute value dc_i_tmp : 1 , value dc_q_tmp : 7 ,I:reg0x1220=0x39351b2d. Q:reg0x125c=0x33252115.
rx1 vga case:11 pass.
RX1 vga case:11 ,absolute value dc_i_tmp : 0 , value dc_q_tmp : 7 ,I:reg0x1224=0x3d31192f. Q:reg0x1260=0x2f292113.
rx1 vga case:12 pass.
RX1 vga case:12 ,absolute value dc_i_tmp : 0 , value dc_q_tmp : 7 ,I:reg0x1228=0x3f331733. Q:reg0x1264=0x33252513.
rx1 vga case:13 pass.
RX1 vga case:13 ,absolute value dc_i_tmp : 1 , value dc_q_tmp : 7 ,I:reg0x122c=0x3d331337. Q:reg0x1268=0x31252711.
rx1 vga case:14 pass.
RX1 vga case:14 ,absolute value dc_i_tmp : 0 , value dc_q_tmp : 7 ,I:reg0x1230=0x3d31093d. Q:reg0x126c=0x33272b0d.
reg0x1120=0x3c0100.
vga calibration end!
RX0: 0x103c : e000c000 ,0x1040 : 30001102 
RX1: 0x1054 : e000c000 ,0x1058 : 30001100 
THIS CASE J: 0 M: 3 
adc calibration begin
calibration begin
RX0 cali pre ,absolute value dc_i_tmp : 12 , value dc_q_tmp : 15 ,
reg0x1180=0xb0f1f1b.
reg0x11bc=0x393d2327.
RX1 cali pre ,absolute value dc_i_tmp : 15 , value dc_q_tmp : 15 ,reg0x11f8=0x39352327.
reg0x1234=0x3127191d.
rx0 tia cali begin:
####:reg0x1270=0x522f5629.
tia_cnt_i : 86 ,
tia_cnt_q : 1 ,
I:reg0x1150=0xb0f1f1b.
Q:reg0x1154=0x393d2327.
RX0 tia case :0,absolute value dc_i : -13 , value dc_q : -16 
####:reg0x1270=0x30007f.
####:reg0x1274=0x542b5a27.
tia_cnt_i : 88 ,
tia_cnt_q : 84 ,
I:reg0x1150=0xb0f1f1b.
Q:reg0x1154=0x393d2327.
RX0 tia case :1,absolute value dc_i : -12 , value dc_q : -16 
####:reg0x1274=0x27f027f.
####:reg0x1278=0x522f5629.
tia_cnt_i : 86 ,
tia_cnt_q : 1 ,
I:reg0x1150=0xb0f1f1b.
Q:reg0x1154=0x393d2327.
RX0 tia case :2,absolute value dc_i : -12 , value dc_q : -16 
####:reg0x1278=0x30007f.
####:reg0x127c=0x4c314e31.
tia_cnt_i : 78 ,
tia_cnt_q : 1 ,
I:reg0x1150=0xb0f1f1b.
Q:reg0x1154=0x393d2327.
RX0 tia case :3,absolute value dc_i : -12 , value dc_q : -16 
####:reg0x127c=0x32007f.
####:reg0x1280=0x46394639.
tia_cnt_i : 70 ,
tia_cnt_q : 1 ,
I:reg0x1150=0xb0f1f1b.
Q:reg0x1154=0x393d2327.
RX0 tia case :4,absolute value dc_i : -12 , value dc_q : -16 
####:reg0x1280=0x3a007f.
####:reg0x1284=0x463b4a37.
tia_cnt_i : 72 ,
tia_cnt_q : 68 ,
I:reg0x1150=0xb0f1f1b.
Q:reg0x1154=0x393d2327.
RX0 tia case :5,absolute value dc_i : -12 , value dc_q : -16 
####:reg0x1284=0x27f027f.
####:reg0x1288=0x3c41463b.
tia_cnt_i : 68 ,
tia_cnt_q : 62 ,
I:reg0x1150=0xb0f1f1b.
Q:reg0x1154=0x393d2327.
RX0 tia case :6,absolute value dc_i : -12 , value dc_q : -16 
####:reg0x1288=0x27f027f.
####:reg0x128c=0x3e433e41.
tia_cnt_i : 62 ,
tia_cnt_q : 1 ,
I:reg0x1150=0xb0f1f1b.
Q:reg0x1154=0x393d2327.
RX0 tia case :7,absolute value dc_i : -12 , value dc_q : -16 
####:reg0x128c=0x44007f.
####:reg0x1290=0x3c433c43.
tia_cnt_i : 60 ,
tia_cnt_q : 1 ,
I:reg0x1150=0xb0f1f1b.
Q:reg0x1154=0x393d2327.
RX0 tia case :8,absolute value dc_i : -11 , value dc_q : -16 
####:reg0x1290=0x44007f.
####:reg0x1294=0x3c433a45.
tia_cnt_i : 58 ,
tia_cnt_q : 1 ,
I:reg0x1150=0xb0f1f1b.
Q:reg0x1154=0x393d2327.
RX0 tia case :9,absolute value dc_i : -12 , value dc_q : -16 
####:reg0x1294=0x44007f.
####:reg0x1298=0x3c433a45.
tia_cnt_i : 58 ,
tia_cnt_q : 1 ,
I:reg0x1150=0xb0f1f1b.
Q:reg0x1154=0x393d2327.
RX0 tia case :10,absolute value dc_i : -12 , value dc_q : -16 
####:reg0x1298=0x44007f.
####:reg0x129c=0x3c433a45.
tia_cnt_i : 58 ,
tia_cnt_q : 1 ,
I:reg0x1150=0xb0f1f1b.
Q:reg0x1154=0x393d2327.
RX0 tia case :11,absolute value dc_i : -12 , value dc_q : -16 
####:reg0x129c=0x44007f.
####:reg0x12a0=0x3c433a45.
tia_cnt_i : 58 ,
tia_cnt_q : 1 ,
I:reg0x1150=0xb0f1f1b.
Q:reg0x1154=0x393d2327.
RX0 tia case :12,absolute value dc_i : -11 , value dc_q : -16 
####:reg0x12a0=0x44007f.
rx1 tia cali begin:
Q:reg0x12b0=0x6a156a15.
 RX1 :reg0x1130=0x6a156a15.
tia_cnt_i : 106 ,
tia_cnt_q : 1 ,
RX1 tia case :0,absolute value dc_i : -16 , value dc_q : -16 
RX1:reg0x12b0=0x16007f.
Q:reg0x12b4=0x6619661b.
 RX1 :reg0x1130=0x661b6619.
tia_cnt_i : 100 ,
tia_cnt_q : 102 ,
RX1 tia case :1,absolute value dc_i : -16 , value dc_q : -16 
RX1:reg0x12b4=0x27f027f.
Q:reg0x12b8=0x621d661b.
 RX1 :reg0x1130=0x661b621d.
tia_cnt_i : 100 ,
tia_cnt_q : 98 ,
RX1 tia case :2,absolute value dc_i : -16 , value dc_q : -16 
RX1:reg0x12b8=0x27f027f.
Q:reg0x12bc=0x621f621f.
 RX1 :reg0x1130=0x621f621f.
tia_cnt_i : 96 ,
tia_cnt_q : 96 ,
RX1 tia case :3,absolute value dc_i : -16 , value dc_q : -16 
RX1:reg0x12bc=0x27f027f.
Q:reg0x12c0=0x5c215c23.
 RX1 :reg0x1130=0x5c235c21.
tia_cnt_i : 92 ,
tia_cnt_q : 1 ,
RX1 tia case :4,absolute value dc_i : -16 , value dc_q : -16 
RX1:reg0x12c0=0x22007f.
Q:reg0x12c4=0x56295827.
 RX1 :reg0x1130=0x58275629.
tia_cnt_i : 88 ,
tia_cnt_q : 1 ,
RX1 tia case :5,absolute value dc_i : -16 , value dc_q : -16 
RX1:reg0x12c4=0x2a007f.
Q:reg0x12c8=0x562b5629.
 RX1 :reg0x1130=0x5629562b.
tia_cnt_i : 86 ,
tia_cnt_q : 1 ,
RX1 tia case :6,absolute value dc_i : -16 , value dc_q : -16 
RX1:reg0x12c8=0x2c007f.
Q:reg0x12cc=0x542b5629.
 RX1 :reg0x1130=0x5629542b.
tia_cnt_i : 86 ,
tia_cnt_q : 1 ,
RX1 tia case :7,absolute value dc_i : -16 , value dc_q : -16 
RX1:reg0x12cc=0x2c007f.
Q:reg0x12d0=0x522d542b.
 RX1 :reg0x1130=0x542b522d.
tia_cnt_i : 84 ,
tia_cnt_q : 1 ,
RX1 tia case :8,absolute value dc_i : -16 , value dc_q : -16 
RX1:reg0x12d0=0x2e007f.
Q:reg0x12d4=0x4e31522d.
 RX1 :reg0x1130=0x522d4e31.
tia_cnt_i : 82 ,
tia_cnt_q : 1 ,
RX1 tia case :9,absolute value dc_i : -16 , value dc_q : -16 
RX1:reg0x12d4=0x32007f.
Q:reg0x12d8=0x502d522d.
 RX1 :reg0x1130=0x522d502d.
tia_cnt_i : 82 ,
tia_cnt_q : 1 ,
RX1 tia case :10,absolute value dc_i : -16 , value dc_q : -16 
RX1:reg0x12d8=0x2e007f.
Q:reg0x12dc=0x522f522d.
 RX1 :reg0x1130=0x522d522f.
tia_cnt_i : 82 ,
tia_cnt_q : 1 ,
RX1 tia case :11,absolute value dc_i : -16 , value dc_q : -16 
RX1:reg0x12dc=0x30007f.
Q:reg0x12e0=0x522f522d.
 RX1 :reg0x1130=0x522d522f.
tia_cnt_i : 82 ,
tia_cnt_q : 1 ,
RX1 tia case :12,absolute value dc_i : -16 , value dc_q : -16 
RX1:reg0x12e0=0x30007f.
tia calibration end!
rx0 vga calibration begin
reg0x1120=0x3fc100.
vga case:1 pass.
RX0 vga case:1 ,absolute value dc_i_tmp : 13 , value dc_q_tmp : 15 ,I:reg0x1184=0xb0f2913.   Q:reg0x11c0=0x393d2327.
vga case:2 pass.
RX0 vga case:2 ,absolute value dc_i_tmp : 13 , value dc_q_tmp : 15 ,I:reg0x1188=0xd0f2711.   Q:reg0x11c4=0x393b2729.
vga case:3 pass.
RX0 vga case:3 ,absolute value dc_i_tmp : 12 , value dc_q_tmp : 15 ,I:reg0x118c=0xd0f2913.   Q:reg0x11c8=0x393d2327.
vga case:4 pass.
RX0 vga case:4 ,absolute value dc_i_tmp : 12 , value dc_q_tmp : 15 ,I:reg0x1190=0xd0f2913.   Q:reg0x11cc=0x373d2327.
vga case:5 pass.
RX0 vga case:5 ,absolute value dc_i_tmp : 13 , value dc_q_tmp : 15 ,I:reg0x1194=0xd0f2913.   Q:reg0x11d0=0x373d2327.
vga case:6 pass.
RX0 vga case:6 ,absolute value dc_i_tmp : 13 , value dc_q_tmp : 15 ,I:reg0x1198=0xd0f2913.   Q:reg0x11d4=0x373d2327.
vga case:7 pass.
RX0 vga case:7 ,absolute value dc_i_tmp : 13 , value dc_q_tmp : 15 ,I:reg0x119c=0xd0f2913.   Q:reg0x11d8=0x393f2327.
vga case:8 pass.
RX0 vga case:8 ,absolute value dc_i_tmp : 13 , value dc_q_tmp : 15 ,I:reg0x11a0=0x110d290f.   Q:reg0x11dc=0x393d2529.
vga case:9 pass.
RX0 vga case:9 ,absolute value dc_i_tmp : 13 , value dc_q_tmp : 15 ,I:reg0x11a4=0x7112d0f.   Q:reg0x11e0=0x373f2329.
vga case:10 pass.
RX0 vga case:10 ,absolute value dc_i_tmp : 13 , value dc_q_tmp : 15 ,I:reg0x11a8=0x110f310b.   Q:reg0x11e4=0x3b392329.
vga case:11 pass.
RX0 vga case:11 ,absolute value dc_i_tmp : 13 , value dc_q_tmp : 15 ,I:reg0x11ac=0xf113305.   Q:reg0x11e8=0x3939232b.
vga case:12 pass.
RX0 vga case:12 ,absolute value dc_i_tmp : 12 , value dc_q_tmp : 15 ,I:reg0x11b0=0x170f3901.   Q:reg0x11ec=0x3b3b232d.
vga case:13 pass.
RX0 vga case:13 ,absolute value dc_i_tmp : 12 , value dc_q_tmp : 15 ,I:reg0x11b4=0x11f3f01.   Q:reg0x11f0=0x3d39212d.
vga case:14 pass.
RX0 vga case:14 ,absolute value dc_i_tmp : 12 , value dc_q_tmp : 15 ,I:reg0x11b8=0x13f3f01.   Q:reg0x11f4=0x373d1d2f.
rx1 vga calibration begin
rx1 vga case:1 pass.
RX1 vga case:1 ,absolute value dc_i_tmp : 15 , value dc_q_tmp : 15 ,I:reg0x11fc=0x39352129. Q:reg0x1238=0x2f251d17.
rx1 vga case:2 pass.
RX1 vga case:2 ,absolute value dc_i_tmp : 15 , value dc_q_tmp : 15 ,I:reg0x1200=0x39352129. Q:reg0x123c=0x2f251d17.
rx1 vga case:3 pass.
RX1 vga case:3 ,absolute value dc_i_tmp : 15 , value dc_q_tmp : 15 ,I:reg0x1204=0x39352129. Q:reg0x1240=0x31251d17.
rx1 vga case:4 pass.
RX1 vga case:4 ,absolute value dc_i_tmp : 15 , value dc_q_tmp : 15 ,I:reg0x1208=0x39352129. Q:reg0x1244=0x33271d17.
rx1 vga case:5 pass.
RX1 vga case:5 ,absolute value dc_i_tmp : 15 , value dc_q_tmp : 15 ,I:reg0x120c=0x3b372129. Q:reg0x1248=0x31251d17.
rx1 vga case:6 pass.
RX1 vga case:6 ,absolute value dc_i_tmp : 15 , value dc_q_tmp : 15 ,I:reg0x1210=0x3b351f27. Q:reg0x124c=0x31251d17.
rx1 vga case:7 pass.
RX1 vga case:7 ,absolute value dc_i_tmp : 15 , value dc_q_tmp : 15 ,I:reg0x1214=0x3b331f27. Q:reg0x1250=0x33251d17.
rx1 vga case:8 pass.
RX1 vga case:8 ,absolute value dc_i_tmp : 15 , value dc_q_tmp : 15 ,I:reg0x1218=0x39331f29. Q:reg0x1254=0x2f291d17.
rx1 vga case:9 pass.
RX1 vga case:9 ,absolute value dc_i_tmp : 15 , value dc_q_tmp : 15 ,I:reg0x121c=0x3b371d2b. Q:reg0x1258=0x31232117.
rx1 vga case:10 pass.
RX1 vga case:10 ,absolute value dc_i_tmp : 15 , value dc_q_tmp : 15 ,I:reg0x1220=0x39351b2d. Q:reg0x125c=0x33252115.
rx1 vga case:11 pass.
RX1 vga case:11 ,absolute value dc_i_tmp : 15 , value dc_q_tmp : 15 ,I:reg0x1224=0x3d31192f. Q:reg0x1260=0x2f292113.
rx1 vga case:12 pass.
RX1 vga case:12 ,absolute value dc_i_tmp : 15 , value dc_q_tmp : 15 ,I:reg0x1228=0x3f331733. Q:reg0x1264=0x33252513.
rx1 vga case:13 pass.
RX1 vga case:13 ,absolute value dc_i_tmp : 15 , value dc_q_tmp : 15 ,I:reg0x122c=0x3d331337. Q:reg0x1268=0x31252711.
rx1 vga case:14 pass.
RX1 vga case:14 ,absolute value dc_i_tmp : 15 , value dc_q_tmp : 15 ,I:reg0x1230=0x3d31093d. Q:reg0x126c=0x33272b0d.
reg0x1120=0x3c0100.
vga calibration end!
RX0: 0x103c : e0010000 ,0x1040 : 40001102 
RX1: 0x1054 : e0010000 ,0x1058 : 40001100 
THIS CASE J: 0 M: 4 
adc calibration begin
calibration begin
RX0 cali pre ,absolute value dc_i_tmp : 1 , value dc_q_tmp : 0 ,
reg0x1180=0x3b3f0503.
reg0x11bc=0x393b2729.
RX1 cali pre ,absolute value dc_i_tmp : 5 , value dc_q_tmp : 8 ,reg0x11f8=0x3b372327.
reg0x1234=0x3127191d.
rx0 tia cali begin:
####:reg0x1270=0x522f5825.
tia_cnt_i : 0 ,
tia_cnt_q : 0 ,
I:reg0x1150=0x3b3f0503.
Q:reg0x1154=0x393b2729.
RX0 tia case :0,absolute value dc_i : 0 , value dc_q : 1 
####:reg0x1270=0x522f5825.
####:reg0x1274=0x522d5825.
tia_cnt_i : 0 ,
tia_cnt_q : 1 ,
I:reg0x1150=0x3b3f0503.
Q:reg0x1154=0x393b2729.
RX0 tia case :1,absolute value dc_i : 0 , value dc_q : 1 
####:reg0x1274=0x582c5825.
####:reg0x1278=0x4e315429.
tia_cnt_i : 0 ,
tia_cnt_q : 36 ,
I:reg0x1150=0x3b3f0503.
Q:reg0x1154=0x393b2729.
RX0 tia case :2,absolute value dc_i : 0 , value dc_q : 1 
####:reg0x1278=0x540d5429.
####:reg0x127c=0x4c31562b.
tia_cnt_i : 0 ,
tia_cnt_q : 49 ,
I:reg0x1150=0x3b3f0503.
Q:reg0x1154=0x393b2729.
RX0 tia case :3,absolute value dc_i : 0 , value dc_q : 2 
####:reg0x127c=0x5600562b.
####:reg0x1280=0x44394639.
tia_cnt_i : 0 ,
tia_cnt_q : 57 ,
I:reg0x1150=0x3b3f0503.
Q:reg0x1154=0x393b2729.
RX0 tia case :4,absolute value dc_i : -1 , value dc_q : 2 
####:reg0x1280=0x46004639.
####:reg0x1284=0x44394639.
tia_cnt_i : 0 ,
tia_cnt_q : 57 ,
I:reg0x1150=0x3b3f0503.
Q:reg0x1154=0x393b2729.
RX0 tia case :5,absolute value dc_i : 0 , value dc_q : 3 
####:reg0x1284=0x46004639.
####:reg0x1288=0x3e41463b.
tia_cnt_i : 0 ,
tia_cnt_q : 65 ,
I:reg0x1150=0x3b3f0503.
Q:reg0x1154=0x393b2729.
RX0 tia case :6,absolute value dc_i : -1 , value dc_q : 3 
####:reg0x1288=0x4600463b.
####:reg0x128c=0x3e413e41.
tia_cnt_i : 0 ,
tia_cnt_q : 65 ,
I:reg0x1150=0x3b3f0503.
Q:reg0x1154=0x393b2729.
RX0 tia case :7,absolute value dc_i : 0 , value dc_q : 3 
####:reg0x128c=0x3e003e41.
####:reg0x1290=0x3a453a45.
tia_cnt_i : 0 ,
tia_cnt_q : 69 ,
I:reg0x1150=0x3b3f0503.
Q:reg0x1154=0x393b2729.
RX0 tia case :8,absolute value dc_i : -1 , value dc_q : 3 
####:reg0x1290=0x3a003a45.
####:reg0x1294=0x3a453a45.
tia_cnt_i : 0 ,
tia_cnt_q : 69 ,
I:reg0x1150=0x3b3f0503.
Q:reg0x1154=0x393b2729.
RX0 tia case :9,absolute value dc_i : 0 , value dc_q : 3 
####:reg0x1294=0x3a003a45.
####:reg0x1298=0x3c433c43.
tia_cnt_i : 0 ,
tia_cnt_q : 67 ,
I:reg0x1150=0x3b3f0503.
Q:reg0x1154=0x393b2729.
RX0 tia case :10,absolute value dc_i : 0 , value dc_q : 3 
####:reg0x1298=0x3c003c43.
####:reg0x129c=0x3c433a45.
tia_cnt_i : 0 ,
tia_cnt_q : 67 ,
I:reg0x1150=0x3b3f0503.
Q:reg0x1154=0x393b2729.
RX0 tia case :11,absolute value dc_i : -1 , value dc_q : 3 
####:reg0x129c=0x3a003a45.
####:reg0x12a0=0x3c433a45.
tia_cnt_i : 0 ,
tia_cnt_q : 67 ,
I:reg0x1150=0x3b3f0503.
Q:reg0x1154=0x393b2729.
RX0 tia case :12,absolute value dc_i : -1 , value dc_q : 3 
####:reg0x12a0=0x3a003a45.
rx1 tia cali begin:
Q:reg0x12b0=0x68156a17.
 RX1 :reg0x1130=0x6a176815.
tia_cnt_i : 0 ,
tia_cnt_q : 106 ,
RX1 tia case :0,absolute value dc_i : 0 , value dc_q : -4 
RX1:reg0x12b0=0x6a7f6a17.
Q:reg0x12b4=0x68176619.
 RX1 :reg0x1130=0x66196817.
tia_cnt_i : 0 ,
tia_cnt_q : 104 ,
RX1 tia case :1,absolute value dc_i : -1 , value dc_q : -5 
RX1:reg0x12b4=0x667f6619.
Q:reg0x12b8=0x641b661b.
 RX1 :reg0x1130=0x661b641b.
tia_cnt_i : 0 ,
tia_cnt_q : 100 ,
RX1 tia case :2,absolute value dc_i : -1 , value dc_q : -6 
RX1:reg0x12b8=0x667f661b.
Q:reg0x12bc=0x641b601d.
 RX1 :reg0x1130=0x601d641b.
tia_cnt_i : 28 ,
tia_cnt_q : 100 ,
RX1 tia case :3,absolute value dc_i : -1 , value dc_q : -6 
RX1:reg0x12bc=0x447f4439.
Q:reg0x12c0=0x5c235c23.
 RX1 :reg0x1130=0x5c235c23.
tia_cnt_i : 92 ,
tia_cnt_q : 1 ,
RX1 tia case :4,absolute value dc_i : -2 , value dc_q : -7 
RX1:reg0x12c0=0x24007f.
Q:reg0x12c4=0x56295827.
 RX1 :reg0x1130=0x58275629.
tia_cnt_i : 88 ,
tia_cnt_q : 1 ,
RX1 tia case :5,absolute value dc_i : -2 , value dc_q : -7 
RX1:reg0x12c4=0x2a007f.
Q:reg0x12c8=0x562b5827.
 RX1 :reg0x1130=0x5827562b.
tia_cnt_i : 88 ,
tia_cnt_q : 1 ,
RX1 tia case :6,absolute value dc_i : -2 , value dc_q : -7 
RX1:reg0x12c8=0x2c007f.
Q:reg0x12cc=0x542b562b.
 RX1 :reg0x1130=0x562b542b.
tia_cnt_i : 84 ,
tia_cnt_q : 84 ,
RX1 tia case :7,absolute value dc_i : -2 , value dc_q : -6 
RX1:reg0x12cc=0x27f027f.
Q:reg0x12d0=0x522d542b.
 RX1 :reg0x1130=0x542b522d.
tia_cnt_i : 84 ,
tia_cnt_q : 1 ,
RX1 tia case :8,absolute value dc_i : -2 , value dc_q : -7 
RX1:reg0x12d0=0x2e007f.
Q:reg0x12d4=0x502d542b.
 RX1 :reg0x1130=0x542b502d.
tia_cnt_i : 84 ,
tia_cnt_q : 1 ,
RX1 tia case :9,absolute value dc_i : -2 , value dc_q : -7 
RX1:reg0x12d4=0x2e007f.
Q:reg0x12d8=0x522d522d.
 RX1 :reg0x1130=0x522d522d.
tia_cnt_i : 82 ,
tia_cnt_q : 1 ,
RX1 tia case :10,absolute value dc_i : -2 , value dc_q : -7 
RX1:reg0x12d8=0x2e007f.
Q:reg0x12dc=0x522d522d.
 RX1 :reg0x1130=0x522d522d.
tia_cnt_i : 82 ,
tia_cnt_q : 1 ,
RX1 tia case :11,absolute value dc_i : -2 , value dc_q : -7 
RX1:reg0x12dc=0x2e007f.
Q:reg0x12e0=0x522d542b.
 RX1 :reg0x1130=0x542b522d.
tia_cnt_i : 84 ,
tia_cnt_q : 1 ,
RX1 tia case :12,absolute value dc_i : -2 , value dc_q : -7 
RX1:reg0x12e0=0x2e007f.
tia calibration end!
rx0 vga calibration begin
reg0x1120=0x3fc100.
vga case:1 pass.
RX0 vga case:1 ,absolute value dc_i_tmp : 2 , value dc_q_tmp : 1 ,I:reg0x1184=0xb0f1f1b.   Q:reg0x11c0=0x373b2527.
vga case:2 pass.
RX0 vga case:2 ,absolute value dc_i_tmp : 2 , value dc_q_tmp : 1 ,I:reg0x1188=0xb0f1f1b.   Q:reg0x11c4=0x393b2527.
vga case:3 pass.
RX0 vga case:3 ,absolute value dc_i_tmp : 2 , value dc_q_tmp : 0 ,I:reg0x118c=0xb0f1f1b.   Q:reg0x11c8=0x393b2527.
vga case:4 pass.
RX0 vga case:4 ,absolute value dc_i_tmp : 2 , value dc_q_tmp : 0 ,I:reg0x1190=0xb0f1f1b.   Q:reg0x11cc=0x393b2527.
vga case:5 pass.
RX0 vga case:5 ,absolute value dc_i_tmp : 2 , value dc_q_tmp : 0 ,I:reg0x1194=0xb0f1f1b.   Q:reg0x11d0=0x393b2527.
vga case:6 pass.
RX0 vga case:6 ,absolute value dc_i_tmp : 2 , value dc_q_tmp : 1 ,I:reg0x1198=0xd0f1f1b.   Q:reg0x11d4=0x393b2527.
vga case:7 pass.
RX0 vga case:7 ,absolute value dc_i_tmp : 2 , value dc_q_tmp : 1 ,I:reg0x119c=0xb0d1f1b.   Q:reg0x11d8=0x39392527.
vga case:8 pass.
RX0 vga case:8 ,absolute value dc_i_tmp : 2 , value dc_q_tmp : 0 ,I:reg0x11a0=0x90d1f1b.   Q:reg0x11dc=0x373d2327.
vga case:9 pass.
RX0 vga case:9 ,absolute value dc_i_tmp : 2 , value dc_q_tmp : 1 ,I:reg0x11a4=0xf0f1f1b.   Q:reg0x11e0=0x353b2529.
vga case:10 pass.
RX0 vga case:10 ,absolute value dc_i_tmp : 1 , value dc_q_tmp : 0 ,I:reg0x11a8=0xd0d1f1b.   Q:reg0x11e4=0x3f392529.
vga case:11 pass.
RX0 vga case:11 ,absolute value dc_i_tmp : 1 , value dc_q_tmp : 1 ,I:reg0x11ac=0xd0d1f1b.   Q:reg0x11e8=0x333d232b.
vga case:12 pass.
RX0 vga case:12 ,absolute value dc_i_tmp : 0 , value dc_q_tmp : 1 ,I:reg0x11b0=0xd0d1f1b.   Q:reg0x11ec=0x3739232b.
vga case:13 pass.
RX0 vga case:13 ,absolute value dc_i_tmp : 1 , value dc_q_tmp : 0 ,I:reg0x11b4=0xf0d211d.   Q:reg0x11f0=0x3f3d232d.
vga case:14 pass.
RX0 vga case:14 ,absolute value dc_i_tmp : 1 , value dc_q_tmp : 1 ,I:reg0x11b8=0x7131d1b.   Q:reg0x11f4=0x3739212f.
rx1 vga calibration begin
rx1 vga case:1 pass.
RX1 vga case:1 ,absolute value dc_i_tmp : 5 , value dc_q_tmp : 8 ,I:reg0x11fc=0x39352325. Q:reg0x1238=0x31271f17.
rx1 vga case:2 pass.
RX1 vga case:2 ,absolute value dc_i_tmp : 5 , value dc_q_tmp : 8 ,I:reg0x1200=0x39372327. Q:reg0x123c=0x31271f17.
rx1 vga case:3 pass.
RX1 vga case:3 ,absolute value dc_i_tmp : 5 , value dc_q_tmp : 8 ,I:reg0x1204=0x39372125. Q:reg0x1240=0x31271f17.
rx1 vga case:4 pass.
RX1 vga case:4 ,absolute value dc_i_tmp : 4 , value dc_q_tmp : 8 ,I:reg0x1208=0x39372327. Q:reg0x1244=0x31271f17.
rx1 vga case:5 pass.
RX1 vga case:5 ,absolute value dc_i_tmp : 4 , value dc_q_tmp : 8 ,I:reg0x120c=0x39372327. Q:reg0x1248=0x2f251f17.
rx1 vga case:6 pass.
RX1 vga case:6 ,absolute value dc_i_tmp : 5 , value dc_q_tmp : 8 ,I:reg0x1210=0x37372327. Q:reg0x124c=0x31251f17.
rx1 vga case:7 pass.
RX1 vga case:7 ,absolute value dc_i_tmp : 4 , value dc_q_tmp : 8 ,I:reg0x1214=0x37372327. Q:reg0x1250=0x33271f17.
rx1 vga case:8 pass.
RX1 vga case:8 ,absolute value dc_i_tmp : 4 , value dc_q_tmp : 8 ,I:reg0x1218=0x3b352327. Q:reg0x1254=0x33251f15.
rx1 vga case:9 pass.
RX1 vga case:9 ,absolute value dc_i_tmp : 4 , value dc_q_tmp : 8 ,I:reg0x121c=0x3d372127. Q:reg0x1258=0x2f292115.
rx1 vga case:10 pass.
RX1 vga case:10 ,absolute value dc_i_tmp : 4 , value dc_q_tmp : 8 ,I:reg0x1220=0x39372129. Q:reg0x125c=0x33292313.
rx1 vga case:11 pass.
RX1 vga case:11 ,absolute value dc_i_tmp : 4 , value dc_q_tmp : 8 ,I:reg0x1224=0x3b351f29. Q:reg0x1260=0x2f272511.
rx1 vga case:12 pass.
RX1 vga case:12 ,absolute value dc_i_tmp : 4 , value dc_q_tmp : 8 ,I:reg0x1228=0x37371d2b. Q:reg0x1264=0x2f27270f.
rx1 vga case:13 pass.
RX1 vga case:13 ,absolute value dc_i_tmp : 4 , value dc_q_tmp : 7 ,I:reg0x122c=0x3d311d2d. Q:reg0x1268=0x33252b0d.
rx1 vga case:14 pass.
RX1 vga case:14 ,absolute value dc_i_tmp : 4 , value dc_q_tmp : 7 ,I:reg0x1230=0x3b311931. Q:reg0x126c=0x37253107.
reg0x1120=0x3c0100.
vga calibration end!
RX0: 0x103c : e0014000 ,0x1040 : 50001102 
RX1: 0x1054 : e0014000 ,0x1058 : 50001100 
THIS CASE J: 0 M: 5 
adc calibration begin
calibration begin
RX0 cali pre ,absolute value dc_i_tmp : 0 , value dc_q_tmp : 1 ,
reg0x1180=0xb0f1f1b.
reg0x11bc=0x373b2527.
RX1 cali pre ,absolute value dc_i_tmp : 1 , value dc_q_tmp : 0 ,reg0x11f8=0x39352327.
reg0x1234=0x3127191d.
rx0 tia cali begin:
####:reg0x1270=0x542b5a27.
tia_cnt_i : 0 ,
tia_cnt_q : 12 ,
I:reg0x1150=0xb0f1f1b.
Q:reg0x1154=0x373b2527.
RX0 tia case :0,absolute value dc_i : 0 , value dc_q : -1 
####:reg0x1270=0x5a375a27.
####:reg0x1274=0x502d5a27.
tia_cnt_i : 0 ,
tia_cnt_q : 0 ,
I:reg0x1150=0xb0f1f1b.
Q:reg0x1154=0x373b2527.
RX0 tia case :1,absolute value dc_i : 0 , value dc_q : 0 
####:reg0x1274=0x502d5a27.
####:reg0x1278=0x502f562b.
tia_cnt_i : 0 ,
tia_cnt_q : 0 ,
I:reg0x1150=0xb0f1f1b.
Q:reg0x1154=0x373b2527.
RX0 tia case :2,absolute value dc_i : 0 , value dc_q : 0 
####:reg0x1278=0x502f562b.
####:reg0x127c=0x4e334e31.
tia_cnt_i : 0 ,
tia_cnt_q : 0 ,
I:reg0x1150=0xb0f1f1b.
Q:reg0x1154=0x373b2527.
RX0 tia case :3,absolute value dc_i : 0 , value dc_q : 0 
####:reg0x127c=0x4e334e31.
####:reg0x1280=0x443b4837.
tia_cnt_i : 0 ,
tia_cnt_q : 0 ,
I:reg0x1150=0xb0f1f1b.
Q:reg0x1154=0x373b2527.
RX0 tia case :4,absolute value dc_i : 0 , value dc_q : 1 
####:reg0x1280=0x443b4837.
####:reg0x1284=0x44394639.
tia_cnt_i : 0 ,
tia_cnt_q : 0 ,
I:reg0x1150=0xb0f1f1b.
Q:reg0x1154=0x373b2527.
RX0 tia case :5,absolute value dc_i : 0 , value dc_q : 1 
####:reg0x1284=0x44394639.
####:reg0x1288=0x3e413e41.
tia_cnt_i : 0 ,
tia_cnt_q : 0 ,
I:reg0x1150=0xb0f1f1b.
Q:reg0x1154=0x373b2527.
RX0 tia case :6,absolute value dc_i : 0 , value dc_q : 1 
####:reg0x1288=0x3e413e41.
####:reg0x128c=0x3c413e41.
tia_cnt_i : 0 ,
tia_cnt_q : 0 ,
I:reg0x1150=0xb0f1f1b.
Q:reg0x1154=0x373b2527.
RX0 tia case :7,absolute value dc_i : 0 , value dc_q : 1 
####:reg0x128c=0x3c413e41.
####:reg0x1290=0x3c433e43.
tia_cnt_i : 0 ,
tia_cnt_q : 0 ,
I:reg0x1150=0xb0f1f1b.
Q:reg0x1154=0x373b2527.
RX0 tia case :8,absolute value dc_i : 0 , value dc_q : 1 
####:reg0x1290=0x3c433e43.
####:reg0x1294=0x3c433a45.
tia_cnt_i : 0 ,
tia_cnt_q : 0 ,
I:reg0x1150=0xb0f1f1b.
Q:reg0x1154=0x373b2527.
RX0 tia case :9,absolute value dc_i : 0 , value dc_q : 1 
####:reg0x1294=0x3c433a45.
####:reg0x1298=0x3a453845.
tia_cnt_i : 0 ,
tia_cnt_q : 0 ,
I:reg0x1150=0xb0f1f1b.
Q:reg0x1154=0x373b2527.
RX0 tia case :10,absolute value dc_i : 0 , value dc_q : 1 
####:reg0x1298=0x3a453845.
####:reg0x129c=0x3c433a45.
tia_cnt_i : 0 ,
tia_cnt_q : 0 ,
I:reg0x1150=0xb0f1f1b.
Q:reg0x1154=0x373b2527.
RX0 tia case :11,absolute value dc_i : 0 , value dc_q : 1 
####:reg0x129c=0x3c433a45.
####:reg0x12a0=0x3c433a45.
tia_cnt_i : 0 ,
tia_cnt_q : 0 ,
I:reg0x1150=0xb0f1f1b.
Q:reg0x1154=0x373b2527.
RX0 tia case :12,absolute value dc_i : 0 , value dc_q : 1 
####:reg0x12a0=0x3c433a45.
rx1 tia cali begin:
Q:reg0x12b0=0x68156a15.
 RX1 :reg0x1130=0x6a156815.
tia_cnt_i : 21 ,
tia_cnt_q : 23 ,
RX1 tia case :0,absolute value dc_i : 6 , value dc_q : -1 
RX1:reg0x12b0=0x7f2c7f00.
Q:reg0x12b4=0x66196619.
 RX1 :reg0x1130=0x66196619.
tia_cnt_i : 25 ,
tia_cnt_q : 0 ,
RX1 tia case :1,absolute value dc_i : 5 , value dc_q : 1 
RX1:reg0x12b4=0x66197f00.
Q:reg0x12b8=0x641b641b.
 RX1 :reg0x1130=0x641b641b.
tia_cnt_i : 27 ,
tia_cnt_q : 1 ,
RX1 tia case :2,absolute value dc_i : 4 , value dc_q : 1 
RX1:reg0x12b8=0x7f1a7f00.
Q:reg0x12bc=0x621d5e21.
 RX1 :reg0x1130=0x5e21621d.
tia_cnt_i : 33 ,
tia_cnt_q : 1 ,
RX1 tia case :3,absolute value dc_i : 4 , value dc_q : 2 
RX1:reg0x12bc=0x7f1c7f00.
Q:reg0x12c0=0x5c235a25.
 RX1 :reg0x1130=0x5a255c23.
tia_cnt_i : 37 ,
tia_cnt_q : 1 ,
RX1 tia case :4,absolute value dc_i : 3 , value dc_q : 2 
RX1:reg0x12c0=0x7f227f00.
Q:reg0x12c4=0x58275827.
 RX1 :reg0x1130=0x58275827.
tia_cnt_i : 39 ,
tia_cnt_q : 1 ,
RX1 tia case :5,absolute value dc_i : 3 , value dc_q : 2 
RX1:reg0x12c4=0x7f267f00.
Q:reg0x12c8=0x54295629.
 RX1 :reg0x1130=0x56295429.
tia_cnt_i : 41 ,
tia_cnt_q : 1 ,
RX1 tia case :6,absolute value dc_i : 3 , value dc_q : 2 
RX1:reg0x12c8=0x7f287f00.
Q:reg0x12cc=0x542b5629.
 RX1 :reg0x1130=0x5629542b.
tia_cnt_i : 41 ,
tia_cnt_q : 1 ,
RX1 tia case :7,absolute value dc_i : 3 , value dc_q : 2 
RX1:reg0x12cc=0x7f2a7f00.
Q:reg0x12d0=0x542b542b.
 RX1 :reg0x1130=0x542b542b.
tia_cnt_i : 43 ,
tia_cnt_q : 1 ,
RX1 tia case :8,absolute value dc_i : 3 , value dc_q : 2 
RX1:reg0x12d0=0x7f2a7f00.
Q:reg0x12d4=0x522d522d.
 RX1 :reg0x1130=0x522d522d.
tia_cnt_i : 45 ,
tia_cnt_q : 1 ,
RX1 tia case :9,absolute value dc_i : 3 , value dc_q : 2 
RX1:reg0x12d4=0x7f2c7f00.
Q:reg0x12d8=0x522f522d.
 RX1 :reg0x1130=0x522d522f.
tia_cnt_i : 45 ,
tia_cnt_q : 1 ,
RX1 tia case :10,absolute value dc_i : 3 , value dc_q : 2 
RX1:reg0x12d8=0x7f2e7f00.
Q:reg0x12dc=0x522d542b.
 RX1 :reg0x1130=0x542b522d.
tia_cnt_i : 43 ,
tia_cnt_q : 1 ,
RX1 tia case :11,absolute value dc_i : 3 , value dc_q : 2 
RX1:reg0x12dc=0x7f2c7f00.
Q:reg0x12e0=0x522d522d.
 RX1 :reg0x1130=0x522d522d.
tia_cnt_i : 45 ,
tia_cnt_q : 1 ,
RX1 tia case :12,absolute value dc_i : 3 , value dc_q : 2 
RX1:reg0x12e0=0x7f2c7f00.
tia calibration end!
rx0 vga calibration begin
reg0x1120=0x3fc100.
vga case:1 pass.
RX0 vga case:1 ,absolute value dc_i_tmp : 0 , value dc_q_tmp : 1 ,I:reg0x1184=0xb0f1f1b.   Q:reg0x11c0=0x373d2327.
vga case:2 pass.
RX0 vga case:2 ,absolute value dc_i_tmp : 0 , value dc_q_tmp : 1 ,I:reg0x1188=0xb0f1f1b.   Q:reg0x11c4=0x373b2527.
vga case:3 pass.
RX0 vga case:3 ,absolute value dc_i_tmp : 0 , value dc_q_tmp : 0 ,I:reg0x118c=0xb0f1f1b.   Q:reg0x11c8=0x393b2527.
vga case:4 pass.
RX0 vga case:4 ,absolute value dc_i_tmp : 1 , value dc_q_tmp : 1 ,I:reg0x1190=0xb0f1f1b.   Q:reg0x11cc=0x393b2527.
vga case:5 pass.
RX0 vga case:5 ,absolute value dc_i_tmp : 1 , value dc_q_tmp : 1 ,I:reg0x1194=0xb0f1f1b.   Q:reg0x11d0=0x393b2527.
vga case:6 pass.
RX0 vga case:6 ,absolute value dc_i_tmp : 0 , value dc_q_tmp : 1 ,I:reg0x1198=0xd0f1f1b.   Q:reg0x11d4=0x393b2527.
vga case:7 pass.
RX0 vga case:7 ,absolute value dc_i_tmp : 0 , value dc_q_tmp : 1 ,I:reg0x119c=0xd0d1f1b.   Q:reg0x11d8=0x39392527.
vga case:8 pass.
RX0 vga case:8 ,absolute value dc_i_tmp : 1 , value dc_q_tmp : 1 ,I:reg0x11a0=0xd0d1f1b.   Q:reg0x11dc=0x3d392527.
vga case:9 pass.
RX0 vga case:9 ,absolute value dc_i_tmp : 0 , value dc_q_tmp : 0 ,I:reg0x11a4=0x7151d1b.   Q:reg0x11e0=0x3d3d2529.
vga case:10 pass.
RX0 vga case:10 ,absolute value dc_i_tmp : 0 , value dc_q_tmp : 1 ,I:reg0x11a8=0xf0d1f1b.   Q:reg0x11e4=0x3f392529.
vga case:11 pass.
RX0 vga case:11 ,absolute value dc_i_tmp : 1 , value dc_q_tmp : 1 ,I:reg0x11ac=0x3111d1b.   Q:reg0x11e8=0x373f2129.
vga case:12 pass.
RX0 vga case:12 ,absolute value dc_i_tmp : 1 , value dc_q_tmp : 1 ,I:reg0x11b0=0x110d1f1b.   Q:reg0x11ec=0x393d232b.
vga case:13 pass.
RX0 vga case:13 ,absolute value dc_i_tmp : 0 , value dc_q_tmp : 1 ,I:reg0x11b4=0x7111d1b.   Q:reg0x11f0=0x2b3f1f2b.
vga case:14 pass.
RX0 vga case:14 ,absolute value dc_i_tmp : 0 , value dc_q_tmp : 1 ,I:reg0x11b8=0x709211d.   Q:reg0x11f4=0x3739212f.
rx1 vga calibration begin
rx1 vga case:1 pass.
RX1 vga case:1 ,absolute value dc_i_tmp : 2 , value dc_q_tmp : 0 ,I:reg0x11fc=0x37351f29. Q:reg0x1238=0x3127191d.
rx1 vga case:2 pass.
RX1 vga case:2 ,absolute value dc_i_tmp : 2 , value dc_q_tmp : 0 ,I:reg0x1200=0x39371f29. Q:reg0x123c=0x2f25191d.
rx1 vga case:3 pass.
RX1 vga case:3 ,absolute value dc_i_tmp : 1 , value dc_q_tmp : 1 ,I:reg0x1204=0x37351f29. Q:reg0x1240=0x3127191d.
rx1 vga case:4 pass.
RX1 vga case:4 ,absolute value dc_i_tmp : 1 , value dc_q_tmp : 0 ,I:reg0x1208=0x39371f29. Q:reg0x1244=0x3125191d.
rx1 vga case:5 pass.
RX1 vga case:5 ,absolute value dc_i_tmp : 1 , value dc_q_tmp : 1 ,I:reg0x120c=0x39371f29. Q:reg0x1248=0x3125191d.
rx1 vga case:6 pass.
RX1 vga case:6 ,absolute value dc_i_tmp : 1 , value dc_q_tmp : 0 ,I:reg0x1210=0x37371f29. Q:reg0x124c=0x3125191d.
rx1 vga case:7 pass.
RX1 vga case:7 ,absolute value dc_i_tmp : 1 , value dc_q_tmp : 1 ,I:reg0x1214=0x35371f29. Q:reg0x1250=0x3125191d.
rx1 vga case:8 pass.
RX1 vga case:8 ,absolute value dc_i_tmp : 0 , value dc_q_tmp : 0 ,I:reg0x1218=0x3b351f2b. Q:reg0x1254=0x2f29171d.
rx1 vga case:9 pass.
RX1 vga case:9 ,absolute value dc_i_tmp : 1 , value dc_q_tmp : 1 ,I:reg0x121c=0x39351d2d. Q:reg0x1258=0x3323191f.
rx1 vga case:10 pass.
RX1 vga case:10 ,absolute value dc_i_tmp : 1 , value dc_q_tmp : 0 ,I:reg0x1220=0x39331b2f. Q:reg0x125c=0x3123171f.
rx1 vga case:11 pass.
RX1 vga case:11 ,absolute value dc_i_tmp : 1 , value dc_q_tmp : 1 ,I:reg0x1224=0x37351731. Q:reg0x1260=0x2f291521.
rx1 vga case:12 pass.
RX1 vga case:12 ,absolute value dc_i_tmp : 0 , value dc_q_tmp : 1 ,I:reg0x1228=0x3d331535. Q:reg0x1264=0x2f271321.
rx1 vga case:13 pass.
RX1 vga case:13 ,absolute value dc_i_tmp : 1 , value dc_q_tmp : 1 ,I:reg0x122c=0x3f310f37. Q:reg0x1268=0x35231323.
rx1 vga case:14 pass.
RX1 vga case:14 ,absolute value dc_i_tmp : 0 , value dc_q_tmp : 0 ,I:reg0x1230=0x3f2f053f. Q:reg0x126c=0x2f250f27.
reg0x1120=0x3c0100.
vga calibration end!
RX0: 0x103c : e0018000 ,0x1040 : 60001102 
RX1: 0x1054 : e0018000 ,0x1058 : 60001100 
THIS CASE J: 0 M: 6 
adc calibration begin
calibration begin
RX0 cali pre ,absolute value dc_i_tmp : 1 , value dc_q_tmp : 0 ,
reg0x1180=0x90f1f1b.
reg0x11bc=0x373b2327.
RX1 cali pre ,absolute value dc_i_tmp : 1 , value dc_q_tmp : 1 ,reg0x11f8=0x39352327.
reg0x1234=0x2f27191d.
rx0 tia cali begin:
####:reg0x1270=0x522d5c23.
tia_cnt_i : 8 ,
tia_cnt_q : 0 ,
I:reg0x1150=0x90f1f1b.
Q:reg0x1154=0x373b2327.
RX0 tia case :0,absolute value dc_i : -1 , value dc_q : 0 
####:reg0x1270=0x522d542b.
####:reg0x1274=0x542b5825.
tia_cnt_i : 7 ,
tia_cnt_q : 0 ,
I:reg0x1150=0x90f1f1b.
Q:reg0x1154=0x373b2327.
RX0 tia case :1,absolute value dc_i : -1 , value dc_q : 0 
####:reg0x1274=0x542b512c.
####:reg0x1278=0x4e31562b.
tia_cnt_i : 7 ,
tia_cnt_q : 10 ,
I:reg0x1150=0x90f1f1b.
Q:reg0x1154=0x373b2327.
RX0 tia case :2,absolute value dc_i : -1 , value dc_q : 1 
####:reg0x1278=0x4f274f32.
####:reg0x127c=0x4e334e31.
tia_cnt_i : 8 ,
tia_cnt_q : 11 ,
I:reg0x1150=0x90f1f1b.
Q:reg0x1154=0x373b2327.
RX0 tia case :3,absolute value dc_i : -1 , value dc_q : 1 
####:reg0x127c=0x46284639.
####:reg0x1280=0x44394837.
tia_cnt_i : 18 ,
tia_cnt_q : 33 ,
I:reg0x1150=0x90f1f1b.
Q:reg0x1154=0x373b2327.
RX0 tia case :4,absolute value dc_i : -1 , value dc_q : 1 
####:reg0x1280=0x36183649.
####:reg0x1284=0x44394837.
tia_cnt_i : 25 ,
tia_cnt_q : 57 ,
I:reg0x1150=0x90f1f1b.
Q:reg0x1154=0x373b2327.
RX0 tia case :5,absolute value dc_i : -1 , value dc_q : 2 
####:reg0x1284=0x2f002f50.
####:reg0x1288=0x3e41463b.
tia_cnt_i : 19 ,
tia_cnt_q : 42 ,
I:reg0x1150=0x90f1f1b.
Q:reg0x1154=0x373b2327.
RX0 tia case :6,absolute value dc_i : -1 , value dc_q : 1 
####:reg0x1288=0x3317334e.
####:reg0x128c=0x3e433c41.
tia_cnt_i : 8 ,
tia_cnt_q : 67 ,
I:reg0x1150=0x90f1f1b.
Q:reg0x1154=0x373b2327.
RX0 tia case :7,absolute value dc_i : -1 , value dc_q : 2 
####:reg0x128c=0x34003449.
####:reg0x1290=0x3c433c43.
tia_cnt_i : 13 ,
tia_cnt_q : 67 ,
I:reg0x1150=0x90f1f1b.
Q:reg0x1154=0x373b2327.
RX0 tia case :8,absolute value dc_i : -1 , value dc_q : 2 
####:reg0x1290=0x2f002f50.
####:reg0x1294=0x3c433845.
tia_cnt_i : 7 ,
tia_cnt_q : 31 ,
I:reg0x1150=0x90f1f1b.
Q:reg0x1154=0x373b2327.
RX0 tia case :9,absolute value dc_i : -1 , value dc_q : 1 
####:reg0x1294=0x3124314c.
####:reg0x1298=0x3c433a45.
tia_cnt_i : 7 ,
tia_cnt_q : 67 ,
I:reg0x1150=0x90f1f1b.
Q:reg0x1154=0x373b2327.
RX0 tia case :10,absolute value dc_i : -1 , value dc_q : 2 
####:reg0x1298=0x3300334c.
####:reg0x129c=0x3c433a45.
tia_cnt_i : 5 ,
tia_cnt_q : 67 ,
I:reg0x1150=0x90f1f1b.
Q:reg0x1154=0x373b2327.
RX0 tia case :11,absolute value dc_i : -1 , value dc_q : 2 
####:reg0x129c=0x3500354a.
####:reg0x12a0=0x3c433a45.
tia_cnt_i : 9 ,
tia_cnt_q : 58 ,
I:reg0x1150=0x90f1f1b.
Q:reg0x1154=0x373b2327.
RX0 tia case :12,absolute value dc_i : -1 , value dc_q : 1 
####:reg0x12a0=0x3109314e.
rx1 tia cali begin:
Q:reg0x12b0=0x6a156a15.
 RX1 :reg0x1130=0x6a156a15.
tia_cnt_i : 21 ,
tia_cnt_q : 33 ,
RX1 tia case :0,absolute value dc_i : 6 , value dc_q : -1 
RX1:reg0x12b0=0x7f367f00.
Q:reg0x12b4=0x66196817.
 RX1 :reg0x1130=0x68176619.
tia_cnt_i : 23 ,
tia_cnt_q : 0 ,
RX1 tia case :1,absolute value dc_i : 5 , value dc_q : 0 
RX1:reg0x12b4=0x66197f00.
Q:reg0x12b8=0x661b661b.
 RX1 :reg0x1130=0x661b661b.
tia_cnt_i : 25 ,
tia_cnt_q : 0 ,
RX1 tia case :2,absolute value dc_i : 4 , value dc_q : 1 
RX1:reg0x12b8=0x661b7f02.
Q:reg0x12bc=0x641b621d.
 RX1 :reg0x1130=0x621d641b.
tia_cnt_i : 29 ,
tia_cnt_q : 0 ,
RX1 tia case :3,absolute value dc_i : 3 , value dc_q : 1 
RX1:reg0x12bc=0x641b7f00.
Q:reg0x12c0=0x5e235c23.
 RX1 :reg0x1130=0x5c235e23.
tia_cnt_i : 35 ,
tia_cnt_q : 0 ,
RX1 tia case :4,absolute value dc_i : 3 , value dc_q : 1 
RX1:reg0x12c0=0x5e237f00.
Q:reg0x12c4=0x56295629.
 RX1 :reg0x1130=0x56295629.
tia_cnt_i : 41 ,
tia_cnt_q : 1 ,
RX1 tia case :5,absolute value dc_i : 3 , value dc_q : 1 
RX1:reg0x12c4=0x7f287f00.
Q:reg0x12c8=0x56295629.
 RX1 :reg0x1130=0x56295629.
tia_cnt_i : 41 ,
tia_cnt_q : 0 ,
RX1 tia case :6,absolute value dc_i : 3 , value dc_q : 1 
RX1:reg0x12c8=0x56297f00.
Q:reg0x12cc=0x562b5629.
 RX1 :reg0x1130=0x5629562b.
tia_cnt_i : 41 ,
tia_cnt_q : 1 ,
RX1 tia case :7,absolute value dc_i : 3 , value dc_q : 1 
RX1:reg0x12cc=0x7f2a7f00.
Q:reg0x12d0=0x522d542b.
 RX1 :reg0x1130=0x542b522d.
tia_cnt_i : 43 ,
tia_cnt_q : 1 ,
RX1 tia case :8,absolute value dc_i : 3 , value dc_q : 1 
RX1:reg0x12d0=0x7f2c7f00.
Q:reg0x12d4=0x522d522d.
 RX1 :reg0x1130=0x522d522d.
tia_cnt_i : 45 ,
tia_cnt_q : 1 ,
RX1 tia case :9,absolute value dc_i : 3 , value dc_q : 1 
RX1:reg0x12d4=0x7f2c7f00.
Q:reg0x12d8=0x522d542b.
 RX1 :reg0x1130=0x542b522d.
tia_cnt_i : 43 ,
tia_cnt_q : 1 ,
RX1 tia case :10,absolute value dc_i : 3 , value dc_q : 1 
RX1:reg0x12d8=0x7f2c7f00.
Q:reg0x12dc=0x522d542b.
 RX1 :reg0x1130=0x542b522d.
tia_cnt_i : 43 ,
tia_cnt_q : 1 ,
RX1 tia case :11,absolute value dc_i : 3 , value dc_q : 1 
RX1:reg0x12dc=0x7f2c7f00.
Q:reg0x12e0=0x4e31542b.
 RX1 :reg0x1130=0x542b4e31.
tia_cnt_i : 43 ,
tia_cnt_q : 1 ,
RX1 tia case :12,absolute value dc_i : 3 , value dc_q : 1 
RX1:reg0x12e0=0x7f307f00.
tia calibration end!
rx0 vga calibration begin
reg0x1120=0x3fc100.
vga case:1 pass.
RX0 vga case:1 ,absolute value dc_i_tmp : 1 , value dc_q_tmp : 1 ,I:reg0x1184=0x90f1f1b.   Q:reg0x11c0=0x393d2327.
vga case:2 pass.
RX0 vga case:2 ,absolute value dc_i_tmp : 0 , value dc_q_tmp : 1 ,I:reg0x1188=0x90f1f1b.   Q:reg0x11c4=0x393b2527.
vga case:3 pass.
RX0 vga case:3 ,absolute value dc_i_tmp : 1 , value dc_q_tmp : 0 ,I:reg0x118c=0x90f1f1b.   Q:reg0x11c8=0x393b2527.
vga case:4 pass.
RX0 vga case:4 ,absolute value dc_i_tmp : 0 , value dc_q_tmp : 0 ,I:reg0x1190=0x90f1f1b.   Q:reg0x11cc=0x373d2327.
vga case:5 pass.
RX0 vga case:5 ,absolute value dc_i_tmp : 1 , value dc_q_tmp : 1 ,I:reg0x1194=0x90f1f1b.   Q:reg0x11d0=0x39392527.
vga case:6 pass.
RX0 vga case:6 ,absolute value dc_i_tmp : 1 , value dc_q_tmp : 0 ,I:reg0x1198=0x90f1f1b.   Q:reg0x11d4=0x3b3b2527.
vga case:7 pass.
RX0 vga case:7 ,absolute value dc_i_tmp : 0 , value dc_q_tmp : 1 ,I:reg0x119c=0x70f1f1b.   Q:reg0x11d8=0x3b392527.
vga case:8 pass.
RX0 vga case:8 ,absolute value dc_i_tmp : 0 , value dc_q_tmp : 0 ,I:reg0x11a0=0x110d211b.   Q:reg0x11dc=0x373d2529.
vga case:9 pass.
RX0 vga case:9 ,absolute value dc_i_tmp : 1 , value dc_q_tmp : 1 ,I:reg0x11a4=0x70f1f1b.   Q:reg0x11e0=0x3b3b2529.
vga case:10 pass.
RX0 vga case:10 ,absolute value dc_i_tmp : 0 , value dc_q_tmp : 1 ,I:reg0x11a8=0x9151f1b.   Q:reg0x11e4=0x3b3d2329.
vga case:11 pass.
RX0 vga case:11 ,absolute value dc_i_tmp : 1 , value dc_q_tmp : 1 ,I:reg0x11ac=0xd0f211b.   Q:reg0x11e8=0x393f232b.
vga case:12 pass.
RX0 vga case:12 ,absolute value dc_i_tmp : 1 , value dc_q_tmp : 0 ,I:reg0x11b0=0x711211b.   Q:reg0x11ec=0x373f212b.
vga case:13 pass.
RX0 vga case:13 ,absolute value dc_i_tmp : 0 , value dc_q_tmp : 1 ,I:reg0x11b4=0x70f1f19.   Q:reg0x11f0=0x3f37232d.
vga case:14 pass.
RX0 vga case:14 ,absolute value dc_i_tmp : 0 , value dc_q_tmp : 1 ,I:reg0x11b8=0x110f2119.   Q:reg0x11f4=0x3b39212f.
rx1 vga calibration begin
rx1 vga case:1 pass.
RX1 vga case:1 ,absolute value dc_i_tmp : 1 , value dc_q_tmp : 1 ,I:reg0x11fc=0x3b352129. Q:reg0x1238=0x2f25191b.
rx1 vga case:2 pass.
RX1 vga case:2 ,absolute value dc_i_tmp : 1 , value dc_q_tmp : 0 ,I:reg0x1200=0x39371f29. Q:reg0x123c=0x3125191b.
rx1 vga case:3 pass.
RX1 vga case:3 ,absolute value dc_i_tmp : 1 , value dc_q_tmp : 1 ,I:reg0x1204=0x39371f29. Q:reg0x1240=0x2d27191d.
rx1 vga case:4 pass.
RX1 vga case:4 ,absolute value dc_i_tmp : 1 , value dc_q_tmp : 1 ,I:reg0x1208=0x39371f29. Q:reg0x1244=0x2d27191d.
rx1 vga case:5 pass.
RX1 vga case:5 ,absolute value dc_i_tmp : 1 , value dc_q_tmp : 1 ,I:reg0x120c=0x3b332129. Q:reg0x1248=0x2d27191d.
rx1 vga case:6 pass.
RX1 vga case:6 ,absolute value dc_i_tmp : 0 , value dc_q_tmp : 0 ,I:reg0x1210=0x3d332129. Q:reg0x124c=0x2f29191d.
rx1 vga case:7 pass.
RX1 vga case:7 ,absolute value dc_i_tmp : 1 , value dc_q_tmp : 1 ,I:reg0x1214=0x37391f29. Q:reg0x1250=0x2f29191d.
rx1 vga case:8 pass.
RX1 vga case:8 ,absolute value dc_i_tmp : 1 , value dc_q_tmp : 0 ,I:reg0x1218=0x37351f2b. Q:reg0x1254=0x2f27191d.
rx1 vga case:9 pass.
RX1 vga case:9 ,absolute value dc_i_tmp : 1 , value dc_q_tmp : 0 ,I:reg0x121c=0x39371d2d. Q:reg0x1258=0x3523191d.
rx1 vga case:10 pass.
RX1 vga case:10 ,absolute value dc_i_tmp : 1 , value dc_q_tmp : 0 ,I:reg0x1220=0x37331b2f. Q:reg0x125c=0x2f25171d.
rx1 vga case:11 pass.
RX1 vga case:11 ,absolute value dc_i_tmp : 1 , value dc_q_tmp : 0 ,I:reg0x1224=0x3d2f1931. Q:reg0x1260=0x2f27171f.
rx1 vga case:12 pass.
RX1 vga case:12 ,absolute value dc_i_tmp : 1 , value dc_q_tmp : 1 ,I:reg0x1228=0x3b351535. Q:reg0x1264=0x2f29151f.
rx1 vga case:13 pass.
RX1 vga case:13 ,absolute value dc_i_tmp : 1 , value dc_q_tmp : 0 ,I:reg0x122c=0x33370d37. Q:reg0x1268=0x33271521.
rx1 vga case:14 pass.
RX1 vga case:14 ,absolute value dc_i_tmp : 1 , value dc_q_tmp : 1 ,I:reg0x1230=0x3f33053f. Q:reg0x126c=0x37231323.
reg0x1120=0x3c0100.
vga calibration end!
RX0: 0x103c : e001c000 ,0x1040 : 70001102 
RX1: 0x1054 : e001c000 ,0x1058 : 70001100 
THIS CASE J: 0 M: 7 
adc calibration begin
calibration begin
RX0 cali pre ,absolute value dc_i_tmp : 0 , value dc_q_tmp : 15 ,
reg0x1180=0x90f1d1b.
reg0x11bc=0x373b2327.
RX1 cali pre ,absolute value dc_i_tmp : 1 , value dc_q_tmp : 5 ,reg0x11f8=0x39352327.
reg0x1234=0x3127191d.
rx0 tia cali begin:
####:reg0x1270=0x522d5c23.
tia_cnt_i : 0 ,
tia_cnt_q : 82 ,
I:reg0x1150=0x90f1d1b.
Q:reg0x1154=0x373b2327.
RX0 tia case :0,absolute value dc_i : -1 , value dc_q : -16 
####:reg0x1270=0x5c7f5c23.
####:reg0x1274=0x522d5825.
tia_cnt_i : 0 ,
tia_cnt_q : 82 ,
I:reg0x1150=0x90f1d1b.
Q:reg0x1154=0x373b2327.
RX0 tia case :1,absolute value dc_i : 0 , value dc_q : -16 
####:reg0x1274=0x587f5825.
####:reg0x1278=0x522f5825.
tia_cnt_i : 0 ,
tia_cnt_q : 80 ,
I:reg0x1150=0x90f1d1b.
Q:reg0x1154=0x373b2327.
RX0 tia case :2,absolute value dc_i : 0 , value dc_q : -16 
####:reg0x1278=0x587f5825.
####:reg0x127c=0x4c31562b.
tia_cnt_i : 0 ,
tia_cnt_q : 78 ,
I:reg0x1150=0x90f1d1b.
Q:reg0x1154=0x373b2327.
RX0 tia case :3,absolute value dc_i : 0 , value dc_q : -16 
####:reg0x127c=0x567f562b.
####:reg0x1280=0x46394a37.
tia_cnt_i : 0 ,
tia_cnt_q : 70 ,
I:reg0x1150=0x90f1d1b.
Q:reg0x1154=0x373b2327.
RX0 tia case :4,absolute value dc_i : 0 , value dc_q : -16 
####:reg0x1280=0x4a7f4a37.
####:reg0x1284=0x463b4837.
tia_cnt_i : 0 ,
tia_cnt_q : 68 ,
I:reg0x1150=0x90f1d1b.
Q:reg0x1154=0x373b2327.
RX0 tia case :5,absolute value dc_i : 0 , value dc_q : -16 
####:reg0x1284=0x487f4837.
####:reg0x1288=0x3e413e41.
tia_cnt_i : 0 ,
tia_cnt_q : 62 ,
I:reg0x1150=0x90f1d1b.
Q:reg0x1154=0x373b2327.
RX0 tia case :6,absolute value dc_i : 0 , value dc_q : -16 
####:reg0x1288=0x3e7f3e41.
####:reg0x128c=0x3e413e41.
tia_cnt_i : 0 ,
tia_cnt_q : 62 ,
I:reg0x1150=0x90f1d1b.
Q:reg0x1154=0x373b2327.
RX0 tia case :7,absolute value dc_i : 0 , value dc_q : -16 
####:reg0x128c=0x3e7f3e41.
####:reg0x1290=0x3e433a45.
tia_cnt_i : 0 ,
tia_cnt_q : 60 ,
I:reg0x1150=0x90f1d1b.
Q:reg0x1154=0x373b2327.
RX0 tia case :8,absolute value dc_i : 0 , value dc_q : -16 
####:reg0x1290=0x3a7f3a45.
####:reg0x1294=0x3c433c43.
tia_cnt_i : 0 ,
tia_cnt_q : 60 ,
I:reg0x1150=0x90f1d1b.
Q:reg0x1154=0x373b2327.
RX0 tia case :9,absolute value dc_i : 0 , value dc_q : -16 
####:reg0x1294=0x3c7f3c43.
####:reg0x1298=0x3c433a45.
tia_cnt_i : 0 ,
tia_cnt_q : 60 ,
I:reg0x1150=0x90f1d1b.
Q:reg0x1154=0x373b2327.
RX0 tia case :10,absolute value dc_i : 0 , value dc_q : -16 
####:reg0x1298=0x3a7f3a45.
####:reg0x129c=0x3c433c43.
tia_cnt_i : 0 ,
tia_cnt_q : 60 ,
I:reg0x1150=0x90f1d1b.
Q:reg0x1154=0x373b2327.
RX0 tia case :11,absolute value dc_i : 0 , value dc_q : -16 
####:reg0x129c=0x3c7f3c43.
####:reg0x12a0=0x3a453c43.
tia_cnt_i : 0 ,
tia_cnt_q : 58 ,
I:reg0x1150=0x90f1d1b.
Q:reg0x1154=0x373b2327.
RX0 tia case :12,absolute value dc_i : 0 , value dc_q : -16 
####:reg0x12a0=0x3c7f3c43.
rx1 tia cali begin:
Q:reg0x12b0=0x6a156c13.
 RX1 :reg0x1130=0x6c136a15.
tia_cnt_i : 19 ,
tia_cnt_q : 78 ,
RX1 tia case :0,absolute value dc_i : 5 , value dc_q : -1 
RX1:reg0x12b0=0x7f637f00.
Q:reg0x12b4=0x6a176619.
 RX1 :reg0x1130=0x66196a17.
tia_cnt_i : 25 ,
tia_cnt_q : 91 ,
RX1 tia case :1,absolute value dc_i : 4 , value dc_q : -1 
RX1:reg0x12b4=0x7f727f00.
Q:reg0x12b8=0x64196419.
 RX1 :reg0x1130=0x64196419.
tia_cnt_i : 25 ,
tia_cnt_q : 102 ,
RX1 tia case :2,absolute value dc_i : 3 , value dc_q : -2 
RX1:reg0x12b8=0x7d7f7d00.
Q:reg0x12bc=0x621d621d.
 RX1 :reg0x1130=0x621d621d.
tia_cnt_i : 29 ,
tia_cnt_q : 98 ,
RX1 tia case :3,absolute value dc_i : 3 , value dc_q : -2 
RX1:reg0x12bc=0x7f7f7f00.
Q:reg0x12c0=0x5c215c21.
 RX1 :reg0x1130=0x5c215c21.
tia_cnt_i : 33 ,
tia_cnt_q : 94 ,
RX1 tia case :4,absolute value dc_i : 3 , value dc_q : -2 
RX1:reg0x12c0=0x7d7f7d00.
Q:reg0x12c4=0x58275a27.
 RX1 :reg0x1130=0x5a275827.
tia_cnt_i : 37 ,
tia_cnt_q : 88 ,
RX1 tia case :5,absolute value dc_i : 2 , value dc_q : -3 
RX1:reg0x12c4=0x7f7f7f02.
Q:reg0x12c8=0x562b5629.
 RX1 :reg0x1130=0x5629562b.
tia_cnt_i : 41 ,
tia_cnt_q : 84 ,
RX1 tia case :6,absolute value dc_i : 2 , value dc_q : -3 
RX1:reg0x12c8=0x7f7f7f00.
Q:reg0x12cc=0x562b562b.
 RX1 :reg0x1130=0x562b562b.
tia_cnt_i : 41 ,
tia_cnt_q : 84 ,
RX1 tia case :7,absolute value dc_i : 2 , value dc_q : -2 
RX1:reg0x12cc=0x7f7f7f02.
Q:reg0x12d0=0x522d522d.
 RX1 :reg0x1130=0x522d522d.
tia_cnt_i : 45 ,
tia_cnt_q : 82 ,
RX1 tia case :8,absolute value dc_i : 2 , value dc_q : -3 
RX1:reg0x12d0=0x7f7f7f00.
Q:reg0x12d4=0x522f522d.
 RX1 :reg0x1130=0x522d522f.
tia_cnt_i : 45 ,
tia_cnt_q : 80 ,
RX1 tia case :9,absolute value dc_i : 2 , value dc_q : -2 
RX1:reg0x12d4=0x7f7f7f00.
Q:reg0x12d8=0x502d522d.
 RX1 :reg0x1130=0x522d502d.
tia_cnt_i : 45 ,
tia_cnt_q : 82 ,
RX1 tia case :10,absolute value dc_i : 2 , value dc_q : -3 
RX1:reg0x12d8=0x7f7f7f00.
Q:reg0x12dc=0x502d542b.
 RX1 :reg0x1130=0x542b502d.
tia_cnt_i : 43 ,
tia_cnt_q : 82 ,
RX1 tia case :11,absolute value dc_i : 2 , value dc_q : -3 
RX1:reg0x12dc=0x7f7f7f00.
Q:reg0x12e0=0x502d522d.
 RX1 :reg0x1130=0x522d502d.
tia_cnt_i : 45 ,
tia_cnt_q : 82 ,
RX1 tia case :12,absolute value dc_i : 2 , value dc_q : -2 
RX1:reg0x12e0=0x7f7f7f00.
tia calibration end!
rx0 vga calibration begin
reg0x1120=0x3fc100.
vga case:1 pass.
RX0 vga case:1 ,absolute value dc_i_tmp : 0 , value dc_q_tmp : 15 ,I:reg0x1184=0xb0f1f1b.   Q:reg0x11c0=0x393d2327.
vga case:2 pass.
RX0 vga case:2 ,absolute value dc_i_tmp : 0 , value dc_q_tmp : 15 ,I:reg0x1188=0xb0f1f1b.   Q:reg0x11c4=0x393b2527.
vga case:3 pass.
RX0 vga case:3 ,absolute value dc_i_tmp : 0 , value dc_q_tmp : 15 ,I:reg0x118c=0xb0f1f1b.   Q:reg0x11c8=0x393b2527.
vga case:4 pass.
RX0 vga case:4 ,absolute value dc_i_tmp : 0 , value dc_q_tmp : 15 ,I:reg0x1190=0xb0f1f1b.   Q:reg0x11cc=0x373d2327.
vga case:5 pass.
RX0 vga case:5 ,absolute value dc_i_tmp : 0 , value dc_q_tmp : 15 ,I:reg0x1194=0xb0f1f1b.   Q:reg0x11d0=0x39392527.
vga case:6 pass.
RX0 vga case:6 ,absolute value dc_i_tmp : 0 , value dc_q_tmp : 15 ,I:reg0x1198=0xb0f1f1b.   Q:reg0x11d4=0x3b3b2527.
vga case:7 pass.
RX0 vga case:7 ,absolute value dc_i_tmp : 0 , value dc_q_tmp : 15 ,I:reg0x119c=0xb0f1f1b.   Q:reg0x11d8=0x3b392527.
vga case:8 pass.
RX0 vga case:8 ,absolute value dc_i_tmp : 0 , value dc_q_tmp : 15 ,I:reg0x11a0=0xb0f1f1b.   Q:reg0x11dc=0x373d2529.
vga case:9 pass.
RX0 vga case:9 ,absolute value dc_i_tmp : 0 , value dc_q_tmp : 15 ,I:reg0x11a4=0xb0f1f1b.   Q:reg0x11e0=0x3b3b2529.
vga case:10 pass.
RX0 vga case:10 ,absolute value dc_i_tmp : 0 , value dc_q_tmp : 15 ,I:reg0x11a8=0xb0f1f1b.   Q:reg0x11e4=0x3b3d2329.
vga case:11 pass.
RX0 vga case:11 ,absolute value dc_i_tmp : 0 , value dc_q_tmp : 15 ,I:reg0x11ac=0x90f1f1b.   Q:reg0x11e8=0x393f232b.
vga case:12 pass.
RX0 vga case:12 ,absolute value dc_i_tmp : 0 , value dc_q_tmp : 15 ,I:reg0x11b0=0xf09211b.   Q:reg0x11ec=0x373f212b.
vga case:13 pass.
RX0 vga case:13 ,absolute value dc_i_tmp : 0 , value dc_q_tmp : 15 ,I:reg0x11b4=0x110f1f1b.   Q:reg0x11f0=0x3f37232d.
vga case:14 pass.
RX0 vga case:14 ,absolute value dc_i_tmp : 1 , value dc_q_tmp : 15 ,I:reg0x11b8=0x1115211d.   Q:reg0x11f4=0x3b39212f.
rx1 vga calibration begin
rx1 vga case:1 pass.
RX1 vga case:1 ,absolute value dc_i_tmp : 2 , value dc_q_tmp : 7 ,I:reg0x11fc=0x39351f27. Q:reg0x1238=0x2f271b19.
rx1 vga case:2 pass.
RX1 vga case:2 ,absolute value dc_i_tmp : 2 , value dc_q_tmp : 6 ,I:reg0x1200=0x39352129. Q:reg0x123c=0x2f271b19.
rx1 vga case:3 pass.
RX1 vga case:3 ,absolute value dc_i_tmp : 2 , value dc_q_tmp : 6 ,I:reg0x1204=0x39352129. Q:reg0x1240=0x2f271b19.
rx1 vga case:4 pass.
RX1 vga case:4 ,absolute value dc_i_tmp : 1 , value dc_q_tmp : 6 ,I:reg0x1208=0x3b352129. Q:reg0x1244=0x2f271b19.
rx1 vga case:5 pass.
RX1 vga case:5 ,absolute value dc_i_tmp : 1 , value dc_q_tmp : 6 ,I:reg0x120c=0x3b352129. Q:reg0x1248=0x2f271b19.
rx1 vga case:6 pass.
RX1 vga case:6 ,absolute value dc_i_tmp : 1 , value dc_q_tmp : 6 ,I:reg0x1210=0x3b352129. Q:reg0x124c=0x2f271b19.
rx1 vga case:7 pass.
RX1 vga case:7 ,absolute value dc_i_tmp : 1 , value dc_q_tmp : 6 ,I:reg0x1214=0x3b352129. Q:reg0x1250=0x2f271b19.
rx1 vga case:8 pass.
RX1 vga case:8 ,absolute value dc_i_tmp : 1 , value dc_q_tmp : 6 ,I:reg0x1218=0x3b331f29. Q:reg0x1254=0x2d291b19.
rx1 vga case:9 pass.
RX1 vga case:9 ,absolute value dc_i_tmp : 1 , value dc_q_tmp : 5 ,I:reg0x121c=0x3b331d2b. Q:reg0x1258=0x33251d19.
rx1 vga case:10 pass.
RX1 vga case:10 ,absolute value dc_i_tmp : 0 , value dc_q_tmp : 6 ,I:reg0x1220=0x3d331b2d. Q:reg0x125c=0x2d271d19.
rx1 vga case:11 pass.
RX1 vga case:11 ,absolute value dc_i_tmp : 0 , value dc_q_tmp : 5 ,I:reg0x1224=0x39351931. Q:reg0x1260=0x33251d17.
rx1 vga case:12 pass.
RX1 vga case:12 ,absolute value dc_i_tmp : 0 , value dc_q_tmp : 5 ,I:reg0x1228=0x39351533. Q:reg0x1264=0x31291d17.
rx1 vga case:13 pass.
RX1 vga case:13 ,absolute value dc_i_tmp : 0 , value dc_q_tmp : 4 ,I:reg0x122c=0x3d371137. Q:reg0x1268=0x33271f17.
rx1 vga case:14 pass.
RX1 vga case:14 ,absolute value dc_i_tmp : 0 , value dc_q_tmp : 5 ,I:reg0x1230=0x3f35093f. Q:reg0x126c=0x33252115.
reg0x1120=0x3c0100.
vga calibration end!
RX0: 0x103c : e0020000 ,0x1040 : 80001102 
RX1: 0x1054 : e0020000 ,0x1058 : 80001100 
THIS CASE J: 0 M: 8 
adc calibration begin
calibration begin
RX0 cali pre ,absolute value dc_i_tmp : 2 , value dc_q_tmp : 1 ,
reg0x1180=0x90f1d1b.
reg0x11bc=0x37392527.
RX1 cali pre ,absolute value dc_i_tmp : 5 , value dc_q_tmp : 8 ,reg0x11f8=0x3b372327.
reg0x1234=0x3127191d.
rx0 tia cali begin:
####:reg0x1270=0x562b5825.
tia_cnt_i : 11 ,
tia_cnt_q : 1 ,
I:reg0x1150=0x90f1d1b.
Q:reg0x1154=0x37392527.
RX0 tia case :0,absolute value dc_i : -1 , value dc_q : 0 
####:reg0x1270=0x4d2c4d30.
####:reg0x1274=0x542b5825.
tia_cnt_i : 18 ,
tia_cnt_q : 0 ,
I:reg0x1150=0x90f1d1b.
Q:reg0x1154=0x37392527.
RX0 tia case :1,absolute value dc_i : 0 , value dc_q : -1 
####:reg0x1274=0x542b4637.
####:reg0x1278=0x502d5825.
tia_cnt_i : 29 ,
tia_cnt_q : 0 ,
I:reg0x1150=0x90f1d1b.
Q:reg0x1154=0x37392527.
RX0 tia case :2,absolute value dc_i : -1 , value dc_q : 1 
####:reg0x1278=0x502d3b42.
####:reg0x127c=0x4e33542b.
tia_cnt_i : 27 ,
tia_cnt_q : 0 ,
I:reg0x1150=0x90f1d1b.
Q:reg0x1154=0x37392527.
RX0 tia case :3,absolute value dc_i : -1 , value dc_q : 1 
####:reg0x127c=0x4e333946.
####:reg0x1280=0x44394837.
tia_cnt_i : 1 ,
tia_cnt_q : 0 ,
I:reg0x1150=0x90f1d1b.
Q:reg0x1154=0x37392527.
RX0 tia case :4,absolute value dc_i : -1 , value dc_q : 1 
####:reg0x1280=0x44394738.
####:reg0x1284=0x44394639.
tia_cnt_i : 41 ,
tia_cnt_q : 1 ,
I:reg0x1150=0x90f1d1b.
Q:reg0x1154=0x37392527.
RX0 tia case :5,absolute value dc_i : -1 , value dc_q : 1 
####:reg0x1284=0x1d381d62.
####:reg0x1288=0x3e41443b.
tia_cnt_i : 16 ,
tia_cnt_q : 0 ,
I:reg0x1150=0x90f1d1b.
Q:reg0x1154=0x37392527.
RX0 tia case :6,absolute value dc_i : -1 , value dc_q : 1 
####:reg0x1288=0x3e41344b.
####:reg0x128c=0x3c413e41.
tia_cnt_i : 39 ,
tia_cnt_q : 0 ,
I:reg0x1150=0x90f1d1b.
Q:reg0x1154=0x37392527.
RX0 tia case :7,absolute value dc_i : -1 , value dc_q : 1 
####:reg0x128c=0x3c411768.
####:reg0x1290=0x3c433c43.
tia_cnt_i : 2 ,
tia_cnt_q : 0 ,
I:reg0x1150=0x90f1d1b.
Q:reg0x1154=0x37392527.
RX0 tia case :8,absolute value dc_i : -1 , value dc_q : 1 
####:reg0x1290=0x3c433a45.
####:reg0x1294=0x3c433845.
tia_cnt_i : 33 ,
tia_cnt_q : 0 ,
I:reg0x1150=0x90f1d1b.
Q:reg0x1154=0x37392527.
RX0 tia case :9,absolute value dc_i : -1 , value dc_q : 1 
####:reg0x1294=0x3c431766.
####:reg0x1298=0x3c433a47.
tia_cnt_i : 1 ,
tia_cnt_q : 0 ,
I:reg0x1150=0x90f1d1b.
Q:reg0x1154=0x37392527.
RX0 tia case :10,absolute value dc_i : -1 , value dc_q : 1 
####:reg0x1298=0x3c433948.
####:reg0x129c=0x3c433845.
tia_cnt_i : 2 ,
tia_cnt_q : 1 ,
I:reg0x1150=0x90f1d1b.
Q:reg0x1154=0x37392527.
RX0 tia case :11,absolute value dc_i : -1 , value dc_q : 1 
####:reg0x129c=0x36423647.
####:reg0x12a0=0x3c433a45.
tia_cnt_i : 49 ,
tia_cnt_q : 0 ,
I:reg0x1150=0x90f1d1b.
Q:reg0x1154=0x37392527.
RX0 tia case :12,absolute value dc_i : -1 , value dc_q : 1 
####:reg0x12a0=0x3c430976.
rx1 tia cali begin:
Q:reg0x12b0=0x6a156a17.
 RX1 :reg0x1130=0x6a176a15.
tia_cnt_i : 0 ,
tia_cnt_q : 106 ,
RX1 tia case :0,absolute value dc_i : 0 , value dc_q : -4 
RX1:reg0x12b0=0x6a7f6a17.
Q:reg0x12b4=0x66196619.
 RX1 :reg0x1130=0x66196619.
tia_cnt_i : 0 ,
tia_cnt_q : 102 ,
RX1 tia case :1,absolute value dc_i : -1 , value dc_q : -5 
RX1:reg0x12b4=0x667f6619.
Q:reg0x12b8=0x6419641b.
 RX1 :reg0x1130=0x641b6419.
tia_cnt_i : 0 ,
tia_cnt_q : 102 ,
RX1 tia case :2,absolute value dc_i : -1 , value dc_q : -6 
RX1:reg0x12b8=0x647f641b.
Q:reg0x12bc=0x5e21621f.
 RX1 :reg0x1130=0x621f5e21.
tia_cnt_i : 3 ,
tia_cnt_q : 94 ,
RX1 tia case :3,absolute value dc_i : -1 , value dc_q : -6 
RX1:reg0x12bc=0x5f7f5f22.
Q:reg0x12c0=0x5c235a25.
 RX1 :reg0x1130=0x5a255c23.
tia_cnt_i : 83 ,
tia_cnt_q : 92 ,
RX1 tia case :4,absolute value dc_i : -1 , value dc_q : -6 
RX1:reg0x12c0=0x77f0778.
Q:reg0x12c4=0x562b5827.
 RX1 :reg0x1130=0x5827562b.
tia_cnt_i : 88 ,
tia_cnt_q : 1 ,
RX1 tia case :5,absolute value dc_i : -2 , value dc_q : -7 
RX1:reg0x12c4=0x2c007f.
Q:reg0x12c8=0x54295629.
 RX1 :reg0x1130=0x56295429.
tia_cnt_i : 86 ,
tia_cnt_q : 1 ,
RX1 tia case :6,absolute value dc_i : -2 , value dc_q : -6 
RX1:reg0x12c8=0x2a007f.
Q:reg0x12cc=0x56295629.
 RX1 :reg0x1130=0x56295629.
tia_cnt_i : 86 ,
tia_cnt_q : 1 ,
RX1 tia case :7,absolute value dc_i : -2 , value dc_q : -7 
RX1:reg0x12cc=0x2a007f.
Q:reg0x12d0=0x522d522d.
 RX1 :reg0x1130=0x522d522d.
tia_cnt_i : 82 ,
tia_cnt_q : 1 ,
RX1 tia case :8,absolute value dc_i : -2 , value dc_q : -6 
RX1:reg0x12d0=0x2e007f.
Q:reg0x12d4=0x522d522d.
 RX1 :reg0x1130=0x522d522d.
tia_cnt_i : 82 ,
tia_cnt_q : 1 ,
RX1 tia case :9,absolute value dc_i : -2 , value dc_q : -7 
RX1:reg0x12d4=0x2e007f.
Q:reg0x12d8=0x522d542b.
 RX1 :reg0x1130=0x542b522d.
tia_cnt_i : 84 ,
tia_cnt_q : 1 ,
RX1 tia case :10,absolute value dc_i : -2 , value dc_q : -7 
RX1:reg0x12d8=0x2e007f.
Q:reg0x12dc=0x522f522d.
 RX1 :reg0x1130=0x522d522f.
tia_cnt_i : 82 ,
tia_cnt_q : 1 ,
RX1 tia case :11,absolute value dc_i : -2 , value dc_q : -7 
RX1:reg0x12dc=0x30007f.
Q:reg0x12e0=0x522f542b.
 RX1 :reg0x1130=0x542b522f.
tia_cnt_i : 84 ,
tia_cnt_q : 1 ,
RX1 tia case :12,absolute value dc_i : -2 , value dc_q : -6 
RX1:reg0x12e0=0x30007f.
tia calibration end!
rx0 vga calibration begin
reg0x1120=0x3fc100.
vga case:1 pass.
RX0 vga case:1 ,absolute value dc_i_tmp : 2 , value dc_q_tmp : 1 ,I:reg0x1184=0xb0f211b.   Q:reg0x11c0=0x373b2527.
vga case:2 pass.
RX0 vga case:2 ,absolute value dc_i_tmp : 1 , value dc_q_tmp : 1 ,I:reg0x1188=0xb0f211b.   Q:reg0x11c4=0x373b2527.
vga case:3 pass.
RX0 vga case:3 ,absolute value dc_i_tmp : 2 , value dc_q_tmp : 1 ,I:reg0x118c=0xb0f1f19.   Q:reg0x11c8=0x35392527.
vga case:4 pass.
RX0 vga case:4 ,absolute value dc_i_tmp : 2 , value dc_q_tmp : 0 ,I:reg0x1190=0xb0f211b.   Q:reg0x11cc=0x393b2527.
vga case:5 pass.
RX0 vga case:5 ,absolute value dc_i_tmp : 3 , value dc_q_tmp : 1 ,I:reg0x1194=0xd0f1f19.   Q:reg0x11d0=0x393b2527.
vga case:6 pass.
RX0 vga case:6 ,absolute value dc_i_tmp : 2 , value dc_q_tmp : 0 ,I:reg0x1198=0xb0f211b.   Q:reg0x11d4=0x393b2527.
vga case:7 pass.
RX0 vga case:7 ,absolute value dc_i_tmp : 1 , value dc_q_tmp : 1 ,I:reg0x119c=0xf0f1f19.   Q:reg0x11d8=0x393b2527.
vga case:8 pass.
RX0 vga case:8 ,absolute value dc_i_tmp : 1 , value dc_q_tmp : 1 ,I:reg0x11a0=0xb0f1f19.   Q:reg0x11dc=0x3b392729.
vga case:9 pass.
RX0 vga case:9 ,absolute value dc_i_tmp : 1 , value dc_q_tmp : 1 ,I:reg0x11a4=0x70f1f19.   Q:reg0x11e0=0x373d2529.
vga case:10 pass.
RX0 vga case:10 ,absolute value dc_i_tmp : 0 , value dc_q_tmp : 0 ,I:reg0x11a8=0xf0f2119.   Q:reg0x11e4=0x373f2329.
vga case:11 pass.
RX0 vga case:11 ,absolute value dc_i_tmp : 1 , value dc_q_tmp : 1 ,I:reg0x11ac=0xf0b2319.   Q:reg0x11e8=0x3b392329.
vga case:12 pass.
RX0 vga case:12 ,absolute value dc_i_tmp : 1 , value dc_q_tmp : 0 ,I:reg0x11b0=0xd0d2319.   Q:reg0x11ec=0x373b232b.
vga case:13 pass.
RX0 vga case:13 ,absolute value dc_i_tmp : 1 , value dc_q_tmp : 0 ,I:reg0x11b4=0x3112319.   Q:reg0x11f0=0x3b3d232d.
vga case:14 pass.
RX0 vga case:14 ,absolute value dc_i_tmp : 1 , value dc_q_tmp : 1 ,I:reg0x11b8=0x110b2515.   Q:reg0x11f4=0x333f1f2d.
rx1 vga calibration begin
rx1 vga case:1 pass.
RX1 vga case:1 ,absolute value dc_i_tmp : 5 , value dc_q_tmp : 8 ,I:reg0x11fc=0x3b352527. Q:reg0x1238=0x31271f17.
rx1 vga case:2 pass.
RX1 vga case:2 ,absolute value dc_i_tmp : 5 , value dc_q_tmp : 8 ,I:reg0x1200=0x39372327. Q:reg0x123c=0x31271f17.
rx1 vga case:3 pass.
RX1 vga case:3 ,absolute value dc_i_tmp : 5 , value dc_q_tmp : 8 ,I:reg0x1204=0x39372327. Q:reg0x1240=0x31271f17.
rx1 vga case:4 pass.
RX1 vga case:4 ,absolute value dc_i_tmp : 4 , value dc_q_tmp : 8 ,I:reg0x1208=0x39372327. Q:reg0x1244=0x31271f17.
rx1 vga case:5 pass.
RX1 vga case:5 ,absolute value dc_i_tmp : 4 , value dc_q_tmp : 8 ,I:reg0x120c=0x39372327. Q:reg0x1248=0x31271f17.
rx1 vga case:6 pass.
RX1 vga case:6 ,absolute value dc_i_tmp : 4 , value dc_q_tmp : 8 ,I:reg0x1210=0x37372327. Q:reg0x124c=0x2f251f17.
rx1 vga case:7 pass.
RX1 vga case:7 ,absolute value dc_i_tmp : 5 , value dc_q_tmp : 8 ,I:reg0x1214=0x37392327. Q:reg0x1250=0x33271f17.
rx1 vga case:8 pass.
RX1 vga case:8 ,absolute value dc_i_tmp : 4 , value dc_q_tmp : 8 ,I:reg0x1218=0x3b352327. Q:reg0x1254=0x2f272117.
rx1 vga case:9 pass.
RX1 vga case:9 ,absolute value dc_i_tmp : 5 , value dc_q_tmp : 8 ,I:reg0x121c=0x3b372127. Q:reg0x1258=0x35232315.
rx1 vga case:10 pass.
RX1 vga case:10 ,absolute value dc_i_tmp : 4 , value dc_q_tmp : 8 ,I:reg0x1220=0x3d371f27. Q:reg0x125c=0x31272313.
rx1 vga case:11 pass.
RX1 vga case:11 ,absolute value dc_i_tmp : 4 , value dc_q_tmp : 8 ,I:reg0x1224=0x3d371f29. Q:reg0x1260=0x2d272511.
rx1 vga case:12 pass.
RX1 vga case:12 ,absolute value dc_i_tmp : 4 , value dc_q_tmp : 8 ,I:reg0x1228=0x39391d2b. Q:reg0x1264=0x2f27270f.
rx1 vga case:13 pass.
RX1 vga case:13 ,absolute value dc_i_tmp : 3 , value dc_q_tmp : 8 ,I:reg0x122c=0x3f311d2d. Q:reg0x1268=0x2f232b0d.
rx1 vga case:14 pass.
RX1 vga case:14 ,absolute value dc_i_tmp : 4 , value dc_q_tmp : 7 ,I:reg0x1230=0x3d351931. Q:reg0x126c=0x2f2f2f07.
reg0x1120=0x3c0100.
vga calibration end!
RX0: 0x103c : e0024000 ,0x1040 : 90001102 
RX1: 0x1054 : e0024000 ,0x1058 : 90001100 
THIS CASE J: 0 M: 9 
adc calibration begin
calibration begin
RX0 cali pre ,absolute value dc_i_tmp : 0 , value dc_q_tmp : 0 ,
reg0x1180=0xb0f1f1b.
reg0x11bc=0x373b2327.
RX1 cali pre ,absolute value dc_i_tmp : 2 , value dc_q_tmp : 1 ,reg0x11f8=0x3b372327.
reg0x1234=0x2f27191d.
rx0 tia cali begin:
####:reg0x1270=0x522d5825.
tia_cnt_i : 0 ,
tia_cnt_q : 0 ,
I:reg0x1150=0xb0f1f1b.
Q:reg0x1154=0x373b2327.
RX0 tia case :0,absolute value dc_i : 0 , value dc_q : 0 
####:reg0x1270=0x522d5825.
####:reg0x1274=0x502d5629.
tia_cnt_i : 0 ,
tia_cnt_q : 0 ,
I:reg0x1150=0xb0f1f1b.
Q:reg0x1154=0x373b2327.
RX0 tia case :1,absolute value dc_i : 0 , value dc_q : 1 
####:reg0x1274=0x502d5629.
####:reg0x1278=0x522f5629.
tia_cnt_i : 0 ,
tia_cnt_q : 0 ,
I:reg0x1150=0xb0f1f1b.
Q:reg0x1154=0x373b2327.
RX0 tia case :2,absolute value dc_i : 0 , value dc_q : 1 
####:reg0x1278=0x522f5629.
####:reg0x127c=0x4c334e31.
tia_cnt_i : 0 ,
tia_cnt_q : 13 ,
I:reg0x1150=0xb0f1f1b.
Q:reg0x1154=0x373b2327.
RX0 tia case :3,absolute value dc_i : 0 , value dc_q : 1 
####:reg0x127c=0x4e264e31.
####:reg0x1280=0x463b4837.
tia_cnt_i : 0 ,
tia_cnt_q : 59 ,
I:reg0x1150=0xb0f1f1b.
Q:reg0x1154=0x373b2327.
RX0 tia case :4,absolute value dc_i : 0 , value dc_q : 2 
####:reg0x1280=0x48004837.
####:reg0x1284=0x44394639.
tia_cnt_i : 0 ,
tia_cnt_q : 43 ,
I:reg0x1150=0xb0f1f1b.
Q:reg0x1154=0x373b2327.
RX0 tia case :5,absolute value dc_i : 0 , value dc_q : 1 
####:reg0x1284=0x460e4639.
####:reg0x1288=0x3c413c41.
tia_cnt_i : 0 ,
tia_cnt_q : 65 ,
I:reg0x1150=0xb0f1f1b.
Q:reg0x1154=0x373b2327.
RX0 tia case :6,absolute value dc_i : 0 , value dc_q : 2 
####:reg0x1288=0x3c003c41.
####:reg0x128c=0x3c413c41.
tia_cnt_i : 0 ,
tia_cnt_q : 57 ,
I:reg0x1150=0xb0f1f1b.
Q:reg0x1154=0x373b2327.
RX0 tia case :7,absolute value dc_i : 0 , value dc_q : 1 
####:reg0x128c=0x3c083c41.
####:reg0x1290=0x3c433a45.
tia_cnt_i : 0 ,
tia_cnt_q : 67 ,
I:reg0x1150=0xb0f1f1b.
Q:reg0x1154=0x373b2327.
RX0 tia case :8,absolute value dc_i : 0 , value dc_q : 2 
####:reg0x1290=0x3a003a45.
####:reg0x1294=0x3c433a45.
tia_cnt_i : 0 ,
tia_cnt_q : 64 ,
I:reg0x1150=0xb0f1f1b.
Q:reg0x1154=0x373b2327.
RX0 tia case :9,absolute value dc_i : 0 , value dc_q : 1 
####:reg0x1294=0x3a033a45.
####:reg0x1298=0x3a453845.
tia_cnt_i : 0 ,
tia_cnt_q : 69 ,
I:reg0x1150=0xb0f1f1b.
Q:reg0x1154=0x373b2327.
RX0 tia case :10,absolute value dc_i : 0 , value dc_q : 2 
####:reg0x1298=0x38003845.
####:reg0x129c=0x3a453a45.
tia_cnt_i : 0 ,
tia_cnt_q : 69 ,
I:reg0x1150=0xb0f1f1b.
Q:reg0x1154=0x373b2327.
RX0 tia case :11,absolute value dc_i : 0 , value dc_q : 2 
####:reg0x129c=0x3a003a45.
####:reg0x12a0=0x3c433c43.
tia_cnt_i : 0 ,
tia_cnt_q : 41 ,
I:reg0x1150=0xb0f1f1b.
Q:reg0x1154=0x373b2327.
RX0 tia case :12,absolute value dc_i : 0 , value dc_q : 1 
####:reg0x12a0=0x3c1a3c43.
rx1 tia cali begin:
Q:reg0x12b0=0x6a156815.
 RX1 :reg0x1130=0x68156a15.
tia_cnt_i : 21 ,
tia_cnt_q : 28 ,
RX1 tia case :0,absolute value dc_i : 6 , value dc_q : -1 
RX1:reg0x12b0=0x7d317d00.
Q:reg0x12b4=0x66196619.
 RX1 :reg0x1130=0x66196619.
tia_cnt_i : 25 ,
tia_cnt_q : 0 ,
RX1 tia case :1,absolute value dc_i : 5 , value dc_q : 0 
RX1:reg0x12b4=0x66197f00.
Q:reg0x12b8=0x621d641b.
 RX1 :reg0x1130=0x641b621d.
tia_cnt_i : 27 ,
tia_cnt_q : 0 ,
RX1 tia case :2,absolute value dc_i : 4 , value dc_q : 1 
RX1:reg0x12b8=0x621d7f00.
Q:reg0x12bc=0x621d621d.
 RX1 :reg0x1130=0x621d621d.
tia_cnt_i : 29 ,
tia_cnt_q : 0 ,
RX1 tia case :3,absolute value dc_i : 3 , value dc_q : 1 
RX1:reg0x12bc=0x621d7f00.
Q:reg0x12c0=0x5c235c23.
 RX1 :reg0x1130=0x5c235c23.
tia_cnt_i : 35 ,
tia_cnt_q : 0 ,
RX1 tia case :4,absolute value dc_i : 3 , value dc_q : 1 
RX1:reg0x12c0=0x5c237f00.
Q:reg0x12c4=0x56295629.
 RX1 :reg0x1130=0x56295629.
tia_cnt_i : 41 ,
tia_cnt_q : 1 ,
RX1 tia case :5,absolute value dc_i : 3 , value dc_q : 1 
RX1:reg0x12c4=0x7f287f00.
Q:reg0x12c8=0x54295629.
 RX1 :reg0x1130=0x56295429.
tia_cnt_i : 41 ,
tia_cnt_q : 1 ,
RX1 tia case :6,absolute value dc_i : 3 , value dc_q : 1 
RX1:reg0x12c8=0x7f287f00.
Q:reg0x12cc=0x542b5629.
 RX1 :reg0x1130=0x5629542b.
tia_cnt_i : 41 ,
tia_cnt_q : 1 ,
RX1 tia case :7,absolute value dc_i : 3 , value dc_q : 1 
RX1:reg0x12cc=0x7f2a7f00.
Q:reg0x12d0=0x502d522d.
 RX1 :reg0x1130=0x522d502d.
tia_cnt_i : 45 ,
tia_cnt_q : 1 ,
RX1 tia case :8,absolute value dc_i : 3 , value dc_q : 1 
RX1:reg0x12d0=0x7f2c7f00.
Q:reg0x12d4=0x522d542b.
 RX1 :reg0x1130=0x542b522d.
tia_cnt_i : 43 ,
tia_cnt_q : 1 ,
RX1 tia case :9,absolute value dc_i : 3 , value dc_q : 1 
RX1:reg0x12d4=0x7f2c7f00.
Q:reg0x12d8=0x502d562b.
 RX1 :reg0x1130=0x562b502d.
tia_cnt_i : 41 ,
tia_cnt_q : 1 ,
RX1 tia case :10,absolute value dc_i : 3 , value dc_q : 1 
RX1:reg0x12d8=0x7f2c7f02.
Q:reg0x12dc=0x522d542b.
 RX1 :reg0x1130=0x542b522d.
tia_cnt_i : 43 ,
tia_cnt_q : 1 ,
RX1 tia case :11,absolute value dc_i : 3 , value dc_q : 1 
RX1:reg0x12dc=0x7f2c7f00.
Q:reg0x12e0=0x522d542b.
 RX1 :reg0x1130=0x542b522d.
tia_cnt_i : 43 ,
tia_cnt_q : 1 ,
RX1 tia case :12,absolute value dc_i : 3 , value dc_q : 1 
RX1:reg0x12e0=0x7f2c7f00.
tia calibration end!
rx0 vga calibration begin
reg0x1120=0x3fc100.
vga case:1 pass.
RX0 vga case:1 ,absolute value dc_i_tmp : 1 , value dc_q_tmp : 0 ,I:reg0x1184=0xb0f1f1b.   Q:reg0x11c0=0x393b2729.
vga case:2 pass.
RX0 vga case:2 ,absolute value dc_i_tmp : 0 , value dc_q_tmp : 0 ,I:reg0x1188=0xb0f1f1b.   Q:reg0x11c4=0x393b2527.
vga case:3 pass.
RX0 vga case:3 ,absolute value dc_i_tmp : 1 , value dc_q_tmp : 1 ,I:reg0x118c=0xd0f1f1b.   Q:reg0x11c8=0x393b2527.
vga case:4 pass.
RX0 vga case:4 ,absolute value dc_i_tmp : 1 , value dc_q_tmp : 1 ,I:reg0x1190=0xd0f1f1b.   Q:reg0x11cc=0x393b2527.
vga case:5 pass.
RX0 vga case:5 ,absolute value dc_i_tmp : 1 , value dc_q_tmp : 1 ,I:reg0x1194=0xb0d1f1b.   Q:reg0x11d0=0x37392527.
vga case:6 pass.
RX0 vga case:6 ,absolute value dc_i_tmp : 1 , value dc_q_tmp : 0 ,I:reg0x1198=0xb0d1f1b.   Q:reg0x11d4=0x3b3b2527.
vga case:7 pass.
RX0 vga case:7 ,absolute value dc_i_tmp : 0 , value dc_q_tmp : 1 ,I:reg0x119c=0xd0d1f1b.   Q:reg0x11d8=0x3b392527.
vga case:8 pass.
RX0 vga case:8 ,absolute value dc_i_tmp : 1 , value dc_q_tmp : 1 ,I:reg0x11a0=0x110f1f1b.   Q:reg0x11dc=0x373f2529.
vga case:9 pass.
RX0 vga case:9 ,absolute value dc_i_tmp : 1 , value dc_q_tmp : 1 ,I:reg0x11a4=0xd0d1f1b.   Q:reg0x11e0=0x3b3b2529.
vga case:10 pass.
RX0 vga case:10 ,absolute value dc_i_tmp : 0 , value dc_q_tmp : 1 ,I:reg0x11a8=0x110f1f1b.   Q:reg0x11e4=0x393d2329.
vga case:11 pass.
RX0 vga case:11 ,absolute value dc_i_tmp : 0 , value dc_q_tmp : 0 ,I:reg0x11ac=0x9151d1b.   Q:reg0x11e8=0x3b39252b.
vga case:12 pass.
RX0 vga case:12 ,absolute value dc_i_tmp : 1 , value dc_q_tmp : 0 ,I:reg0x11b0=0x7111d1b.   Q:reg0x11ec=0x333f212b.
vga case:13 pass.
RX0 vga case:13 ,absolute value dc_i_tmp : 1 , value dc_q_tmp : 1 ,I:reg0x11b4=0xf0d211d.   Q:reg0x11f0=0x3d39232d.
vga case:14 pass.
RX0 vga case:14 ,absolute value dc_i_tmp : 1 , value dc_q_tmp : 1 ,I:reg0x11b8=0x1311211d.   Q:reg0x11f4=0x3f39212f.
rx1 vga calibration begin
rx1 vga case:1 pass.
RX1 vga case:1 ,absolute value dc_i_tmp : 1 , value dc_q_tmp : 0 ,I:reg0x11fc=0x3b352129. Q:reg0x1238=0x2f27191d.
rx1 vga case:2 pass.
RX1 vga case:2 ,absolute value dc_i_tmp : 1 , value dc_q_tmp : 1 ,I:reg0x1200=0x3b352129. Q:reg0x123c=0x2f27191d.
rx1 vga case:3 pass.
RX1 vga case:3 ,absolute value dc_i_tmp : 1 , value dc_q_tmp : 0 ,I:reg0x1204=0x3b352129. Q:reg0x1240=0x2f27191d.
rx1 vga case:4 pass.
RX1 vga case:4 ,absolute value dc_i_tmp : 1 , value dc_q_tmp : 0 ,I:reg0x1208=0x3b352129. Q:reg0x1244=0x2f27191d.
rx1 vga case:5 pass.
RX1 vga case:5 ,absolute value dc_i_tmp : 1 , value dc_q_tmp : 0 ,I:reg0x120c=0x37371f29. Q:reg0x1248=0x2f27191d.
rx1 vga case:6 pass.
RX1 vga case:6 ,absolute value dc_i_tmp : 1 , value dc_q_tmp : 1 ,I:reg0x1210=0x3b332129. Q:reg0x124c=0x3129191d.
rx1 vga case:7 pass.
RX1 vga case:7 ,absolute value dc_i_tmp : 1 , value dc_q_tmp : 1 ,I:reg0x1214=0x3d332129. Q:reg0x1250=0x2f29191d.
rx1 vga case:8 pass.
RX1 vga case:8 ,absolute value dc_i_tmp : 1 , value dc_q_tmp : 1 ,I:reg0x1218=0x37371f2b. Q:reg0x1254=0x3125191d.
rx1 vga case:9 pass.
RX1 vga case:9 ,absolute value dc_i_tmp : 1 , value dc_q_tmp : 0 ,I:reg0x121c=0x37391b2b. Q:reg0x1258=0x312b171d.
rx1 vga case:10 pass.
RX1 vga case:10 ,absolute value dc_i_tmp : 1 , value dc_q_tmp : 0 ,I:reg0x1220=0x3937192d. Q:reg0x125c=0x3323171d.
rx1 vga case:11 pass.
RX1 vga case:11 ,absolute value dc_i_tmp : 1 , value dc_q_tmp : 1 ,I:reg0x1224=0x3f331931. Q:reg0x1260=0x3323171f.
rx1 vga case:12 pass.
RX1 vga case:12 ,absolute value dc_i_tmp : 0 , value dc_q_tmp : 1 ,I:reg0x1228=0x39391333. Q:reg0x1264=0x331f1721.
rx1 vga case:13 pass.
RX1 vga case:13 ,absolute value dc_i_tmp : 1 , value dc_q_tmp : 0 ,I:reg0x122c=0x39330f37. Q:reg0x1268=0x2d231321.
rx1 vga case:14 pass.
RX1 vga case:14 ,absolute value dc_i_tmp : 1 , value dc_q_tmp : 0 ,I:reg0x1230=0x3735053f. Q:reg0x126c=0x2f251125.
reg0x1120=0x3c0100.
vga calibration end!
RX0: 0x103c : e0028000 ,0x1040 : a0001102 
RX1: 0x1054 : e0028000 ,0x1058 : a0001100 
THIS CASE J: 0 M:10 
adc calibration begin
calibration begin
RX0 cali pre ,absolute value dc_i_tmp : 0 , value dc_q_tmp : 0 ,
reg0x1180=0xb0f1f1b.
reg0x11bc=0x373b2327.
RX1 cali pre ,absolute value dc_i_tmp : 1 , value dc_q_tmp : 1 ,reg0x11f8=0x39352327.
reg0x1234=0x2f27191d.
rx0 tia cali begin:
####:reg0x1270=0x522d5e23.
tia_cnt_i : 0 ,
tia_cnt_q : 0 ,
I:reg0x1150=0xb0f1f1b.
Q:reg0x1154=0x373b2327.
RX0 tia case :0,absolute value dc_i : -1 , value dc_q : 0 
####:reg0x1270=0x522d5e23.
####:reg0x1274=0x502d5629.
tia_cnt_i : 0 ,
tia_cnt_q : 0 ,
I:reg0x1150=0xb0f1f1b.
Q:reg0x1154=0x373b2327.
RX0 tia case :1,absolute value dc_i : 0 , value dc_q : 1 
####:reg0x1274=0x502d5629.
####:reg0x1278=0x502d5a27.
tia_cnt_i : 0 ,
tia_cnt_q : 1 ,
I:reg0x1150=0xb0f1f1b.
Q:reg0x1154=0x373b2327.
RX0 tia case :2,absolute value dc_i : 0 , value dc_q : 1 
####:reg0x1278=0x5a2c5a27.
####:reg0x127c=0x4e33542b.
tia_cnt_i : 0 ,
tia_cnt_q : 14 ,
I:reg0x1150=0xb0f1f1b.
Q:reg0x1154=0x373b2327.
RX0 tia case :3,absolute value dc_i : 0 , value dc_q : 1 
####:reg0x127c=0x5425542b.
####:reg0x1280=0x3e414439.
tia_cnt_i : 0 ,
tia_cnt_q : 65 ,
I:reg0x1150=0xb0f1f1b.
Q:reg0x1154=0x373b2327.
RX0 tia case :4,absolute value dc_i : 0 , value dc_q : 2 
####:reg0x1280=0x44004439.
####:reg0x1284=0x463b4439.
tia_cnt_i : 0 ,
tia_cnt_q : 59 ,
I:reg0x1150=0xb0f1f1b.
Q:reg0x1154=0x373b2327.
RX0 tia case :5,absolute value dc_i : 0 , value dc_q : 2 
####:reg0x1284=0x44004439.
####:reg0x1288=0x3e41463b.
tia_cnt_i : 0 ,
tia_cnt_q : 61 ,
I:reg0x1150=0xb0f1f1b.
Q:reg0x1154=0x373b2327.
RX0 tia case :6,absolute value dc_i : 0 , value dc_q : 1 
####:reg0x1288=0x4604463b.
####:reg0x128c=0x3e413c41.
tia_cnt_i : 0 ,
tia_cnt_q : 65 ,
I:reg0x1150=0xb0f1f1b.
Q:reg0x1154=0x373b2327.
RX0 tia case :7,absolute value dc_i : 0 , value dc_q : 2 
####:reg0x128c=0x3c003c41.
####:reg0x1290=0x3c433a45.
tia_cnt_i : 0 ,
tia_cnt_q : 23 ,
I:reg0x1150=0xb0f1f1b.
Q:reg0x1154=0x373b2327.
RX0 tia case :8,absolute value dc_i : 0 , value dc_q : 1 
####:reg0x1290=0x3a2c3a45.
####:reg0x1294=0x3a453a45.
tia_cnt_i : 0 ,
tia_cnt_q : 69 ,
I:reg0x1150=0xb0f1f1b.
Q:reg0x1154=0x373b2327.
RX0 tia case :9,absolute value dc_i : 0 , value dc_q : 2 
####:reg0x1294=0x3a003a45.
####:reg0x1298=0x3a453a47.
tia_cnt_i : 0 ,
tia_cnt_q : 58 ,
I:reg0x1150=0xb0f1f1b.
Q:reg0x1154=0x373b2327.
RX0 tia case :10,absolute value dc_i : 0 , value dc_q : 1 
####:reg0x1298=0x3a0b3a47.
####:reg0x129c=0x3c433a45.
tia_cnt_i : 0 ,
tia_cnt_q : 67 ,
I:reg0x1150=0xb0f1f1b.
Q:reg0x1154=0x373b2327.
RX0 tia case :11,absolute value dc_i : 0 , value dc_q : 2 
####:reg0x129c=0x3a003a45.
####:reg0x12a0=0x3a453a45.
tia_cnt_i : 0 ,
tia_cnt_q : 69 ,
I:reg0x1150=0xb0f1f1b.
Q:reg0x1154=0x373b2327.
RX0 tia case :12,absolute value dc_i : 0 , value dc_q : 2 
####:reg0x12a0=0x3a003a45.
rx1 tia cali begin:
Q:reg0x12b0=0x6a156a15.
 RX1 :reg0x1130=0x6a156a15.
tia_cnt_i : 21 ,
tia_cnt_q : 31 ,
RX1 tia case :0,absolute value dc_i : 6 , value dc_q : -1 
RX1:reg0x12b0=0x7f347f00.
Q:reg0x12b4=0x66196619.
 RX1 :reg0x1130=0x66196619.
tia_cnt_i : 25 ,
tia_cnt_q : 0 ,
RX1 tia case :1,absolute value dc_i : 5 , value dc_q : 0 
RX1:reg0x12b4=0x66197f00.
Q:reg0x12b8=0x6419661b.
 RX1 :reg0x1130=0x661b6419.
tia_cnt_i : 25 ,
tia_cnt_q : 0 ,
RX1 tia case :2,absolute value dc_i : 4 , value dc_q : 1 
RX1:reg0x12b8=0x64197f02.
Q:reg0x12bc=0x641b601d.
 RX1 :reg0x1130=0x601d641b.
tia_cnt_i : 29 ,
tia_cnt_q : 0 ,
RX1 tia case :3,absolute value dc_i : 4 , value dc_q : 1 
RX1:reg0x12bc=0x641b7d00.
Q:reg0x12c0=0x5c215c23.
 RX1 :reg0x1130=0x5c235c21.
tia_cnt_i : 35 ,
tia_cnt_q : 0 ,
RX1 tia case :4,absolute value dc_i : 3 , value dc_q : 1 
RX1:reg0x12c0=0x5c217f00.
Q:reg0x12c4=0x56295827.
 RX1 :reg0x1130=0x58275629.
tia_cnt_i : 39 ,
tia_cnt_q : 0 ,
RX1 tia case :5,absolute value dc_i : 3 , value dc_q : 1 
RX1:reg0x12c4=0x56297f00.
Q:reg0x12c8=0x54295629.
 RX1 :reg0x1130=0x56295429.
tia_cnt_i : 41 ,
tia_cnt_q : 1 ,
RX1 tia case :6,absolute value dc_i : 3 , value dc_q : 1 
RX1:reg0x12c8=0x7f287f00.
Q:reg0x12cc=0x54295629.
 RX1 :reg0x1130=0x56295429.
tia_cnt_i : 41 ,
tia_cnt_q : 1 ,
RX1 tia case :7,absolute value dc_i : 3 , value dc_q : 1 
RX1:reg0x12cc=0x7f287f00.
Q:reg0x12d0=0x522d522d.
 RX1 :reg0x1130=0x522d522d.
tia_cnt_i : 45 ,
tia_cnt_q : 1 ,
RX1 tia case :8,absolute value dc_i : 3 , value dc_q : 1 
RX1:reg0x12d0=0x7f2c7f00.
Q:reg0x12d4=0x502d522d.
 RX1 :reg0x1130=0x522d502d.
tia_cnt_i : 45 ,
tia_cnt_q : 1 ,
RX1 tia case :9,absolute value dc_i : 3 , value dc_q : 1 
RX1:reg0x12d4=0x7f2c7f00.
Q:reg0x12d8=0x522d522d.
 RX1 :reg0x1130=0x522d522d.
tia_cnt_i : 45 ,
tia_cnt_q : 1 ,
RX1 tia case :10,absolute value dc_i : 3 , value dc_q : 1 
RX1:reg0x12d8=0x7f2c7f00.
Q:reg0x12dc=0x522d542b.
 RX1 :reg0x1130=0x542b522d.
tia_cnt_i : 43 ,
tia_cnt_q : 1 ,
RX1 tia case :11,absolute value dc_i : 3 , value dc_q : 1 
RX1:reg0x12dc=0x7f2c7f00.
Q:reg0x12e0=0x522f542b.
 RX1 :reg0x1130=0x542b522f.
tia_cnt_i : 43 ,
tia_cnt_q : 1 ,
RX1 tia case :12,absolute value dc_i : 3 , value dc_q : 1 
RX1:reg0x12e0=0x7f2e7f00.
tia calibration end!
rx0 vga calibration begin
reg0x1120=0x3fc100.
vga case:1 pass.
RX0 vga case:1 ,absolute value dc_i_tmp : 1 , value dc_q_tmp : 0 ,I:reg0x1184=0x90f1d1b.   Q:reg0x11c0=0x393b2527.
vga case:2 pass.
RX0 vga case:2 ,absolute value dc_i_tmp : 1 , value dc_q_tmp : 1 ,I:reg0x1188=0x90f1d1b.   Q:reg0x11c4=0x393b2527.
vga case:3 pass.
RX0 vga case:3 ,absolute value dc_i_tmp : 1 , value dc_q_tmp : 0 ,I:reg0x118c=0x90f1d1b.   Q:reg0x11c8=0x37392729.
vga case:4 pass.
RX0 vga case:4 ,absolute value dc_i_tmp : 0 , value dc_q_tmp : 1 ,I:reg0x1190=0x90f1d1b.   Q:reg0x11cc=0x393b2527.
vga case:5 pass.
RX0 vga case:5 ,absolute value dc_i_tmp : 0 , value dc_q_tmp : 1 ,I:reg0x1194=0xb111d1b.   Q:reg0x11d0=0x37392527.
vga case:6 pass.
RX0 vga case:6 ,absolute value dc_i_tmp : 1 , value dc_q_tmp : 1 ,I:reg0x1198=0x9111d1b.   Q:reg0x11d4=0x39392527.
vga case:7 pass.
RX0 vga case:7 ,absolute value dc_i_tmp : 1 , value dc_q_tmp : 1 ,I:reg0x119c=0x70f1d1b.   Q:reg0x11d8=0x3b392527.
vga case:8 pass.
RX0 vga case:8 ,absolute value dc_i_tmp : 1 , value dc_q_tmp : 0 ,I:reg0x11a0=0xf0b211d.   Q:reg0x11dc=0x373d2529.
vga case:9 pass.
RX0 vga case:9 ,absolute value dc_i_tmp : 0 , value dc_q_tmp : 1 ,I:reg0x11a4=0xd09211d.   Q:reg0x11e0=0x37392529.
vga case:10 pass.
RX0 vga case:10 ,absolute value dc_i_tmp : 1 , value dc_q_tmp : 1 ,I:reg0x11a8=0x90f1f1d.   Q:reg0x11e4=0x393d2329.
vga case:11 pass.
RX0 vga case:11 ,absolute value dc_i_tmp : 1 , value dc_q_tmp : 1 ,I:reg0x11ac=0xf0d1f1d.   Q:reg0x11e8=0x3939252b.
vga case:12 pass.
RX0 vga case:12 ,absolute value dc_i_tmp : 0 , value dc_q_tmp : 1 ,I:reg0x11b0=0x7111d1d.   Q:reg0x11ec=0x333f212b.
vga case:13 pass.
RX0 vga case:13 ,absolute value dc_i_tmp : 0 , value dc_q_tmp : 1 ,I:reg0x11b4=0x110f1d1d.   Q:reg0x11f0=0x333f212d.
vga case:14 pass.
RX0 vga case:14 ,absolute value dc_i_tmp : 1 , value dc_q_tmp : 0 ,I:reg0x11b8=0x11191d1f.   Q:reg0x11f4=0x3b39212f.
rx1 vga calibration begin
rx1 vga case:1 pass.
RX1 vga case:1 ,absolute value dc_i_tmp : 2 , value dc_q_tmp : 0 ,I:reg0x11fc=0x39371f29. Q:reg0x1238=0x2f27171b.
rx1 vga case:2 pass.
RX1 vga case:2 ,absolute value dc_i_tmp : 2 , value dc_q_tmp : 0 ,I:reg0x1200=0x39371f29. Q:reg0x123c=0x2f27191d.
rx1 vga case:3 pass.
RX1 vga case:3 ,absolute value dc_i_tmp : 1 , value dc_q_tmp : 1 ,I:reg0x1204=0x39371f29. Q:reg0x1240=0x2f27191d.
rx1 vga case:4 pass.
RX1 vga case:4 ,absolute value dc_i_tmp : 1 , value dc_q_tmp : 0 ,I:reg0x1208=0x39371f29. Q:reg0x1244=0x2f27191d.
rx1 vga case:5 pass.
RX1 vga case:5 ,absolute value dc_i_tmp : 1 , value dc_q_tmp : 0 ,I:reg0x120c=0x37371f29. Q:reg0x1248=0x3129191d.
rx1 vga case:6 pass.
RX1 vga case:6 ,absolute value dc_i_tmp : 1 , value dc_q_tmp : 1 ,I:reg0x1210=0x37371f29. Q:reg0x124c=0x2d29171b.
rx1 vga case:7 pass.
RX1 vga case:7 ,absolute value dc_i_tmp : 1 , value dc_q_tmp : 0 ,I:reg0x1214=0x37391f29. Q:reg0x1250=0x33211b1d.
rx1 vga case:8 pass.
RX1 vga case:8 ,absolute value dc_i_tmp : 0 , value dc_q_tmp : 1 ,I:reg0x1218=0x3b371f2b. Q:reg0x1254=0x3127191d.
rx1 vga case:9 pass.
RX1 vga case:9 ,absolute value dc_i_tmp : 0 , value dc_q_tmp : 0 ,I:reg0x121c=0x3b371d2d. Q:reg0x1258=0x2d29171d.
rx1 vga case:10 pass.
RX1 vga case:10 ,absolute value dc_i_tmp : 1 , value dc_q_tmp : 1 ,I:reg0x1220=0x3b351b2f. Q:reg0x125c=0x3125171d.
rx1 vga case:11 pass.
RX1 vga case:11 ,absolute value dc_i_tmp : 1 , value dc_q_tmp : 0 ,I:reg0x1224=0x39351731. Q:reg0x1260=0x3325171f.
rx1 vga case:12 pass.
RX1 vga case:12 ,absolute value dc_i_tmp : 1 , value dc_q_tmp : 0 ,I:reg0x1228=0x3b351535. Q:reg0x1264=0x2b291521.
rx1 vga case:13 pass.
RX1 vga case:13 ,absolute value dc_i_tmp : 0 , value dc_q_tmp : 1 ,I:reg0x122c=0x37370d37. Q:reg0x1268=0x37211723.
rx1 vga case:14 pass.
RX1 vga case:14 ,absolute value dc_i_tmp : 0 , value dc_q_tmp : 1 ,I:reg0x1230=0x3d31053f. Q:reg0x126c=0x31291125.
reg0x1120=0x3c0100.
vga calibration end!
RX0: 0x103c : e002c000 ,0x1040 : b0001102 
RX1: 0x1054 : e002c000 ,0x1058 : b0001100 
THIS CASE J: 0 M:11 
adc calibration begin
calibration begin
RX0 cali pre ,absolute value dc_i_tmp : 0 , value dc_q_tmp : 15 ,
reg0x1180=0xb0f1f1b.
reg0x11bc=0x373b2327.
RX1 cali pre ,absolute value dc_i_tmp : 1 , value dc_q_tmp : 8 ,reg0x11f8=0x3b372327.
reg0x1234=0x3127191d.
rx0 tia cali begin:
####:reg0x1270=0x542b5825.
tia_cnt_i : 0 ,
tia_cnt_q : 84 ,
I:reg0x1150=0xb0f1f1b.
Q:reg0x1154=0x373b2327.
RX0 tia case :0,absolute value dc_i : -1 , value dc_q : -16 
